2025-10-15 22:14:33.749 | TX | 0E 03 00 00 00 04 44 F6 
2025-10-15 22:14:33.749 | RX | 0E 03 08 00 00 00 00 00 00 2C E2 39 4A 
2025-10-15 22:14:33.764 | TX | 0E 03 00 00 00 04 44 F6 
2025-10-15 22:14:33.765 | RX | 0E 03 08 00 00 00 00 00 00 2C E2 39 4A 
2025-10-15 22:14:34.740 | TX | 0E 03 00 00 00 04 44 F6 
2025-10-15 22:14:34.741 | RX | 0E 03 08 00 00 00 00 00 00 2C E3 F8 8A 
2025-10-15 22:14:34.756 | TX | 0E 03 00 00 00 04 44 F6 
2025-10-15 22:14:34.757 | RX | 0E 03 08 00 00 00 00 00 00 2C E3 F8 8A 
2025-10-15 22:14:34.773 | TX | 0E 10 00 00 00 02 04 00 01 00 0A 12 7C 
2025-10-15 22:14:34.773 | RX | 0E 10 00 00 00 02 41 37 
2025-10-15 22:14:34.789 | TX | 0E 10 00 00 00 02 04 00 02 00 01 A3 BB 
2025-10-15 22:14:34.789 | RX | 0E 10 00 00 00 02 41 37 
2025-10-15 22:14:34.805 | TX | 0E 03 00 00 00 01 84 F5 
2025-10-15 22:14:34.805 | RX | 0E 03 02 00 00 EC 45 
2025-10-15 22:14:34.820 | TX | 0E 10 00 00 00 01 02 00 09 27 A6 
2025-10-15 22:14:34.820 | RX | 0E 10 00 00 00 01 01 36 
2025-10-15 22:14:34.836 | TX | 0E 03 00 00 00 01 84 F5 
2025-10-15 22:14:34.836 | RX | 0E 03 02 00 00 EC 45 
2025-10-15 22:14:34.852 | TX | 0E 10 00 00 00 01 02 00 09 27 A6 
2025-10-15 22:14:34.852 | RX | 0E 10 00 00 00 01 01 36 
2025-10-15 22:14:34.883 | TX | 0E 03 A0 00 00 40 66 C5 
2025-10-15 22:14:34.884 | RX | 0E 03 80 00 14 00 1E 00 19 00 07 00 1A 00 21 00 14 00 1A 00 0E 00 27 00 11 40 11 00 15 00 11 00 19 00 1F 00 1A 00 1D 00 1E 00 19 00 17 00 18 00 12 00 16 00 1B 00 19 00 11 00 12 00 0D 00 11 00 12 00 1D 00 1C 00 1F 00 24 00 19 00 16 00 16 00 13 00 13 00 1A 00 12 00 0D 00 14 00 22 00 19 00 15 00 1E 00 14 00 1C 00 1B 00 0C 00 13 00 0E 00 12 00 0D 00 0C 00 0A 00 16 00 19 00 1B 00 15 00 10 00 23 62 86 
2025-10-15 22:14:34.915 | TX | 0E 03 A0 40 00 40 67 11 
2025-10-15 22:14:34.915 | RX | 0E 03 80 00 0E 00 1F 00 10 00 13 00 1E 00 24 00 09 00 11 00 17 00 14 00 11 00 19 00 1C 00 18 00 29 00 28 00 1C 00 16 40 0D 00 1B 00 14 00 17 00 19 00 11 00 14 00 1C 00 15 00 1F 00 22 00 15 00 03 00 0E 00 18 00 17 00 19 00 12 00 0F 00 1F 00 1D 00 20 00 10 00 09 00 12 00 14 00 1D 00 1D 00 1D 00 15 00 14 00 19 00 19 00 09 00 03 00 17 00 11 00 24 00 1A 00 18 00 20 00 26 00 24 00 20 00 19 00 08 48 DE 
2025-10-15 22:14:34.946 | TX | 0E 03 A0 80 00 40 67 2D 
2025-10-15 22:14:34.946 | RX | 0E 03 80 00 0F 00 13 00 10 00 14 00 1B 00 17 00 25 00 1C 00 18 00 14 00 0A 00 1D 00 1B 00 17 00 1F 00 17 00 18 00 16 00 10 00 0F 00 04 00 0C 00 0B 00 1D 00 1E 00 15 00 11 00 20 00 1C 00 11 00 0F 00 11 00 18 00 1B 00 12 00 16 00 1F 00 27 00 1B 00 1B 00 0F 00 12 00 1A 00 11 00 14 00 1E 00 0A 00 17 00 23 00 17 00 0F 00 11 00 0D 00 20 00 13 00 13 00 15 00 20 00 1A 00 1C 00 1C 00 12 40 0F 00 0B F1 35 
2025-10-15 22:14:34.977 | TX | 0E 03 A0 C0 00 40 66 F9 
2025-10-15 22:14:34.977 | RX | 0E 03 80 00 16 00 1E 00 1E 00 11 00 08 00 0F 00 17 00 15 00 15 00 15 00 15 00 1B 40 18 00 0E 00 13 00 19 00 17 00 21 00 23 00 0E 00 26 00 27 00 16 00 14 00 0D 00 10 00 10 00 13 00 17 00 14 00 17 00 13 40 1F 40 18 00 14 00 10 00 22 00 12 00 0F 00 14 00 16 00 1C 00 19 00 11 00 14 00 11 00 14 00 1C 00 10 00 0F 00 18 00 07 00 13 00 18 00 12 00 05 00 18 00 14 00 15 00 13 00 1D 00 21 00 1B 00 14 5B F1 
2025-10-15 22:14:35.007 | TX | 0E 03 A1 00 00 40 67 39 
2025-10-15 22:14:35.007 | RX | 0E 03 80 00 02 00 0B 00 1B 00 1E 00 19 00 1F 00 21 00 1A 00 23 00 21 00 15 00 16 00 09 00 12 00 05 00 10 00 0E 00 1C 00 19 00 20 00 1A 00 23 00 17 00 12 00 13 00 03 00 13 00 08 00 14 00 15 00 1C 00 22 00 1B 00 1C 00 0F 00 18 00 16 00 21 00 1E 00 1D 00 08 00 0A 00 15 00 19 00 0D 40 00 00 13 00 17 00 20 00 1E 00 18 00 1A 00 22 00 1B 40 0C 00 0A 00 12 00 11 00 0C 00 11 00 0C 00 1A 00 14 00 10 7C 8D 
2025-10-15 22:14:35.038 | TX | 0E 03 A1 40 00 40 66 ED 
2025-10-15 22:14:35.039 | RX | 0E 03 80 00 0E 00 14 00 11 00 18 00 12 00 0D 00 13 00 16 00 0F 00 13 00 16 00 0E 00 15 00 12 00 0E 00 19 00 20 00 20 00 16 00 1B 40 18 00 03 00 16 00 14 00 15 00 14 00 1B 00 1F 00 19 00 24 00 1E 00 08 00 16 00 16 00 1A 00 17 00 1F 00 19 00 19 00 16 00 1B 00 0C 00 18 00 13 00 0C 00 0D 00 20 00 19 00 18 00 18 00 0E 00 13 00 10 00 0B 00 13 00 0F 00 11 00 14 00 17 00 14 00 21 00 18 00 15 00 18 AF C9 
2025-10-15 22:14:35.070 | TX | 0E 03 A1 80 00 40 66 D1 
2025-10-15 22:14:35.070 | RX | 0E 03 80 00 1A 00 1A 00 14 00 08 00 1B 00 11 00 13 00 19 00 18 00 1D 00 18 00 16 00 16 00 15 00 18 40 1B 00 0D 00 0E 00 20 00 11 00 16 00 19 00 23 00 20 00 24 00 1C 00 09 00 11 00 13 00 18 00 16 00 10 00 16 00 1F 00 17 40 20 00 14 00 11 00 18 00 1A 00 0F 00 10 00 1F 00 17 00 16 00 1D 00 13 00 13 00 15 00 13 00 17 00 12 00 18 00 25 00 15 00 19 00 1D 00 19 00 0F 00 0D 00 12 00 12 00 1A 00 1B 6A 50 
2025-10-15 22:14:35.101 | TX | 0E 03 A1 C0 00 40 67 05 
2025-10-15 22:14:35.101 | RX | 0E 03 80 00 07 00 12 00 22 00 07 00 15 00 17 00 16 00 0D 00 1B 00 10 00 0E 00 11 00 18 00 19 00 18 00 10 00 16 00 1E 00 18 00 15 40 11 00 19 00 19 00 16 00 16 00 21 00 23 00 1A 00 1B 00 0E 00 0C 00 0F 00 1D 00 0E 00 16 00 21 00 10 00 1F 40 1C 00 0F 00 0F 00 17 00 1C 00 0D 00 17 00 14 00 22 00 1D 00 22 00 1A 00 15 00 15 00 13 00 13 00 0C 00 11 00 14 00 16 00 1E 00 1D 00 1A 00 1C 00 21 00 1A C7 7F 
2025-10-15 22:14:35.132 | TX | 0E 03 A2 00 00 40 67 7D 
2025-10-15 22:14:35.132 | RX | 0E 03 80 40 03 40 02 40 02 40 02 40 02 40 02 40 03 40 02 40 02 40 02 40 01 40 02 40 02 40 00 40 02 40 02 40 03 40 00 40 04 40 02 40 02 40 02 40 01 40 03 40 03 40 02 40 02 40 01 40 02 40 01 40 02 40 02 40 02 40 01 40 03 40 02 40 03 40 03 40 02 40 02 40 02 40 02 40 02 40 02 40 02 40 02 40 02 40 02 40 02 40 02 40 01 40 02 40 02 40 02 40 02 40 02 40 02 40 02 40 02 40 02 40 01 40 01 40 01 40 02 A3 9A 
2025-10-15 22:14:35.163 | TX | 0E 03 A2 40 00 40 66 A9 
2025-10-15 22:14:35.164 | RX | 0E 03 80 40 02 40 01 40 02 40 02 40 03 40 03 40 02 40 02 40 03 40 02 40 01 40 02 40 02 40 01 40 00 40 02 40 02 40 02 40 02 40 02 40 01 40 02 40 01 40 01 40 02 40 02 40 01 40 01 40 02 40 01 40 02 40 03 40 01 40 02 40 01 40 01 40 01 40 02 40 02 40 02 40 02 40 02 40 02 40 02 40 02 40 02 40 01 40 03 40 02 40 02 40 01 40 02 40 02 40 03 40 01 40 02 40 01 40 02 40 02 40 02 40 02 40 01 40 02 40 02 FF 0D 
2025-10-15 22:14:35.194 | TX | 0E 03 A2 80 00 40 66 95 
2025-10-15 22:14:35.194 | RX | 0E 03 80 40 01 40 01 40 01 40 02 40 02 40 02 40 02 40 02 40 02 40 03 40 02 40 02 40 01 40 02 40 02 40 02 40 02 40 02 40 02 40 02 40 02 40 02 40 01 40 01 40 02 40 02 40 01 40 01 40 03 40 03 40 02 40 02 40 02 40 02 40 02 40 03 40 01 40 02 40 02 40 02 40 01 40 02 40 01 40 02 40 01 40 02 40 02 40 02 40 01 40 02 40 02 40 01 40 01 40 02 40 02 40 02 40 02 40 02 40 02 40 02 40 01 40 02 40 02 40 01 B0 BF 
2025-10-15 22:14:35.225 | TX | 0E 03 A2 C0 00 40 67 41 
2025-10-15 22:14:35.225 | RX | 0E 03 80 40 02 40 02 40 02 40 02 40 02 40 02 40 02 40 02 40 01 40 01 40 01 40 01 40 02 40 02 40 02 40 03 40 03 40 03 40 03 40 03 40 03 40 03 40 03 40 02 40 02 40 02 40 02 40 02 40 02 40 02 40 03 40 03 40 03 40 03 40 03 40 03 40 02 40 02 40 02 40 02 40 02 40 02 40 02 40 02 40 02 40 02 40 02 40 02 40 02 40 02 40 02 40 01 40 01 40 01 40 01 40 01 40 01 40 01 40 01 40 01 40 01 40 01 40 01 40 02 1C C7 
2025-10-15 22:14:35.256 | TX | 0E 03 A3 00 00 40 66 81 
2025-10-15 22:14:35.256 | RX | 0E 03 80 40 02 40 02 40 02 40 03 40 03 40 03 40 03 40 02 40 02 40 02 40 02 40 02 40 02 40 02 40 02 40 02 40 02 40 02 40 03 40 02 40 02 40 02 40 02 40 02 40 02 40 02 40 02 40 02 40 02 40 02 40 02 40 02 40 02 40 02 40 02 40 02 40 02 40 02 40 02 40 02 40 02 40 03 40 02 40 02 40 02 40 02 40 03 40 02 40 02 40 02 40 02 40 01 40 01 40 01 40 01 40 01 40 01 40 01 40 01 40 01 40 02 40 02 40 02 40 02 4D 02 
2025-10-15 22:14:35.287 | TX | 0E 03 A3 40 00 40 67 55 
2025-10-15 22:14:35.287 | RX | 0E 03 80 40 02 40 02 40 02 40 02 40 02 40 02 40 02 40 02 40 02 40 02 40 02 40 02 40 02 40 02 40 02 40 02 40 01 40 01 40 01 40 01 40 02 40 02 40 02 40 02 40 02 40 02 40 02 40 02 40 02 40 02 40 02 40 02 40 02 40 02 40 02 40 02 40 02 40 02 40 02 40 02 40 01 40 01 40 02 40 02 40 02 40 02 40 02 40 02 40 02 40 01 40 01 40 01 40 01 40 01 40 01 40 01 40 01 40 02 40 02 40 02 40 02 40 02 40 02 40 02 3D 4A 
2025-10-15 22:14:35.317 | TX | 0E 03 A3 80 00 40 67 69 
2025-10-15 22:14:35.318 | RX | 0E 03 80 40 02 40 02 40 03 40 03 40 03 40 02 40 02 40 02 40 02 40 02 40 02 40 01 40 01 40 01 40 01 40 01 40 01 40 01 40 01 40 01 40 01 40 01 40 01 40 01 40 01 40 01 40 01 40 02 40 02 40 02 40 02 40 02 40 02 40 02 40 02 40 02 40 02 40 02 40 02 40 02 40 02 40 02 40 02 40 01 40 01 40 01 40 01 40 02 40 02 40 02 40 02 40 02 40 02 40 02 40 02 40 02 40 02 40 02 40 01 40 01 40 01 40 01 40 01 40 01 BD 8C 
2025-10-15 22:14:35.349 | TX | 0E 03 A3 C0 00 40 66 BD 
2025-10-15 22:14:35.349 | RX | 0E 03 80 40 02 40 02 40 02 40 02 40 02 40 02 40 02 40 02 40 02 40 02 40 02 40 02 40 02 40 02 40 02 40 02 40 03 40 03 40 03 40 03 40 02 40 02 40 02 40 02 40 02 40 02 40 01 40 01 40 01 40 01 40 01 40 01 40 01 40 01 40 01 40 01 40 01 40 01 40 01 40 01 40 02 40 02 40 02 40 02 40 02 40 03 40 03 40 03 40 03 40 03 40 02 40 02 40 02 40 02 40 02 40 02 40 03 40 03 40 04 40 04 40 04 40 04 40 04 40 04 19 53 
2025-10-15 22:14:35.365 | TX | 0E 10 00 00 00 01 02 00 09 27 A6 
2025-10-15 22:14:35.365 | RX | 0E 10 00 00 00 01 01 36 
2025-10-15 22:14:35.396 | TX | 0E 03 A0 00 00 40 66 C5 
2025-10-15 22:14:35.396 | RX | 0E 03 80 00 1A 00 18 00 0A 00 1A 00 18 00 1A 00 16 00 0A 00 06 00 0A 00 18 00 13 00 16 00 18 00 1E 00 23 00 0E 00 10 00 16 00 10 00 19 00 0D 00 14 00 16 00 1D 00 17 00 15 00 19 00 1A 00 11 00 16 00 0D 00 16 00 1E 00 13 00 1B 00 12 00 18 00 15 40 18 40 13 00 08 00 12 00 0C 00 1E 00 17 00 15 00 1B 00 26 00 1F 00 0D 00 0E 00 13 00 18 00 1A 00 11 00 16 00 15 00 18 00 22 00 17 00 10 00 10 00 13 A2 67 
2025-10-15 22:14:35.427 | TX | 0E 03 A0 40 00 40 67 11 
2025-10-15 22:14:35.427 | RX | 0E 03 80 00 11 00 17 00 1B 00 19 00 16 00 18 00 26 00 1F 00 12 00 1A 00 10 00 13 00 1A 00 0E 00 0C 00 17 00 20 00 19 40 26 00 16 00 15 00 18 00 19 00 11 00 12 00 10 00 22 00 27 00 1D 00 17 00 13 00 10 00 12 00 1A 00 0F 00 10 00 21 00 15 00 19 00 1A 00 11 00 1E 00 16 00 11 00 04 00 13 00 15 00 20 00 20 00 1F 00 19 00 15 00 09 00 0F 00 0A 40 19 00 1B 00 17 00 1E 00 0E 00 0C 00 15 00 10 00 14 B4 27 
2025-10-15 22:14:35.458 | TX | 0E 03 A0 80 00 40 67 2D 
2025-10-15 22:14:35.458 | RX | 0E 03 80 00 20 00 0B 00 0A 00 21 00 12 00 18 00 0F 00 22 00 17 00 14 00 10 00 0E 00 0A 00 0E 00 16 00 17 00 22 00 18 00 18 00 26 00 1B 00 12 00 FC 40 0C 00 1B 00 1D 00 15 00 16 00 19 00 12 00 1D 00 20 00 21 00 16 00 0E 00 24 00 17 00 12 00 19 00 18 00 15 00 1E 00 0C 00 1A 00 1B 00 0A 00 17 00 19 00 10 00 1C 00 15 00 14 00 1B 00 20 00 0E 00 05 00 16 00 14 00 0C 00 11 00 1E 00 1F 00 22 00 14 87 0E 
2025-10-15 22:14:35.489 | TX | 0E 03 A0 C0 00 40 66 F9 
2025-10-15 22:14:35.489 | RX | 0E 03 80 00 18 00 0F 00 11 00 0D 00 12 00 23 00 18 00 17 00 20 00 05 00 1B 00 15 00 24 00 24 00 20 00 0C 00 15 00 13 00 1D 00 20 00 0E 00 18 00 21 00 0D 00 1B 00 24 00 0F 00 14 00 19 00 14 00 0B 00 0D 00 1A 00 06 40 22 00 08 00 13 00 20 00 1C 00 1D 00 14 00 0F 00 13 00 19 00 1D 00 15 00 13 00 0C 00 11 00 19 00 19 00 24 00 1F 00 23 00 21 00 15 00 15 00 1C 00 21 00 1B 00 1C 00 15 00 21 00 15 06 54 
2025-10-15 22:14:35.520 | TX | 0E 03 A1 00 00 40 67 39 
2025-10-15 22:14:35.521 | RX | 0E 03 80 00 0E 00 13 00 12 00 15 00 13 00 10 00 21 00 13 00 20 00 18 00 12 00 13 00 13 00 1B 00 1C 00 17 00 1B 00 18 00 20 00 16 00 1E 00 06 00 0F 00 0C 00 20 00 1B 00 1A 00 1D 00 25 00 20 00 1E 00 1C 00 1D 00 10 00 14 00 10 00 08 00 10 00 19 00 22 00 1D 00 24 00 1D 00 06 00 11 00 19 00 12 00 04 00 0C 00 13 00 15 00 1F 00 1C 00 1E 00 14 00 0F 00 14 00 15 00 1E 00 1C 00 1D 00 19 00 16 00 13 6C EA 
2025-10-15 22:14:35.551 | TX | 0E 03 A1 40 00 40 66 ED 
2025-10-15 22:14:35.552 | RX | 0E 03 80 00 1F 00 1A 00 12 00 18 00 14 00 0F 00 1A 00 14 40 08 00 06 00 1A 00 16 00 15 00 1B 00 20 00 21 00 23 00 0E 00 1B 00 09 00 08 00 1F 00 16 00 09 00 19 00 14 00 19 00 16 00 11 00 13 00 15 00 0D 00 1A 00 1D 00 14 00 14 00 11 00 10 00 16 00 19 00 10 00 09 00 13 00 19 00 12 00 1E 00 1B 00 11 00 25 00 1D 00 18 40 20 00 04 00 18 00 1A 00 16 00 10 00 1A 00 25 00 17 00 22 00 20 00 1A 00 03 5B D0 
2025-10-15 22:14:35.582 | TX | 0E 03 A1 80 00 40 66 D1 
2025-10-15 22:14:35.582 | RX | 0E 03 80 40 26 00 18 00 18 00 18 00 12 00 17 00 12 00 20 00 17 00 1A 00 19 00 14 00 18 00 15 00 16 00 1A 00 12 00 13 00 18 00 1B 00 18 00 16 00 15 00 19 00 18 00 17 00 0D 00 16 00 23 00 29 00 15 00 13 00 20 00 1B 00 19 00 1A 00 1A 00 09 40 10 00 14 00 19 00 1A 00 1A 00 1B 00 18 00 10 00 19 00 19 00 1E 00 10 00 0E 00 17 00 14 00 17 00 09 00 0F 40 0C 00 10 00 1E 00 1D 00 13 00 16 00 1F 00 17 18 01 
2025-10-15 22:14:35.613 | TX | 0E 03 A1 C0 00 40 67 05 
2025-10-15 22:14:35.613 | RX | 0E 03 80 00 17 00 07 00 1A 00 1B 00 1B 00 17 00 14 00 19 00 0D 00 19 40 17 40 09 00 05 00 0F 00 0D 00 21 00 18 00 1F 00 1A 00 1C 00 1B 00 1B 00 0D 00 09 00 15 00 13 00 16 00 04 00 11 00 20 00 1C 00 16 00 22 00 10 00 11 00 12 00 11 00 18 00 21 00 1F 00 20 00 20 00 0F 00 0F 00 14 00 09 00 14 00 14 00 14 00 19 00 15 00 1C 00 1B 00 13 00 0F 00 0E 40 07 00 17 00 18 00 1C 00 14 00 0F 00 1B 00 21 7E AE 
2025-10-15 22:14:35.644 | TX | 0E 03 A2 00 00 40 67 7D 
2025-10-15 22:14:35.644 | RX | 0E 03 80 40 02 40 02 40 01 40 02 40 02 40 02 40 02 40 01 40 01 40 02 40 02 40 02 40 02 40 02 40 03 40 01 40 03 40 03 40 01 40 01 40 01 40 03 40 01 40 02 40 02 40 02 40 01 40 02 40 01 40 01 40 01 40 03 40 01 40 01 40 02 40 02 40 01 40 02 40 02 40 00 40 03 40 01 40 02 40 02 40 02 40 01 40 03 40 02 40 02 40 02 40 02 40 02 40 02 40 02 40 02 40 02 40 02 40 02 40 01 40 01 40 02 40 02 40 02 40 01 1E 41 
2025-10-15 22:14:35.675 | TX | 0E 03 A2 40 00 40 66 A9 
2025-10-15 22:14:35.675 | RX | 0E 03 80 40 01 40 02 40 00 40 02 40 01 40 02 40 01 40 02 40 01 40 01 40 01 40 02 40 02 40 02 40 02 40 02 40 01 40 02 40 02 40 02 40 02 40 02 40 01 40 02 40 01 40 02 40 02 40 02 40 01 40 03 40 02 40 02 40 02 40 01 40 02 40 00 40 03 40 01 40 01 40 02 40 02 40 01 40 01 40 02 40 02 40 01 40 02 40 01 40 02 40 02 40 02 40 02 40 02 40 01 40 02 40 02 40 02 40 02 40 01 40 02 40 02 40 02 40 02 40 02 84 22 
2025-10-15 22:14:35.706 | TX | 0E 03 A2 80 00 40 66 95 
2025-10-15 22:14:35.706 | RX | 0E 03 80 40 02 40 02 40 01 40 02 40 03 40 02 40 02 40 02 40 03 40 02 40 02 40 01 40 01 40 02 40 02 40 02 40 02 40 01 40 01 40 02 40 02 40 00 40 01 40 02 40 01 40 02 40 02 40 01 40 02 40 01 40 02 40 02 40 02 40 01 40 02 40 02 40 02 40 02 40 02 40 02 40 01 40 01 40 02 40 03 40 02 40 01 40 02 40 02 40 02 40 02 40 01 40 01 40 02 40 03 40 02 40 03 40 01 40 02 40 03 40 02 40 02 40 02 40 01 40 01 C2 DD 
2025-10-15 22:14:35.737 | TX | 0E 03 A2 C0 00 40 67 41 
2025-10-15 22:14:35.737 | RX | 0E 03 80 40 01 40 03 40 01 40 01 40 03 40 02 40 02 40 01 40 01 40 02 40 02 40 02 40 02 40 01 40 01 40 02 40 01 40 01 40 02 40 02 40 03 40 02 40 02 40 02 40 01 40 02 40 02 40 01 40 02 40 02 40 03 40 01 40 02 40 01 40 01 40 02 40 02 40 02 40 01 40 02 40 02 40 02 40 02 40 02 40 02 40 03 40 02 40 02 40 01 40 02 40 01 40 02 40 02 40 02 40 02 40 02 40 01 40 01 40 02 40 01 40 02 40 01 40 02 40 01 E2 49 
2025-10-15 22:14:35.768 | TX | 0E 03 A3 00 00 40 66 81 
2025-10-15 22:14:35.768 | RX | 0E 03 80 40 02 40 02 40 01 40 01 40 01 40 02 40 01 40 02 40 02 40 02 40 01 40 02 40 02 40 02 40 01 40 01 40 02 40 02 40 02 40 02 40 02 40 02 40 01 40 02 40 00 40 01 40 02 40 02 40 02 40 02 40 02 40 01 40 02 40 01 40 02 40 02 40 01 40 02 40 02 40 02 40 03 40 01 40 02 40 02 40 01 40 01 40 01 40 01 40 01 40 02 40 01 40 02 40 01 40 01 40 02 40 03 40 02 40 01 40 01 40 01 40 02 40 02 40 02 40 02 88 8C 
2025-10-15 22:14:35.799 | TX | 0E 03 A3 40 00 40 67 55 
2025-10-15 22:14:35.799 | RX | 0E 03 80 40 02 40 02 40 01 40 02 40 02 40 02 40 01 40 02 40 01 40 02 40 02 40 02 40 02 40 02 40 02 40 01 40 01 40 01 40 02 40 02 40 02 40 03 40 01 40 03 40 02 40 02 40 02 40 02 40 01 40 02 40 01 40 02 40 01 40 01 40 02 40 02 40 01 40 01 40 02 40 02 40 01 40 02 40 02 40 02 40 02 40 02 40 01 40 02 40 01 40 02 40 03 40 02 40 02 40 01 40 02 40 02 40 02 40 02 40 02 40 02 40 02 40 03 40 01 40 01 36 12 
2025-10-15 22:14:35.830 | TX | 0E 03 A3 80 00 40 67 69 
2025-10-15 22:14:35.831 | RX | 0E 03 80 40 02 40 03 40 02 40 02 40 01 40 01 40 02 40 01 40 01 40 01 40 02 40 02 40 03 40 02 40 02 40 02 40 01 40 02 40 02 40 02 40 02 40 02 40 02 40 03 40 02 40 02 40 01 40 02 40 01 40 02 40 02 40 01 40 01 40 02 40 02 40 02 40 02 40 01 40 01 40 02 40 03 40 02 40 03 40 02 40 02 40 03 40 02 40 03 40 01 40 02 40 01 40 01 40 03 40 02 40 02 40 02 40 02 40 03 40 02 40 01 40 02 40 01 40 02 40 02 A3 2F 
2025-10-15 22:14:35.862 | TX | 0E 03 A3 C0 00 40 66 BD 
2025-10-15 22:14:35.862 | RX | 0E 03 80 40 03 40 03 40 03 40 01 40 02 40 02 40 01 40 02 40 02 40 02 40 03 40 02 40 02 40 02 40 02 40 02 40 03 40 03 40 03 40 02 40 02 40 02 40 02 40 02 40 02 40 03 40 01 40 02 40 02 40 02 40 02 40 02 40 01 40 02 40 01 40 03 40 02 40 02 40 02 40 01 40 01 40 02 40 02 40 01 40 02 40 01 40 01 40 01 40 01 40 02 40 02 40 01 40 02 40 01 40 02 40 01 40 02 40 02 40 02 40 02 40 01 40 01 40 02 40 03 3D C2 
2025-10-15 22:14:35.878 | TX | 0E 10 00 00 00 01 02 00 09 27 A6 
2025-10-15 22:14:35.878 | RX | 0E 10 00 00 00 01 01 36 
2025-10-15 22:14:35.909 | TX | 0E 03 A0 00 00 40 66 C5 
2025-10-15 22:14:35.909 | RX | 0E 03 80 00 0E 00 10 00 15 00 1C 00 14 40 0B 00 0F 00 0E 00 0F 00 1A 00 1F 00 1F 00 22 00 23 00 21 00 09 00 08 00 13 00 10 00 1A 00 14 00 1E 00 1B 00 19 00 1F 00 08 00 15 00 0C 00 19 00 1C 00 14 00 0D 00 19 00 0E 00 11 40 0D 00 17 00 19 00 21 00 18 00 12 00 0A 00 20 00 20 00 0B 00 17 00 19 00 18 00 0A 00 11 00 16 00 14 00 1C 00 1E 00 23 00 17 00 1E 00 1E 00 13 00 0C 00 06 00 12 00 13 00 0E 43 A3 
2025-10-15 22:14:35.940 | TX | 0E 03 A0 40 00 40 67 11 
2025-10-15 22:14:35.940 | RX | 0E 03 80 00 17 00 18 00 04 00 13 00 1F 00 1B 00 18 40 18 00 17 00 1D 00 1B 00 1A 00 1C 00 1F 00 15 00 16 00 16 00 1A 00 15 00 19 00 17 00 1C 00 20 00 1B 00 1A 00 0E 00 1D 00 17 00 1E 00 11 00 18 00 0A 00 10 00 17 00 0E 00 18 00 0F 00 23 00 20 00 1A 00 10 00 13 00 11 00 0F 00 16 00 1D 00 1B 00 21 00 17 00 19 00 13 00 05 00 0E 00 18 00 15 00 1C 00 1F 00 14 00 28 00 15 00 17 00 0D 00 04 00 10 9C 98 
2025-10-15 22:14:35.971 | TX | 0E 03 A0 80 00 40 67 2D 
2025-10-15 22:14:35.971 | RX | 0E 03 80 00 18 00 17 60 20 00 0F 00 09 00 1A 00 16 00 23 00 1A 00 1A 00 1A 00 19 00 1D 00 15 40 1B 00 0E 00 0F 00 10 00 21 00 12 00 16 00 29 00 28 00 15 00 25 00 10 00 0E 00 09 00 16 00 0C 00 17 00 18 00 1C 00 1F 00 1D 00 13 00 1D 00 11 00 16 00 0D 00 1C 00 0A 00 22 00 1D 00 19 00 21 00 13 00 21 40 22 00 13 00 11 00 1E 00 15 00 1A 00 18 00 17 00 22 00 1A 00 16 00 19 00 13 00 18 00 08 00 10 45 6C 
2025-10-15 22:14:36.002 | TX | 0E 03 A0 C0 00 40 66 F9 
2025-10-15 22:14:36.002 | RX | 0E 03 80 00 18 00 0D 00 09 00 10 00 1B 00 17 00 0B 00 14 00 1F 00 1F 00 19 00 23 00 0C 00 0D 00 10 00 0E 00 1D 00 17 00 11 00 12 00 10 00 14 00 11 00 0D 00 10 00 0A 00 13 00 0C 00 10 00 14 00 1E 00 1C 00 1C 00 19 00 13 60 0B 00 0C 00 0A 00 1F 00 20 00 1D 00 16 00 2A 00 1E 00 19 00 19 00 1E 1F FE 00 04 00 11 00 1D 00 0E 00 0D 00 22 00 15 00 19 00 14 00 1A 00 18 00 0B 00 11 00 15 00 11 00 13 D3 AC 
2025-10-15 22:14:36.033 | TX | 0E 03 A1 00 00 40 67 39 
2025-10-15 22:14:36.033 | RX | 0E 03 80 00 0F 00 11 00 0F 00 1C 00 16 00 16 00 0A 00 11 00 1F 00 14 00 13 00 19 00 0D 00 1A 00 0B 00 1C 00 15 00 14 00 13 00 17 00 1C 00 09 00 20 00 19 00 1B 00 19 00 17 00 19 00 12 00 0A 00 14 00 1C 00 19 00 18 00 16 00 16 00 1F 00 18 00 1E 00 25 00 0F 00 0C 00 0D 00 16 00 1B 00 15 00 17 00 10 00 16 00 14 00 21 00 15 00 17 00 13 00 11 00 12 00 19 00 19 00 18 00 12 00 1B 00 1A 00 15 00 10 48 97 
2025-10-15 22:14:36.064 | TX | 0E 03 A1 40 00 40 66 ED 
2025-10-15 22:14:36.064 | RX | 0E 03 80 00 0C 00 0B 00 0B 00 0B 00 0C 00 0D 00 0E 00 0F 00 10 00 12 00 13 00 14 00 14 00 13 00 11 00 0F 00 0D 00 0C 00 0B 00 0B 00 0C 00 0E 00 0F 00 11 00 13 00 14 00 15 00 17 00 18 00 19 00 19 00 19 00 18 00 18 00 18 00 17 00 16 00 15 00 13 00 11 00 10 00 10 00 11 00 12 00 15 00 17 00 19 00 1B 00 1C 00 1D 00 1C 00 1B 00 1A 00 19 00 18 00 17 00 17 00 18 00 19 00 19 00 19 00 1A 00 19 00 19 7B 77 
2025-10-15 22:14:36.095 | TX | 0E 03 A1 80 00 40 66 D1 
2025-10-15 22:14:36.095 | RX | 0E 03 80 00 19 00 18 00 18 00 18 00 18 00 18 00 18 00 17 00 17 00 17 00 17 00 16 00 14 00 13 00 12 00 12 00 12 00 13 00 14 00 16 00 17 00 18 00 18 00 18 00 18 00 17 00 16 00 16 00 16 00 17 00 17 00 18 00 19 00 19 00 19 00 18 00 18 00 18 00 17 00 16 00 15 00 14 00 14 00 13 00 13 00 12 00 11 00 10 00 0E 00 0C 00 0B 00 09 00 07 00 05 00 03 00 02 00 01 00 01 00 01 00 03 00 05 00 08 00 0C 00 0F 95 A6 
2025-10-15 22:14:36.125 | TX | 0E 03 A1 C0 00 40 67 05 
2025-10-15 22:14:36.126 | RX | 0E 03 80 00 12 00 14 00 16 00 17 00 17 00 17 00 17 00 17 00 17 00 17 00 17 00 17 00 17 00 18 00 19 00 1A 00 1B 00 1A 00 1A 00 18 00 17 00 16 00 15 00 14 00 14 00 14 00 14 00 14 00 14 00 14 00 14 00 15 00 15 00 16 00 17 00 18 00 18 00 18 00 19 00 18 00 18 00 18 00 17 00 16 00 16 00 15 00 15 00 14 00 14 00 13 00 13 00 12 00 12 00 11 00 11 00 11 00 10 00 0F 00 0E 00 0D 00 0D 00 0D 00 0E 00 0E 74 E2 
2025-10-15 22:14:36.157 | TX | 0E 03 A2 00 00 40 67 7D 
2025-10-15 22:14:36.157 | RX | 0E 03 80 40 01 40 01 40 01 40 01 40 01 40 01 40 01 40 01 40 01 40 01 40 01 40 00 40 01 40 01 40 01 40 01 40 01 40 02 40 02 40 02 40 02 40 02 40 02 40 02 40 02 40 02 40 02 40 02 40 02 40 02 40 02 40 02 40 02 40 02 40 02 40 01 40 01 40 01 40 02 40 02 40 02 40 02 40 01 40 01 40 01 40 01 40 01 40 01 40 01 40 01 40 01 40 01 40 02 40 02 40 02 40 02 40 02 40 02 40 02 40 02 40 02 40 02 40 02 40 02 C0 37 
2025-10-15 22:14:36.188 | TX | 0E 03 A2 40 00 40 66 A9 
2025-10-15 22:14:36.188 | RX | 0E 03 80 40 02 40 02 40 02 40 02 40 02 40 02 40 02 40 01 40 01 40 01 40 01 40 01 40 01 40 01 40 01 40 01 40 01 40 01 40 01 40 01 40 01 40 01 40 01 40 01 40 01 40 01 40 01 40 01 40 01 40 02 40 02 40 02 40 02 40 02 40 02 40 02 40 02 40 02 40 02 40 01 40 01 40 01 40 01 40 01 40 01 40 01 40 01 40 01 40 02 40 02 40 02 40 02 40 02 40 02 40 02 40 02 40 02 40 01 40 01 40 01 40 01 40 01 40 01 40 01 77 2E 
2025-10-15 22:14:36.218 | TX | 0E 03 A2 80 00 40 66 95 
2025-10-15 22:14:36.219 | RX | 0E 03 80 40 01 40 01 40 01 40 01 40 01 40 01 40 01 40 01 40 01 40 01 40 01 40 01 40 01 40 01 40 01 40 01 40 01 40 01 40 01 40 01 40 01 40 01 40 01 40 01 40 01 40 01 40 01 40 01 40 01 40 01 40 01 40 01 40 02 40 02 40 02 40 02 40 02 40 02 40 02 40 01 40 01 40 01 40 01 40 01 40 01 40 01 40 01 40 01 40 01 40 01 40 01 40 01 40 01 40 01 40 01 40 01 40 01 40 01 40 01 40 01 40 01 40 01 40 01 40 02 36 7B 
2025-10-15 22:14:36.254 | TX | 0E 03 A2 C0 00 40 67 41 
2025-10-15 22:14:36.254 | RX | 0E 03 80 40 02 40 02 40 02 40 01 40 01 40 01 40 01 40 01 40 01 40 01 40 01 40 01 40 01 40 01 40 02 40 02 40 02 40 02 40 02 40 02 40 02 40 02 40 02 40 02 40 02 40 02 40 02 40 02 40 02 40 02 40 02 40 02 40 02 40 02 40 02 40 02 40 02 40 02 40 02 40 02 40 02 40 02 40 02 40 02 40 01 40 01 40 01 40 01 40 01 40 02 40 02 40 02 40 02 40 02 40 02 40 02 40 02 40 02 40 02 40 01 40 01 40 01 40 02 40 02 2B A5 
2025-10-15 22:14:36.285 | TX | 0E 03 A3 00 00 40 66 81 
2025-10-15 22:14:36.286 | RX | 0E 03 80 40 02 40 02 40 02 40 02 40 02 40 02 40 02 40 02 40 02 40 02 40 02 40 02 40 02 40 02 40 02 40 02 40 02 40 02 40 01 40 01 40 01 40 01 40 01 40 01 40 02 40 02 40 02 40 02 40 02 40 02 40 02 40 02 40 02 40 02 40 02 40 02 40 02 40 02 40 02 40 02 40 02 40 02 40 01 40 01 40 01 40 01 40 01 40 02 40 02 40 02 40 02 40 01 40 01 40 01 40 01 40 01 40 01 40 01 40 01 40 02 40 01 40 01 40 01 40 01 D9 DC 
2025-10-15 22:14:36.317 | TX | 0E 03 A3 40 00 40 67 55 
2025-10-15 22:14:36.317 | RX | 0E 03 80 40 01 40 01 40 01 40 01 40 01 40 01 40 01 40 01 40 01 40 01 40 01 40 01 40 01 40 01 40 01 40 01 40 01 40 02 40 02 40 02 40 02 40 02 40 02 40 01 40 01 40 01 40 01 40 01 40 01 40 01 40 01 40 01 40 01 40 01 40 01 40 01 40 01 40 01 40 01 40 02 40 02 40 02 40 02 40 02 40 01 40 01 40 01 40 01 40 01 40 01 40 02 40 02 40 02 40 02 40 02 40 03 40 03 40 02 40 02 40 02 40 02 40 02 40 02 40 01 92 68 
2025-10-15 22:14:36.348 | TX | 0E 03 A3 80 00 40 67 69 
2025-10-15 22:14:36.348 | RX | 0E 03 80 40 01 40 01 40 01 40 02 40 02 40 02 40 01 40 01 40 01 40 01 40 01 40 02 40 02 40 02 40 02 40 01 40 01 40 01 40 02 40 02 40 02 40 02 40 02 40 01 40 01 40 01 40 01 40 02 40 02 40 02 40 02 40 02 40 02 40 01 40 01 40 01 40 01 40 01 40 01 40 01 40 01 40 01 40 01 40 01 40 01 40 01 40 01 40 01 40 01 40 01 40 01 40 01 40 01 40 01 40 01 40 01 40 01 40 01 40 01 40 01 40 01 40 02 40 02 40 02 59 D1 
2025-10-15 22:14:36.379 | TX | 0E 03 A3 C0 00 40 66 BD 
2025-10-15 22:14:36.379 | RX | 0E 03 80 40 02 40 02 40 02 40 02 40 01 40 01 40 01 40 01 40 01 40 01 40 01 40 01 40 01 40 01 40 01 40 01 40 01 40 01 40 01 40 01 40 01 40 01 40 01 40 02 40 02 40 02 40 02 40 02 40 01 40 01 40 01 40 01 40 01 40 01 40 01 40 01 40 01 40 01 40 01 40 01 40 01 40 01 40 02 40 02 40 02 40 02 40 03 40 03 40 03 40 02 40 02 40 02 40 02 40 01 40 01 40 01 40 01 40 01 40 01 40 01 40 02 40 02 40 02 40 03 7A 38 
2025-10-15 22:14:36.395 | TX | 0E 10 00 00 00 01 02 00 09 27 A6 
2025-10-15 22:14:36.395 | RX | 0E 10 00 00 00 01 01 36 
2025-10-15 22:14:36.426 | TX | 0E 03 A0 00 00 40 66 C5 
2025-10-15 22:14:36.426 | RX | 0E 03 80 00 12 00 1D 00 16 00 1B 00 0A 00 15 00 21 00 11 00 0D 00 15 00 14 00 17 00 1E 00 1E 00 15 00 10 00 16 00 11 00 1D 00 1B 00 1B 00 16 00 19 00 11 00 15 00 0C 00 1A 00 18 00 21 00 1A 00 1F 00 14 00 21 00 1E 00 07 00 15 00 14 00 0C 00 0C 00 17 00 20 00 18 00 1E 00 17 00 19 00 03 00 19 00 1E 00 14 00 0D 00 17 00 18 00 1E 00 1A 00 18 00 0B 00 11 00 1B 00 14 00 19 00 15 00 15 00 20 00 1B DF 95 
2025-10-15 22:14:36.457 | TX | 0E 03 A0 40 00 40 67 11 
2025-10-15 22:14:36.457 | RX | 0E 03 80 40 11 00 08 00 0D 00 0C 00 13 00 16 00 11 00 1A 00 1A 00 2B 00 26 00 08 00 16 00 1F 00 19 00 12 00 11 00 19 00 17 00 19 00 15 00 20 00 16 00 0C 00 19 00 16 00 16 00 1A 00 20 00 16 00 13 00 06 00 0F 00 0B 00 1C 00 0D 00 1B 00 17 00 1F 00 22 00 12 00 18 00 1D 00 0B 00 0B 00 10 00 16 00 17 00 17 00 1E 00 16 00 21 00 27 00 18 00 12 00 11 00 19 00 18 00 19 00 16 00 17 00 11 00 1B 00 11 4E 21 
2025-10-15 22:14:36.488 | TX | 0E 03 A0 80 00 40 67 2D 
2025-10-15 22:14:36.488 | RX | 0E 03 80 00 12 00 1D 40 19 00 14 00 15 00 14 00 19 00 12 00 1A 00 1F 00 14 00 17 00 1C 1F 1C 00 14 00 16 00 0B 00 0C 00 1C 00 1F 00 18 00 10 00 14 00 1C 00 21 00 14 00 0F 00 16 00 19 00 24 00 19 00 1B 00 0D 00 0D 00 17 00 1B 00 15 00 18 00 22 00 0B 00 14 00 20 00 13 00 18 00 0F 00 00 00 15 00 1C 00 25 00 11 00 13 00 19 00 1A 00 1C 00 15 00 11 00 16 00 20 00 14 00 1F 00 12 00 13 00 18 00 0A 88 F0 
2025-10-15 22:14:36.518 | TX | 0E 03 A0 C0 00 40 66 F9 
2025-10-15 22:14:36.518 | RX | 0E 03 80 00 05 00 0D 00 19 00 16 00 23 00 17 00 1B 00 21 00 1B 00 16 00 15 00 10 00 08 00 1A 00 17 00 12 00 10 00 1A 00 1C 00 15 00 1D 00 14 00 10 00 12 00 1D 00 0A 00 16 00 18 00 12 40 13 C0 07 00 19 00 17 00 1A 00 19 00 1D 00 1D 00 1E 00 21 40 1D 00 10 00 11 00 0B 00 0D 00 12 00 14 00 15 00 2D 00 20 00 15 00 14 00 19 00 13 00 0F 00 14 00 16 00 0C 00 17 00 16 40 18 00 11 00 19 40 11 00 0D DC F2 
2025-10-15 22:14:36.550 | TX | 0E 03 A1 00 00 40 67 39 
2025-10-15 22:14:36.550 | RX | 0E 03 80 00 14 00 0C 00 16 00 0F 00 27 00 1A 00 06 00 18 00 13 00 13 00 15 00 13 00 1B 00 22 40 10 00 1C 00 0E 00 10 00 19 00 1B 00 0E 00 16 00 1F 00 19 00 18 00 17 00 14 00 09 00 09 00 13 00 0F 00 08 00 12 00 1F 00 13 00 19 00 19 00 18 00 11 00 12 00 17 00 13 00 16 00 16 00 0F 00 13 00 0E 00 0E 00 16 00 10 00 18 00 12 00 13 00 18 00 18 00 1A 00 11 00 02 00 0F 00 16 00 0E 00 18 00 12 00 1C FA B7 
2025-10-15 22:14:36.581 | TX | 0E 03 A1 40 00 40 66 ED 
2025-10-15 22:14:36.581 | RX | 0E 03 80 00 0A 00 1A 00 18 00 17 00 13 00 1B 00 20 00 1B 00 11 00 14 00 14 00 1C 00 11 00 19 00 0D 00 08 00 09 00 0E 00 22 00 20 00 20 00 18 00 10 00 12 00 1E 00 11 00 11 00 10 00 09 00 08 00 16 00 16 00 16 00 08 00 11 00 17 00 1E 00 21 00 18 00 15 00 0C 00 14 00 0E 00 11 00 0F 00 18 00 1A 00 17 00 1E 40 1B 00 1B 00 0A 00 21 00 17 00 01 40 13 00 17 00 1C 00 1B 00 17 00 1E 00 13 00 19 00 18 07 9C 
2025-10-15 22:14:36.613 | TX | 0E 03 A1 80 00 40 66 D1 
2025-10-15 22:14:36.613 | RX | 0E 03 80 00 12 40 12 00 18 00 12 00 25 00 0B 00 13 00 14 00 10 00 1C 00 1C 00 19 00 1A 00 20 00 1B 00 0E 40 13 00 10 00 13 00 11 00 24 00 17 00 0E 00 1F 00 24 00 1D 00 1C 00 17 00 06 00 13 00 1D 00 16 00 10 00 19 00 15 00 15 00 1A 00 0F 00 16 00 15 00 1C 00 23 00 14 00 0F 00 1B 00 0E 00 1E 40 0C 00 15 00 0C 00 1B 00 23 00 13 00 25 00 23 00 16 00 15 00 13 00 1B 00 1A 00 0D 00 16 00 14 00 14 16 15 
2025-10-15 22:14:36.644 | TX | 0E 03 A1 C0 00 40 67 05 
2025-10-15 22:14:36.644 | RX | 0E 03 80 40 1C 00 11 00 18 00 1A 00 1C 00 0E 00 0D 00 1F 00 16 00 17 00 1A 00 0C 00 19 00 1D 00 12 00 0D 00 13 00 25 00 1B 00 0E 00 14 40 0E 00 0B 00 19 00 11 00 16 00 1B 00 11 00 1D 00 14 00 1B 00 18 00 12 00 0F 00 13 00 13 00 11 00 1A 00 27 00 14 00 1E 00 1E 00 1F 00 10 00 11 00 12 00 13 00 08 00 1A 00 18 00 1D 00 1A 00 0E 00 26 00 06 00 0A 00 14 00 1C 00 15 00 10 00 15 00 1C 00 19 00 14 3B B6 
2025-10-15 22:14:36.675 | TX | 0E 03 A2 00 00 40 67 7D 
2025-10-15 22:14:36.675 | RX | 0E 03 80 40 02 40 02 40 02 40 01 40 01 40 03 40 01 40 03 40 02 40 02 40 01 40 02 40 01 40 01 40 02 40 02 40 02 40 02 40 01 40 02 40 02 40 02 40 02 40 02 40 02 40 02 40 01 40 03 40 02 40 02 40 02 40 02 40 02 40 01 40 01 40 01 40 02 40 02 40 02 40 02 40 01 40 01 40 03 40 01 40 02 40 01 40 02 40 02 40 01 40 02 40 02 40 01 40 01 40 01 40 03 40 02 40 01 40 01 40 01 40 02 40 02 40 03 40 02 40 02 E2 D8 
2025-10-15 22:14:36.706 | TX | 0E 03 A2 40 00 40 66 A9 
2025-10-15 22:14:36.706 | RX | 0E 03 80 40 00 40 01 40 02 40 02 40 02 40 02 40 02 40 01 40 01 40 02 40 02 40 01 40 01 40 01 40 02 40 01 40 01 40 02 40 02 40 01 40 01 40 02 40 02 40 02 40 01 40 02 40 03 40 02 40 02 40 01 40 02 40 03 40 01 40 02 40 02 40 01 40 02 40 02 40 03 40 01 40 02 40 02 40 02 40 02 40 02 40 02 40 02 40 01 40 01 40 03 40 03 40 02 40 02 40 02 40 02 40 01 40 02 40 02 40 02 40 02 40 02 40 03 40 01 40 02 22 64 
2025-10-15 22:14:36.737 | TX | 0E 03 A2 80 00 40 66 95 
2025-10-15 22:14:36.737 | RX | 0E 03 80 40 02 40 02 40 02 40 01 40 03 40 02 40 01 40 02 40 01 40 02 40 00 40 03 40 02 40 01 40 01 40 01 40 02 40 02 40 02 40 02 40 01 40 02 40 02 40 02 40 01 40 01 40 02 40 02 40 01 40 01 40 01 40 02 40 02 40 01 40 02 40 02 40 02 40 02 40 03 40 02 40 01 40 03 40 01 40 02 40 02 40 01 40 03 40 02 40 03 40 03 40 01 40 02 40 02 40 02 40 02 40 02 40 01 40 02 40 01 40 02 40 01 40 01 40 02 40 01 84 47 
2025-10-15 22:14:36.767 | TX | 0E 03 A2 C0 00 40 67 41 
2025-10-15 22:14:36.767 | RX | 0E 03 80 40 02 40 02 40 01 40 02 40 02 40 01 40 02 40 02 40 02 40 01 40 02 40 02 40 02 40 03 40 02 40 01 40 01 40 01 40 01 40 02 40 02 40 01 40 02 40 02 40 03 40 02 40 02 40 01 40 02 40 04 40 01 40 01 40 01 40 01 40 02 40 02 40 01 40 02 40 02 40 02 40 02 40 01 40 02 40 02 40 01 40 01 40 01 40 02 40 02 40 02 40 02 40 02 40 02 40 03 40 02 40 02 40 01 40 02 40 02 40 01 40 02 40 02 40 03 40 01 5E 32 
2025-10-15 22:14:36.799 | TX | 0E 03 A3 00 00 40 66 81 
2025-10-15 22:14:36.799 | RX | 0E 03 80 40 01 40 01 40 02 40 01 40 03 40 01 40 02 40 02 40 01 40 01 40 01 40 02 40 02 40 03 40 02 40 02 40 02 40 02 40 03 40 02 40 02 40 02 40 01 40 02 40 02 40 02 40 01 40 02 40 03 40 02 40 02 40 01 40 02 40 02 40 02 40 02 40 02 40 01 40 02 40 01 40 02 40 02 40 03 40 03 40 01 40 02 40 02 40 02 40 02 40 02 40 01 40 03 40 03 40 02 40 03 40 01 40 04 40 02 40 02 40 03 40 01 40 02 40 02 40 02 7D 59 
2025-10-15 22:14:36.830 | TX | 0E 03 A3 40 00 40 67 55 
2025-10-15 22:14:36.830 | RX | 0E 03 80 40 01 40 02 40 02 40 01 40 02 40 02 40 01 40 02 40 02 40 02 40 02 40 01 40 01 40 01 40 01 40 02 40 02 40 01 40 02 40 01 40 01 40 01 40 02 40 02 40 02 40 01 40 01 40 01 40 03 40 02 40 01 40 02 40 02 40 02 40 02 40 02 40 01 40 02 40 02 40 02 40 02 40 02 40 01 40 02 40 01 40 01 40 02 40 01 40 02 40 03 40 02 40 03 40 02 40 02 40 01 40 02 40 01 40 02 40 02 40 01 40 01 40 03 40 01 40 02 C9 1D 
2025-10-15 22:14:36.861 | TX | 0E 03 A3 80 00 40 67 69 
2025-10-15 22:14:36.861 | RX | 0E 03 80 40 01 40 01 40 01 40 01 40 02 40 02 40 01 40 02 40 02 40 02 40 02 40 02 40 01 40 01 40 02 40 02 40 02 40 02 40 02 40 01 40 02 40 02 40 02 40 02 40 02 40 01 40 02 40 02 40 02 40 01 40 03 40 02 40 02 40 02 40 03 40 02 40 01 40 02 40 02 40 02 40 01 40 02 40 01 40 03 40 02 40 02 40 01 40 03 40 02 40 02 40 01 40 03 40 01 40 02 40 01 40 02 40 02 40 02 40 01 40 01 40 03 40 02 40 02 40 02 3B 3E 
2025-10-15 22:14:36.893 | TX | 0E 03 A3 C0 00 40 66 BD 
2025-10-15 22:14:36.893 | RX | 0E 03 80 40 02 40 01 40 01 40 01 40 02 40 02 40 02 40 02 40 02 40 02 40 02 40 02 40 02 40 02 40 02 40 01 40 01 40 01 40 01 40 02 40 02 40 02 40 02 40 02 40 02 40 01 40 01 40 01 40 01 40 01 40 01 40 01 40 01 40 01 40 01 40 01 40 01 40 01 40 02 40 02 40 02 40 02 40 02 40 02 40 02 40 01 40 01 40 01 40 01 40 01 40 01 40 01 40 01 40 02 40 02 40 02 40 02 40 02 40 02 40 03 40 02 40 02 40 02 40 02 B7 79 
2025-10-15 22:14:36.909 | TX | 0E 10 00 00 00 01 02 00 09 27 A6 
2025-10-15 22:14:36.909 | RX | 0E 10 00 00 00 01 01 36 
2025-10-15 22:14:36.939 | TX | 0E 03 A0 00 00 40 66 C5 
2025-10-15 22:14:36.939 | RX | 0E 03 80 00 17 00 15 00 18 00 16 00 19 00 0C 00 0E 00 0D 00 1A 00 1F 00 13 00 0F 00 13 00 17 00 18 00 1B 00 13 00 13 00 0F 00 20 00 0D 00 18 00 11 00 1C 00 24 00 21 00 17 00 1B 00 14 00 13 00 15 00 11 00 1E 00 20 00 1C 00 09 00 15 00 15 00 17 00 1D 00 18 00 1A 00 14 00 11 00 15 00 1F 00 0D 00 15 00 1C 00 15 00 1C 00 21 00 1A 00 13 00 16 00 18 00 14 00 07 00 16 00 1E 00 13 00 18 00 21 00 11 02 79 
2025-10-15 22:14:36.970 | TX | 0E 03 A0 40 00 40 67 11 
2025-10-15 22:14:36.970 | RX | 0E 03 80 00 1E 00 26 00 0F 00 16 00 25 00 1B 00 17 00 07 00 11 00 1B 00 15 00 06 00 21 00 19 00 1B 00 0C 00 10 00 17 00 0C 00 16 00 13 00 13 00 11 00 24 00 1B 00 1C 00 1B 00 13 00 22 40 10 00 12 00 15 00 0C 00 18 00 19 00 15 00 1F 00 15 00 1D 00 1C 00 0D 00 10 00 1A 00 1F 00 17 00 0F 00 12 00 11 00 18 40 19 00 13 00 17 00 11 00 17 00 1B 00 1C 00 1B 00 22 00 13 00 1B 00 1B 00 14 00 10 00 09 06 55 
2025-10-15 22:14:37.001 | TX | 0E 03 A0 80 00 40 67 2D 
2025-10-15 22:14:37.002 | RX | 0E 03 80 00 13 00 14 00 18 00 0C 00 1E 00 15 00 20 00 1A 00 1D 00 22 00 19 00 1F 00 26 00 13 00 08 00 10 00 12 00 17 00 18 00 1A 00 1A 00 1E 00 16 00 19 00 14 00 10 00 16 00 18 00 18 00 15 00 12 00 12 00 1C 00 13 00 0C 40 08 00 0E 00 20 00 1E 00 10 00 18 00 15 00 24 00 1C 00 18 00 19 00 11 00 18 00 1D 00 12 00 12 00 1A 00 11 00 1B 00 25 00 16 00 12 00 1D 00 1B 00 0D 00 11 00 11 00 1D 00 1C 93 E8 
2025-10-15 22:14:37.033 | TX | 0E 03 A0 C0 00 40 66 F9 
2025-10-15 22:14:37.033 | RX | 0E 03 80 00 1C 00 1B 00 15 40 17 00 14 00 16 00 1A 00 1E 00 23 40 19 00 10 00 1A 00 10 00 11 00 0B 00 03 00 10 00 0B 00 18 00 17 00 11 00 1A 00 0A 00 1D 00 1F 00 16 00 08 00 17 00 09 40 10 00 21 00 1D 00 18 00 17 00 14 00 16 00 1B 00 1B 00 16 00 1C 00 08 00 08 00 08 00 13 00 05 00 08 00 16 00 18 00 13 00 19 00 1E 00 1D 00 09 00 0D 00 14 00 11 00 19 00 0A 00 1B 00 15 00 11 00 21 00 19 00 0B 08 04 
2025-10-15 22:14:37.063 | TX | 0E 03 A1 00 00 40 67 39 
2025-10-15 22:14:37.064 | RX | 0E 03 80 00 17 00 22 00 16 00 15 00 1E 00 23 00 11 40 06 00 11 00 1C 00 16 00 17 00 16 00 20 00 14 00 1F 00 1B 00 1A 00 13 00 1E 00 13 00 17 00 16 00 1A 00 16 00 1A 00 11 00 0E 00 0E 00 19 00 12 00 18 00 0F 00 1D 00 21 00 22 00 18 00 1B 00 26 00 02 00 18 00 12 00 16 00 1D 00 23 00 19 00 1F 00 1A 00 1C 00 12 00 01 00 0E 00 0F 00 12 00 18 00 2E 00 21 00 1C 00 1D 00 13 00 15 00 07 00 0E 00 15 C5 A7 
2025-10-15 22:14:37.094 | TX | 0E 03 A1 40 00 40 66 ED 
2025-10-15 22:14:37.095 | RX | 0E 03 80 00 10 00 13 00 10 00 10 00 0A 00 0D 00 0E 00 0F 00 1B 00 1D 00 22 00 1A 00 16 00 23 00 1B 00 18 00 1A 00 18 00 13 00 1D 00 21 00 1B 00 12 00 0C 00 10 00 16 00 0C 00 1F 00 14 00 23 00 23 00 1B 00 21 40 12 00 09 00 17 00 1C 00 16 00 15 00 17 00 1E 00 24 00 1E 00 23 00 17 00 0E 00 16 00 0C 00 1E 00 1B 00 0A 00 1D 00 0E 00 16 00 14 00 15 00 1A 00 12 00 12 00 19 00 10 00 19 00 19 00 14 66 DF 
2025-10-15 22:14:37.125 | TX | 0E 03 A1 80 00 40 66 D1 
2025-10-15 22:14:37.126 | RX | 0E 03 80 00 17 00 14 00 13 00 0E 00 20 00 24 00 1C 00 1C 00 17 00 10 00 18 00 17 00 14 00 17 00 17 00 1D 00 1B 00 1C 00 15 00 16 00 09 00 0B 00 11 00 12 00 16 00 16 00 17 00 0D 00 15 00 07 00 1D 00 12 00 19 00 14 00 28 00 1D 00 1C 00 16 00 1E 40 18 00 0A 00 13 00 13 00 0F 00 22 00 1A 00 1C 00 19 00 14 00 29 40 15 00 0C 00 0C 00 16 00 17 00 0D 00 17 00 15 00 25 40 21 00 19 00 1B 00 11 00 12 E2 3D 
2025-10-15 22:14:37.156 | TX | 0E 03 A1 C0 00 40 67 05 
2025-10-15 22:14:37.157 | RX | 0E 03 80 00 01 00 13 00 10 00 19 00 16 00 1E 00 22 00 1B 00 1D 00 14 00 11 00 1F 00 22 00 1A 00 10 00 19 00 17 00 0E 00 15 00 0F 00 0B 00 14 00 22 00 1E 00 1B 00 1F 00 21 00 17 00 21 00 18 00 08 00 0D 00 0F 00 1A 00 12 00 1C 00 1B 00 1A 00 17 00 14 40 14 00 13 00 18 00 19 00 16 00 1A 00 18 00 10 00 14 00 16 00 16 E0 1D 00 07 00 0D 00 18 00 16 00 19 00 10 00 0F 00 13 00 15 00 1B 00 1F 00 0D 4A C1 
2025-10-15 22:14:37.187 | TX | 0E 03 A2 00 00 40 67 7D 
2025-10-15 22:14:37.188 | RX | 0E 03 80 40 02 40 02 40 03 40 03 40 02 40 02 40 01 40 01 40 03 40 01 40 03 40 02 40 02 40 02 40 03 40 03 40 03 40 03 40 02 40 02 40 02 40 02 40 02 40 01 40 02 40 02 40 01 40 02 40 03 40 02 40 02 40 01 40 03 40 02 40 02 40 02 40 01 40 02 40 01 40 02 40 02 40 03 40 02 40 02 40 02 40 02 40 01 40 03 40 02 40 02 40 02 40 03 40 02 40 02 40 03 40 02 40 02 40 02 40 01 40 02 40 02 40 02 40 02 40 02 50 A5 
2025-10-15 22:14:37.219 | TX | 0E 03 A2 40 00 40 66 A9 
2025-10-15 22:14:37.219 | RX | 0E 03 80 40 01 40 03 40 02 40 01 40 02 40 02 40 01 40 03 40 02 40 02 40 01 40 02 40 02 40 02 40 01 40 02 40 01 40 02 40 01 40 01 40 02 40 01 40 02 40 01 40 01 40 02 40 01 40 02 40 02 40 01 40 01 40 02 40 01 40 02 40 02 40 02 40 02 40 02 40 02 40 02 40 02 40 02 40 01 40 02 40 02 40 02 40 02 40 03 40 01 40 02 40 01 40 02 40 02 40 02 40 02 40 02 40 02 40 02 40 03 40 02 40 02 40 01 40 02 40 02 EB 44 
2025-10-15 22:14:37.249 | TX | 0E 03 A2 80 00 40 66 95 
2025-10-15 22:14:37.250 | RX | 0E 03 80 40 01 40 01 40 01 40 01 40 02 40 03 40 02 40 02 40 02 40 02 40 02 40 02 40 01 40 02 40 01 40 01 40 03 40 02 40 02 40 02 40 01 40 02 40 02 40 03 40 01 40 02 40 02 40 02 40 01 40 03 40 02 40 02 40 03 40 02 40 02 40 02 40 02 40 02 40 02 40 02 40 02 40 02 40 02 40 02 40 02 40 02 40 03 40 03 40 02 40 01 40 02 40 02 40 02 40 02 40 02 40 02 40 02 40 02 40 02 40 01 40 03 40 02 40 03 40 02 94 63 
2025-10-15 22:14:37.280 | TX | 0E 03 A2 C0 00 40 67 41 
2025-10-15 22:14:37.280 | RX | 0E 03 80 40 02 40 02 40 02 40 02 40 02 40 02 40 01 40 02 40 02 40 02 40 01 40 02 40 02 40 03 40 02 40 01 40 02 40 01 40 01 40 02 40 02 40 01 40 02 40 01 40 02 40 02 40 02 40 02 40 02 40 02 40 01 40 02 40 02 40 01 40 03 40 02 40 02 40 02 40 01 40 01 40 02 40 02 40 02 40 01 40 02 40 03 40 01 40 02 40 01 40 02 40 02 40 02 40 02 40 01 40 02 40 01 40 01 40 02 40 01 40 02 40 03 40 01 40 02 40 01 AA 66 
2025-10-15 22:14:37.311 | TX | 0E 03 A3 00 00 40 66 81 
2025-10-15 22:14:37.311 | RX | 0E 03 80 40 02 40 01 40 01 40 02 40 02 40 02 40 01 40 03 40 03 40 01 40 02 40 02 40 02 40 01 40 02 40 02 40 01 40 01 40 02 40 02 40 02 40 01 40 03 40 02 40 02 40 02 40 03 40 01 40 02 40 01 40 02 40 02 40 02 40 01 40 02 40 02 40 01 40 01 40 02 40 02 40 02 40 02 40 02 40 01 40 01 40 01 40 02 40 02 40 01 40 02 40 01 40 01 40 02 40 02 40 01 40 03 40 02 40 01 40 01 40 02 40 03 40 02 40 02 40 02 90 C3 
2025-10-15 22:14:37.364 | TX | 0E 03 A3 40 00 40 67 55 
2025-10-15 22:14:37.365 | RX | 0E 03 80 40 01 40 03 40 01 40 03 40 01 40 01 40 03 40 02 40 02 40 02 40 02 40 02 40 03 40 02 40 02 40 02 40 03 40 02 40 01 40 02 40 02 40 01 40 02 40 01 40 03 40 03 40 01 40 01 40 03 40 02 40 01 40 02 40 01 40 02 40 02 40 01 40 01 40 02 40 02 40 02 40 02 40 04 40 02 40 01 40 03 40 02 40 02 40 02 40 02 40 03 40 01 40 02 40 02 40 01 40 02 40 02 40 02 40 02 40 02 40 02 40 01 40 02 40 01 40 02 86 E6 
2025-10-15 22:14:37.396 | TX | 0E 03 A3 80 00 40 67 69 
2025-10-15 22:14:37.396 | RX | 0E 03 80 40 03 40 01 40 02 40 02 40 02 40 01 40 02 40 00 40 02 40 01 40 02 40 02 40 02 40 03 40 02 40 02 40 02 40 01 40 03 40 01 40 02 40 01 
2025-10-15 22:14:37.396 | RX | 40 02 40 02 40 02 40 02 40 01 40 03 40 01 40 02 40 02 40 02 40 02 40 02 40 02 40 02 40 01 40 02 40 02 40 02 40 02 40 02 40 03 40 02 40 02 40 02 40 01 40 02 40 02 40 02 40 02 40 02 40 03 40 02 40 02 40 02 40 02 40 01 40 02 40 01 40 02 40 02 40 02 40 02 E1 D3 
2025-10-15 22:14:37.427 | TX | 0E 03 A3 C0 00 40 66 BD 
2025-10-15 22:14:37.427 | RX | 0E 03 80 40 01 40 02 40 01 40 02 40 01 40 02 40 01 40 03 40 01 40 02 40 02 40 02 40 02 40 01 40 02 40 03 40 01 40 02 40 02 40 01 40 01 40 01 40 02 40 01 40 01 40 02 40 02 40 02 40 01 40 01 40 02 40 02 40 02 40 02 40 02 40 02 40 01 40 02 40 02 40 01 40 02 40 01 40 02 40 02 40 02 40 01 40 02 40 02 40 01 40 02 40 02 40 02 40 02 40 03 40 01 40 02 40 00 40 01 40 01 40 02 40 02 40 02 40 02 40 02 90 F5 
2025-10-15 22:14:37.443 | TX | 0E 10 00 00 00 01 02 00 09 27 A6 
2025-10-15 22:14:37.443 | RX | 0E 10 00 00 00 01 01 36 
2025-10-15 22:14:37.473 | TX | 0E 03 A0 00 00 40 66 C5 
2025-10-15 22:14:37.474 | RX | 0E 03 80 00 1A 00 1D 00 20 00 08 00 18 00 19 00 14 00 16 00 17 00 14 00 1C 00 16 00 00 00 14 00 0F 00 15 00 15 00 18 00 1B 00 26 00 20 00 10 00 1C 00 13 00 13 00 1E 00 15 00 19 00 15 00 17 00 19 00 18 00 1A 00 1D 00 14 00 0F 00 0E 00 14 00 19 00 13 00 0F 00 19 00 1A 00 1A 00 19 40 1A 00 0C 00 1A 00 17 00 1D 00 14 00 1B 00 15 00 15 00 14 00 1A 00 18 00 16 00 15 00 22 00 13 00 19 00 10 00 21 97 40 
2025-10-15 22:14:37.504 | TX | 0E 03 A0 40 00 40 67 11 
2025-10-15 22:14:37.505 | RX | 0E 03 80 00 17 00 18 00 17 00 13 00 17 00 1A 00 11 00 11 00 17 00 21 00 21 00 1D 00 21 00 1D 00 17 00 12 00 00 00 0F 00 13 00 17 00 1A 00 1F 00 16 00 18 00 2C 00 21 00 12 00 0E 00 0E 00 1C 00 23 00 09 00 0B 00 15 00 1D 00 1F 00 1E 00 19 00 14 00 16 00 1D 00 19 00 1E 00 0F 00 1A 00 16 00 1C 00 22 40 14 00 0D 00 14 00 13 00 1D 00 1D 00 19 00 17 00 15 00 1C 00 1B 00 15 00 0E 00 12 00 11 00 18 E3 79 
2025-10-15 22:14:37.535 | TX | 0E 03 A0 80 00 40 67 2D 
2025-10-15 22:14:37.536 | RX | 0E 03 80 00 1C 00 10 00 03 00 12 00 19 00 1D 00 13 00 07 00 0E 00 0B 00 15 00 20 00 1A 00 14 00 13 00 12 00 13 00 0C 00 1D 00 16 00 18 00 14 00 05 00 0D 00 1F 00 19 00 16 00 16 00 18 00 1D 00 1C 00 1C 00 0D 00 1C 00 17 00 14 00 16 00 1E 00 18 00 0E 00 1B 00 24 00 17 00 15 00 11 00 11 00 16 00 11 00 15 00 15 00 19 00 17 00 10 00 10 00 26 00 17 00 21 00 1A 00 25 00 10 00 11 00 0E 00 18 00 15 50 B3 
2025-10-15 22:14:37.566 | TX | 0E 03 A0 C0 00 40 66 F9 
2025-10-15 22:14:37.567 | RX | 0E 03 80 00 13 00 17 00 21 00 17 00 14 00 12 00 22 00 1B 00 1D 00 12 00 16 00 19 00 17 00 16 00 17 00 16 00 1B 00 23 00 1F 00 0F 00 0A 00 1C 00 13 00 19 00 15 00 12 00 19 00 2B 40 16 00 23 00 23 00 09 00 14 00 10 00 15 00 11 00 11 00 14 00 1D 00 19 00 1F 00 1A 00 17 00 0F 00 17 00 1D 00 1E 00 1F 00 18 00 20 00 17 00 20 00 17 00 0B 00 0B 00 1B 00 1A 00 17 00 17 00 1B 00 23 00 20 00 16 00 17 9C C9 
2025-10-15 22:14:37.598 | TX | 0E 03 A1 00 00 40 67 39 
2025-10-15 22:14:37.598 | RX | 0E 03 80 00 0D 00 15 00 1C 00 17 00 15 00 1C 00 15 00 11 00 18 00 27 00 1B 00 12 00 0F 00 0D 00 1B 00 19 40 0A 00 16 00 1A 00 1C 00 17 00 0C 00 1C 00 0F 00 21 00 16 00 1A 00 12 00 0E 00 0C 00 0C 00 0A 00 06 00 12 00 1B 00 1F 00 16 00 18 00 1A 00 1D 00 12 00 18 00 18 00 16 00 05 00 15 00 10 00 10 00 12 00 16 00 1E 00 27 00 1D 00 16 40 05 00 17 00 12 00 1D 00 18 00 17 00 18 00 16 00 1A 40 22 32 CC 
2025-10-15 22:14:37.630 | TX | 0E 03 A1 40 00 40 66 ED 
2025-10-15 22:14:37.630 | RX | 0E 03 80 00 17 00 11 00 0D 1F 14 00 1A 00 1E 00 13 00 17 00 23 00 18 00 00 00 0F 00 0F 00 18 00 16 00 0D 00 18 00 1E 00 1A 00 1C 00 19 00 0C 00 0E 00 13 00 16 00 19 00 17 00 1A 00 10 00 19 00 11 00 1C 00 08 00 0A 00 1B 00 13 00 0C 00 1D 00 1D 00 1D 00 1C 00 0F 00 20 00 0E 00 1A 00 15 00 11 00 1A 00 18 00 15 00 1A 00 18 00 14 C0 05 00 0E 00 19 00 0E 00 16 00 13 00 19 00 19 00 1C 00 16 00 22 C7 72 
2025-10-15 22:14:37.661 | TX | 0E 03 A1 80 00 40 66 D1 
2025-10-15 22:14:37.661 | RX | 0E 03 80 80 1A 00 14 00 17 00 15 00 14 00 17 00 15 00 0D 00 1C 00 1E 00 17 00 1E 00 0E 40 15 00 08 00 1D 00 0C 00 0F 00 12 00 10 00 1D 00 21 00 19 00 1A 00 19 00 13 00 11 00 12 00 11 00 19 00 20 00 10 00 1A 00 23 00 13 00 0C 00 14 00 1C 00 17 00 17 00 15 00 17 00 13 00 1A 00 15 00 08 00 10 00 0D 00 11 00 24 00 1B 00 18 00 16 00 22 00 16 40 0F 20 0D 00 07 00 18 00 17 00 1C 00 10 00 1F 00 28 F7 92 
2025-10-15 22:14:37.692 | TX | 0E 03 A1 C0 00 40 67 05 
2025-10-15 22:14:37.692 | RX | 0E 03 80 00 0D 00 17 00 19 00 16 00 18 00 18 00 1D 00 25 00 11 00 13 00 22 00 12 00 16 00 10 00 15 00 15 00 1E 00 1A 00 15 00 17 00 0E 00 0E 00 14 00 1A 00 25 00 25 00 17 00 07 00 13 00 13 00 0E 00 21 00 16 00 15 00 15 00 21 00 22 00 0F 00 14 00 11 00 0F 00 0C 00 0C 00 11 00 10 00 1A 00 1D 00 1E 00 1A 00 09 00 11 00 20 00 27 00 12 00 1D 00 12 00 16 00 14 00 0F 00 05 00 1D 00 16 00 1F 00 14 B5 01 
2025-10-15 22:14:37.723 | TX | 0E 03 A2 00 00 40 67 7D 
2025-10-15 22:14:37.723 | RX | 0E 03 80 40 02 40 02 40 02 40 02 40 02 40 02 40 02 40 02 40 02 40 02 40 02 40 01 40 01 40 01 40 01 40 01 40 01 40 01 40 01 40 01 40 01 40 01 40 01 40 01 40 01 40 01 40 01 40 01 40 01 40 01 40 01 40 01 40 01 40 01 40 01 40 01 40 01 40 01 40 01 40 01 40 01 40 01 40 02 40 02 40 01 40 01 40 01 40 01 40 00 40 00 40 01 40 01 40 01 40 01 40 01 40 01 40 02 40 02 40 02 40 02 40 02 40 02 40 02 40 02 2B 0F 
2025-10-15 22:14:37.754 | TX | 0E 03 A2 40 00 40 66 A9 
2025-10-15 22:14:37.754 | RX | 0E 03 80 40 02 40 02 40 02 40 02 40 02 40 03 40 03 40 03 40 03 40 03 40 03 40 03 40 03 40 03 40 02 40 02 40 02 40 01 40 01 40 01 40 01 40 01 40 02 40 02 40 02 40 02 40 02 40 02 40 02 40 02 40 02 40 02 40 02 40 02 40 02 40 01 40 01 40 01 40 01 40 02 40 02 40 02 40 02 40 02 40 02 40 02 40 02 40 02 40 02 40 02 40 02 40 01 40 01 40 01 40 01 40 01 40 01 40 01 40 01 40 01 40 01 40 01 40 02 40 02 6A 4A 
2025-10-15 22:14:37.785 | TX | 0E 03 A2 80 00 40 66 95 
2025-10-15 22:14:37.785 | RX | 0E 03 80 40 02 40 01 40 01 40 01 40 01 40 01 40 01 40 01 40 01 40 02 40 02 40 02 40 02 40 01 40 01 40 01 40 01 40 01 40 01 40 01 40 01 40 01 40 01 40 02 40 02 40 02 40 02 40 02 40 02 40 02 40 02 40 02 40 02 40 02 40 02 40 02 40 02 40 02 40 01 40 01 40 01 40 01 40 01 40 01 40 01 40 02 40 02 40 02 40 02 40 02 40 02 40 02 40 01 40 01 40 01 40 01 40 01 40 01 40 01 40 01 40 01 40 01 40 01 40 01 6E 37 
2025-10-15 22:14:37.816 | TX | 0E 03 A2 C0 00 40 67 41 
2025-10-15 22:14:37.816 | RX | 0E 03 80 40 01 40 01 40 01 40 01 40 01 40 01 40 01 40 01 40 01 40 01 40 01 40 01 40 01 40 01 40 01 40 01 40 02 40 02 40 02 40 02 40 02 40 02 40 03 40 03 40 03 40 03 40 03 40 03 40 02 40 02 40 02 40 01 40 01 40 01 40 02 40 02 40 02 40 02 40 02 40 02 40 02 40 02 40 02 40 01 40 01 40 01 40 01 40 01 40 01 40 01 40 00 40 00 40 00 40 00 40 00 40 00 40 00 40 01 40 01 40 01 40 01 40 01 40 01 40 01 2F 9F 
2025-10-15 22:14:37.847 | TX | 0E 03 A3 00 00 40 66 81 
2025-10-15 22:14:37.848 | RX | 0E 03 80 40 01 40 01 40 01 40 00 40 01 40 01 40 01 40 01 40 02 40 02 40 02 40 02 40 01 40 01 40 01 40 02 40 02 40 02 40 02 40 01 40 01 40 01 40 01 40 02 40 02 40 02 40 02 40 02 40 02 40 02 40 02 40 02 40 02 40 02 40 02 40 02 40 02 40 02 40 01 40 01 40 01 40 01 40 01 40 01 40 01 40 02 40 02 40 02 40 02 40 02 40 02 40 02 40 02 40 02 40 02 40 02 40 02 40 02 40 02 40 02 40 02 40 02 40 02 40 02 E4 AD 
2025-10-15 22:14:37.880 | TX | 0E 03 A3 40 00 40 67 55 
2025-10-15 22:14:37.880 | RX | 0E 03 80 40 02 40 02 40 02 40 02 40 02 40 02 40 02 40 02 40 02 40 02 40 02 40 02 40 02 40 02 40 02 40 02 40 02 40 02 40 02 40 02 40 02 40 02 40 02 40 02 40 02 40 02 40 02 40 02 40 02 40 02 40 02 40 02 40 02 40 02 40 02 40 02 40 02 40 02 40 02 40 02 40 02 40 02 40 02 40 02 40 02 40 02 40 02 40 01 40 01 40 01 40 01 40 01 40 01 40 01 40 01 40 01 40 02 40 02 40 02 40 02 40 02 40 02 40 02 40 02 B1 48 
2025-10-15 22:14:37.911 | TX | 0E 03 A3 80 00 40 67 69 
2025-10-15 22:14:37.912 | RX | 0E 03 80 40 01 40 01 40 01 40 01 40 02 40 02 40 02 40 02 40 02 40 02 40 02 40 02 40 01 40 01 40 01 40 02 40 02 40 02 40 02 40 02 40 02 40 02 40 02 40 02 40 02 40 01 40 01 40 01 40 01 40 01 40 01 40 01 40 01 40 01 40 02 40 02 40 02 40 02 40 02 40 02 40 02 40 02 40 02 40 02 40 02 40 02 40 01 40 01 40 02 40 02 40 02 40 03 40 03 40 03 40 03 40 03 40 03 40 02 40 02 40 02 40 02 40 02 40 02 40 02 74 0A 
2025-10-15 22:14:37.942 | TX | 0E 03 A3 C0 00 40 66 BD 
2025-10-15 22:14:37.942 | RX | 0E 03 80 40 02 40 02 40 02 40 02 40 02 40 02 40 02 40 02 40 02 40 02 40 02 40 02 40 02 40 02 40 02 40 02 40 02 40 02 40 01 40 01 40 02 40 02 40 02 40 02 40 02 40 02 40 02 40 02 40 02 40 01 40 01 40 01 40 01 40 01 40 01 40 01 40 01 40 01 40 02 40 02 40 02 40 02 40 02 40 02 40 02 40 02 40 02 40 02 40 02 40 02 40 02 40 02 40 02 40 02 40 02 40 02 40 02 40 02 40 02 40 02 40 02 40 02 40 02 40 02 B5 C4 
2025-10-15 22:14:37.958 | TX | 0E 10 00 00 00 01 02 00 09 27 A6 
2025-10-15 22:14:37.958 | RX | 0E 10 00 00 00 01 01 36 
2025-10-15 22:14:37.990 | TX | 0E 03 A0 00 00 40 66 C5 
2025-10-15 22:14:37.990 | RX | 0E 03 80 00 12 00 14 00 19 00 1C 00 1A 40 18 00 15 00 1B 40 13 00 18 00 12 00 0F 00 0D 00 1A 00 1D 00 15 00 12 00 0E 00 25 00 1C 00 10 00 19 00 06 00 1C 00 29 00 15 00 16 00 20 00 0D 00 12 00 09 00 0F 00 21 00 1F 40 06 40 10 00 1E 00 17 00 14 00 16 00 10 00 0A 00 17 00 1B 00 17 00 14 00 09 00 21 00 1B 00 20 00 11 00 13 00 0C 40 22 00 1D 00 12 00 22 00 19 00 09 00 10 00 0C 00 11 00 0D 00 07 98 31 
2025-10-15 22:14:38.020 | TX | 0E 03 A0 40 00 40 67 11 
2025-10-15 22:14:38.020 | RX | 0E 03 80 00 16 00 0F 00 12 00 1D 00 1A 00 18 00 1D 00 1A 00 1B 00 19 00 1F 00 05 00 12 00 11 00 0A 00 19 00 20 00 11 00 25 00 1F 00 1B 00 1C 00 13 00 13 00 0D 00 17 00 13 00 0F 00 15 00 21 00 20 00 16 00 22 00 0E 00 0A 00 18 00 17 00 14 00 20 00 11 00 1A 00 18 00 19 00 1B 00 0D 00 1A 00 1A 00 17 00 1D 00 27 00 1C 00 19 00 1A 00 11 00 19 00 0F 00 15 00 1C 00 18 00 1C 00 14 00 22 00 1D 00 1A 20 58 
2025-10-15 22:14:38.051 | TX | 0E 03 A0 80 00 40 67 2D 
2025-10-15 22:14:38.051 | RX | 0E 03 80 00 12 00 0F 00 1C 00 04 00 13 00 18 00 1E 00 1B 00 14 00 17 00 15 00 1A 00 14 00 1B 00 13 00 19 00 1A 00 20 00 1B 00 13 00 18 00 14 00 09 00 0B 00 16 00 12 00 1B 00 0F 00 1B 00 1A 00 1E 00 1B 00 10 00 03 00 1D 00 13 00 10 00 12 00 09 00 16 00 1B 00 21 00 16 40 04 00 1D 00 1F 00 1C 00 15 00 10 00 19 00 17 00 18 40 12 00 08 00 0F 00 18 00 22 00 16 00 0F 00 19 00 20 00 21 00 1C 00 13 15 DF 
2025-10-15 22:14:38.083 | TX | 0E 03 A0 C0 00 40 66 F9 
2025-10-15 22:14:38.083 | RX | 0E 03 80 00 1B 00 1C 00 18 00 12 00 18 00 1F 00 21 00 0B 00 0E 00 13 00 0D 00 1D 00 2A 00 15 00 1B 00 15 00 10 00 0B 00 10 00 0E 00 14 00 0E 00 11 00 14 00 18 00 17 00 1E 00 1C 00 08 00 15 00 0E 00 1B 00 1A 00 19 00 1A 00 25 00 18 00 1A 00 1C 00 0A 00 1A 00 20 00 24 00 15 00 1A 00 22 00 13 00 18 00 1A 40 12 00 0E 00 0D 00 0D 00 17 00 0C 00 12 00 1D 00 19 00 18 00 1B 00 27 00 10 00 02 00 09 4E B6 
2025-10-15 22:14:38.113 | TX | 0E 03 A1 00 00 40 67 39 
2025-10-15 22:14:38.114 | RX | 0E 03 80 00 19 00 0E 00 13 00 14 00 10 00 1A 00 18 00 1F 00 13 00 17 00 10 00 16 00 16 00 0F 00 12 00 17 00 1D 00 19 00 12 00 18 00 1A 00 FF 00 11 00 13 00 16 00 18 00 0E 00 1A 00 1F 00 26 00 21 00 0E 00 11 00 10 00 0D 00 14 00 11 00 14 00 1A 00 15 00 1E 40 1A 00 19 00 15 00 16 00 1A 00 14 00 16 00 13 00 19 00 1E 00 19 00 14 00 11 00 09 00 18 00 0B 00 20 00 17 00 11 00 1C 00 18 00 16 00 20 F7 BF 
2025-10-15 22:14:38.144 | TX | 0E 03 A1 40 00 40 66 ED 
2025-10-15 22:14:38.145 | RX | 0E 03 80 00 1E 00 0D 00 18 00 13 00 0E 00 13 00 21 00 1A 00 12 00 1C 00 21 00 1B 00 12 00 0E 00 15 00 14 00 10 00 0C 00 08 00 1A 00 17 00 1B 00 10 00 10 00 1A 00 19 00 25 00 15 00 13 00 1B 00 0B 00 18 00 18 00 15 00 18 00 1E 00 16 00 0F 00 15 00 1F 00 12 00 19 00 10 00 0F 00 19 00 12 00 0E 00 11 00 19 00 1D 00 16 00 1F 00 13 00 17 00 10 00 15 00 1A 00 24 00 1B 00 05 00 10 00 17 00 12 00 06 94 7D 
2025-10-15 22:14:38.176 | TX | 0E 03 A1 80 00 40 66 D1 
2025-10-15 22:14:38.176 | RX | 0E 03 80 00 0F 00 0F 00 0B 00 10 00 1D 00 21 00 13 00 13 00 14 00 1E 00 1D 40 0D 00 09 00 0A 00 16 00 18 00 0D 00 19 00 23 00 18 00 26 00 1B 00 16 00 1C 00 1B 00 1B 00 1A 00 15 00 17 00 12 00 18 00 0F 00 1A 00 16 00 19 00 20 00 12 00 16 00 1F 00 12 00 19 00 13 00 0B 00 19 00 17 00 15 00 0C 00 14 00 13 00 1C 00 16 00 17 00 09 00 18 00 16 00 16 00 0F 00 0F 00 24 00 1D 40 1A 00 29 00 17 00 10 AC F2 
2025-10-15 22:14:38.206 | TX | 0E 03 A1 C0 00 40 67 05 
2025-10-15 22:14:38.207 | RX | 0E 03 80 00 0D 00 10 00 14 00 0D 00 15 00 13 00 16 00 20 00 24 00 11 00 19 00 14 00 12 00 12 00 0D 00 11 00 12 00 08 00 11 00 0F 00 1B 00 1E 00 1A 00 16 00 1C 00 19 00 12 00 1A 00 0D 00 12 00 22 00 17 00 0A 00 11 00 11 00 19 00 1A 00 19 00 24 00 17 00 1B 00 15 00 1B 00 10 00 0A 00 13 00 15 00 0C 00 20 00 14 00 18 00 18 00 1B 00 16 00 0C 00 1B 00 21 00 17 00 10 00 11 00 17 00 16 00 0D 00 15 A1 F0 
2025-10-15 22:14:38.237 | TX | 0E 03 A2 00 00 40 67 7D 
2025-10-15 22:14:38.238 | RX | 0E 03 80 40 03 40 02 40 02 40 02 40 02 40 00 40 02 40 02 40 01 40 02 40 03 40 02 40 01 40 01 40 01 40 02 40 03 40 02 40 02 40 03 40 01 40 02 40 02 40 02 40 02 40 03 40 01 40 01 40 02 40 01 40 02 40 02 40 01 40 01 40 02 40 01 40 01 40 01 40 01 40 02 40 02 40 02 40 02 40 02 40 02 40 02 40 01 40 02 40 01 40 01 40 01 40 01 40 01 40 01 40 02 40 03 40 02 40 01 40 01 40 01 40 02 40 02 40 01 40 02 3F CE 
2025-10-15 22:14:38.268 | TX | 0E 03 A2 40 00 40 66 A9 
2025-10-15 22:14:38.268 | RX | 0E 03 80 40 02 40 02 40 03 40 02 40 01 40 03 40 01 40 01 40 02 40 02 40 02 40 01 40 02 40 02 40 02 40 02 40 02 40 01 40 02 40 02 40 02 40 02 40 01 40 02 40 01 40 02 40 01 40 03 40 02 40 01 40 01 40 02 40 02 40 02 40 01 40 01 40 02 40 02 40 01 40 00 40 01 40 02 40 02 40 02 40 01 40 02 40 02 40 01 40 01 40 02 40 02 40 02 40 02 40 01 40 02 40 01 40 02 40 02 40 01 40 02 40 01 40 00 40 02 40 02 52 27 
2025-10-15 22:14:38.300 | TX | 0E 03 A2 80 00 40 66 95 
2025-10-15 22:14:38.300 | RX | 0E 03 80 40 04 40 02 40 02 40 02 40 01 40 02 40 02 40 03 40 02 40 01 40 02 40 02 40 01 40 01 40 02 40 03 40 02 40 01 40 02 40 00 40 02 40 02 40 02 40 02 40 02 40 02 40 01 40 02 40 01 40 01 40 01 40 02 40 02 40 02 40 02 40 02 40 02 40 01 40 03 40 02 40 02 40 01 40 02 40 02 40 02 40 01 40 01 40 02 40 02 40 02 40 01 40 02 40 02 40 01 40 02 40 02 40 
2025-10-15 22:14:38.300 | RX | 02 40 02 40 02 40 01 40 01 40 01 40 02 40 02 48 14 
2025-10-15 22:14:38.331 | TX | 0E 03 A2 C0 00 40 67 41 
2025-10-15 22:14:38.331 | RX | 0E 03 80 40 02 40 02 40 01 40 02 40 02 40 02 40 01 40 01 40 02 40 01 40 03 40 02 40 02 40 02 40 01 40 02 40 02 40 03 40 02 40 02 40 02 40 02 40 02 40 03 40 02 40 02 40 01 40 03 40 01 40 02 40 03 40 02 40 02 40 02 40 02 40 02 40 02 40 03 40 02 40 02 40 02 40 01 40 01 40 01 40 02 40 01 40 01 40 02 40 01 40 02 40 
2025-10-15 22:14:38.332 | RX | 01 40 02 40 02 40 02 40 01 40 01 40 02 40 01 40 02 40 02 40 02 40 02 40 02 40 01 BC 4F 
2025-10-15 22:14:38.363 | TX | 0E 03 A3 00 00 40 66 81 
2025-10-15 22:14:38.363 | RX | 0E 03 80 40 01 40 00 40 03 40 01 40 02 40 02 40 03 40 01 40 02 40 01 40 01 40 02 40 01 40 03 40 02 40 03 40 00 40 01 40 02 40 02 40 02 40 02 40 02 40 03 40 02 40 03 40 02 40 02 40 02 40 02 40 02 40 01 40 02 40 02 40 01 40 02 40 02 40 02 40 03 40 02 40 01 40 02 40 02 40 03 40 02 40 03 40 02 40 01 40 03 40 01 40 03 40 02 40 02 40 01 40 01 40 01 40 01 40 02 40 03 40 02 40 01 40 01 40 02 40 01 D7 AA 
2025-10-15 22:14:38.394 | TX | 0E 03 A3 40 00 40 67 55 
2025-10-15 22:14:38.394 | RX | 0E 03 80 40 02 40 02 40 01 40 02 40 02 40 02 40 01 40 02 40 01 40 01 40 02 40 02 40 02 40 02 40 02 40 01 40 02 40 01 40 02 40 01 40 02 40 02 40 01 40 01 40 02 40 02 40 02 40 01 40 02 40 01 40 01 40 01 40 02 40 02 40 02 40 02 40 01 40 02 40 02 40 02 40 02 40 02 40 01 40 02 40 02 40 02 40 00 40 02 40 02 40 02 40 02 40 02 40 03 40 02 40 02 40 02 40 01 40 02 40 01 40 01 40 01 40 03 40 02 40 02 4F E1 
2025-10-15 22:14:38.425 | TX | 0E 03 A3 80 00 40 67 69 
2025-10-15 22:14:38.425 | RX | 0E 03 80 40 01 40 02 40 02 40 01 40 02 40 02 40 02 40 02 40 01 40 01 40 02 40 01 40 02 40 02 40 03 40 01 40 02 40 01 40 03 40 02 40 01 40 02 40 02 40 03 40 01 40 01 40 02 40 02 40 02 40 02 40 02 40 02 40 01 40 01 40 01 40 02 40 01 40 03 40 01 40 01 40 02 40 01 40 01 40 02 40 03 40 03 40 01 40 02 40 02 40 02 40 01 40 01 40 01 40 01 40 01 40 01 40 02 40 01 40 02 40 01 40 02 40 01 40 02 40 01 7C 2F 
2025-10-15 22:14:38.456 | TX | 0E 03 A3 C0 00 40 66 BD 
2025-10-15 22:14:38.456 | RX | 0E 03 80 40 02 40 02 40 01 40 02 40 01 40 02 40 02 40 02 40 02 40 01 40 01 40 01 40 02 40 02 40 01 40 02 40 01 40 03 40 03 40 01 40 02 40 01 40 02 40 01 40 03 40 02 40 02 40 02 40 02 40 02 40 02 40 03 40 03 40 01 40 02 40 02 40 01 40 03 40 02 40 02 40 01 40 02 40 02 40 01 40 02 40 02 40 02 40 02 40 02 40 02 40 03 40 01 40 02 40 02 40 02 40 01 40 02 40 01 40 02 40 01 40 02 40 01 40 03 40 02 0C 5F 
2025-10-15 22:14:38.472 | TX | 0E 10 00 00 00 01 02 00 09 27 A6 
2025-10-15 22:14:38.472 | RX | 0E 10 00 00 00 01 01 36 
2025-10-15 22:14:38.503 | TX | 0E 03 A0 00 00 40 66 C5 
2025-10-15 22:14:38.503 | RX | 0E 03 80 00 1B 00 1C 00 0F 00 10 00 16 00 15 00 25 00 17 00 1D 00 20 00 10 00 1A 00 09 00 0D 00 15 00 16 00 10 00 25 00 15 00 0F 00 2A 00 1C 00 1A 00 0B 00 0F 00 1B 00 16 00 14 00 16 00 12 00 1E 00 1A 00 17 00 14 00 0F 00 11 00 12 00 11 00 19 00 1A 00 14 00 12 00 1C 00 1A 00 13 00 10 00 18 00 12 00 16 00 18 00 1F 00 0D 00 14 00 19 00 1B 40 10 00 0F 00 14 00 0E 00 10 00 10 00 18 00 21 00 1F AF 62 
2025-10-15 22:14:38.534 | TX | 0E 03 A0 40 00 40 67 11 
2025-10-15 22:14:38.534 | RX | 0E 03 80 00 18 00 17 00 1D 00 20 00 1B 00 1D 00 1C 00 1A 00 0E 00 0B 00 0B 00 1A 00 12 00 1C 00 1D 00 19 00 11 00 16 00 1C 00 0B 00 12 00 10 00 14 00 14 00 16 00 17 00 22 00 21 00 1A E0 0C 00 10 00 1E 00 1E 00 1A 00 17 00 1A 00 1B 00 20 00 18 00 17 00 1D 00 11 00 20 00 0F 00 17 00 12 00 15 00 21 00 15 00 19 00 15 00 0A 00 12 00 1F 00 17 00 14 00 14 00 0F 00 1C 00 1F 40 18 00 1D 00 0E 00 0A 3D F7 
2025-10-15 22:14:38.565 | TX | 0E 03 A0 80 00 40 67 2D 
2025-10-15 22:14:38.566 | RX | 0E 03 80 00 1F 00 21 00 22 00 23 00 23 00 22 00 21 00 1F 00 1E 00 1C 00 1B 00 1A 00 1A 00 1A 00 1A 00 1A 00 1A 00 19 00 19 00 18 00 17 00 16 00 15 00 15 00 14 00 13 00 13 00 12 00 10 00 0E 00 0D 00 0B 00 0A 00 09 00 09 00 0A 00 0B 00 0C 00 0D 00 0D 00 0D 00 0D 00 0C 00 0A 00 09 00 08 00 08 00 08 00 09 00 0B 00 0E 00 11 00 13 00 16 00 19 00 1B 00 1C 00 1D 00 1D 00 1E 00 1E 00 1E 00 1E 00 1F 71 D0 
2025-10-15 22:14:38.596 | TX | 0E 03 A0 C0 00 40 66 F9 
2025-10-15 22:14:38.597 | RX | 0E 03 80 00 20 00 21 00 22 00 23 00 23 00 24 00 24 00 24 00 23 00 22 00 20 00 1F 00 1E 00 1E 00 1D 00 1C 00 1B 00 1A 00 19 00 17 00 15 00 13 00 12 00 10 00 0F 00 0E 00 0D 00 0D 00 0D 00 0D 00 0D 00 0D 00 0D 00 0E 00 0F 00 0F 00 10 00 10 00 12 00 13 00 15 00 16 00 18 00 1A 00 1A 00 1A 00 18 00 15 00 12 00 0F 00 0C 00 09 00 06 00 05 00 04 00 05 00 06 00 08 00 0A 00 0D 00 10 00 12 00 14 00 15 BA 17 
2025-10-15 22:14:38.627 | TX | 0E 03 A1 00 00 40 67 39 
2025-10-15 22:14:38.627 | RX | 0E 03 80 00 16 00 17 00 19 00 1A 00 1B 00 1B 00 1C 00 1D 00 1E 00 1F 00 20 00 21 00 23 00 24 00 26 00 28 00 2A 00 2B 00 2B 00 2B 00 2A 00 28 00 26 00 25 00 23 00 22 00 21 00 20 00 1E 00 1C 00 1B 00 19 00 17 00 15 00 14 00 13 00 13 00 13 00 14 00 13 00 13 00 12 00 10 00 10 00 0F 00 0F 00 10 00 11 00 11 00 12 00 11 00 10 00 0F 00 0E 00 0D 00 0C 00 0B 00 0B 00 0B 00 0B 00 0A 00 0A 00 0A 00 0A C0 66 
2025-10-15 22:14:38.657 | TX | 0E 03 A1 40 00 40 66 ED 
2025-10-15 22:14:38.658 | RX | 0E 03 80 00 0A 00 0B 00 0B 00 0C 00 0D 00 0F 00 11 00 13 40 17 40 1A 40 1D 40 21 40 23 40 25 40 26 40 26 40 25 40 23 40 21 40 1E 40 1C 00 1A 00 18 00 16 00 14 00 13 00 12 00 12 00 12 00 13 00 14 00 16 00 18 00 19 00 1B 00 1C 00 1D 00 1E 00 1E 00 1E 00 1E 00 1E 00 1D 00 1D 00 1D 00 1C 00 1A 00 19 00 17 00 15 00 14 00 12 00 11 00 10 00 10 00 10 00 10 00 10 00 10 00 10 00 10 00 10 00 10 00 10 7A 22 
2025-10-15 22:14:38.689 | TX | 0E 03 A1 80 00 40 66 D1 
2025-10-15 22:14:38.689 | RX | 0E 03 80 00 11 00 11 00 10 00 0F 00 0D 00 0A 00 07 00 03 00 00 1F FE 1F FC 1F FC 1F FC 1F FD 00 00 00 03 40 07 60 0C 60 11 60 16 60 1B 60 20 60 24 60 27 60 2A 60 2A 40 2A 40 29 00 28 00 26 00 24 00 22 00 21 00 20 00 1F 00 1E 00 1E 00 1D 00 1C 00 1C 00 1C 00 1D 00 1F 00 21 00 23 00 24 00 25 00 26 00 26 00 26 00 25 00 24 00 22 00 1F 00 1B 00 18 00 14 00 12 00 10 00 0E 00 0D 00 0D 00 0D 00 0F CF 97 
2025-10-15 22:14:38.720 | TX | 0E 03 A1 C0 00 40 67 05 
2025-10-15 22:14:38.720 | RX | 0E 03 80 00 11 00 13 00 15 00 16 00 16 00 16 00 15 00 14 00 14 00 14 00 14 00 14 00 13 00 13 00 11 00 10 00 0E 00 0C 00 0B 00 09 00 08 00 07 00 07 00 08 00 0B 00 0D 40 10 40 13 40 16 40 18 40 1A 40 1C 40 1E 40 1F 40 20 00 20 00 20 00 20 00 1F 00 1F 00 1E 00 1C 00 1B 00 19 00 17 00 15 00 14 00 13 00 13 00 13 00 14 00 14 00 15 00 15 00 15 00 15 00 15 00 16 00 16 00 16 00 16 00 17 00 17 00 18 B2 62 
2025-10-15 22:14:38.751 | TX | 0E 03 A2 00 00 40 67 7D 
2025-10-15 22:14:38.751 | RX | 0E 03 80 40 02 40 01 40 01 40 01 40 02 40 02 40 02 40 03 40 03 40 03 40 03 40 02 40 02 40 02 40 02 40 02 40 02 40 02 40 02 40 02 40 02 40 02 40 01 40 01 40 01 40 01 40 01 40 02 40 02 40 02 40 02 40 02 40 02 40 02 40 02 40 02 40 02 40 02 40 02 40 02 40 03 40 03 40 03 40 02 40 02 40 02 40 02 40 02 40 02 40 02 40 02 40 02 40 01 40 01 40 01 40 01 40 01 40 01 40 02 40 02 40 02 40 02 40 02 40 02 01 0A 
2025-10-15 22:14:38.782 | TX | 0E 03 A2 40 00 40 66 A9 
2025-10-15 22:14:38.782 | RX | 0E 03 80 40 02 40 02 40 02 40 02 40 02 40 02 40 02 40 02 40 01 40 01 40 01 40 01 40 01 40 01 40 01 40 02 40 01 40 01 40 01 40 01 40 01 40 01 40 01 40 01 40 02 40 02 40 02 40 02 40 02 40 02 40 02 40 02 40 02 40 02 40 02 40 02 40 02 40 01 40 01 40 01 40 01 40 01 40 01 40 01 40 02 40 02 40 02 40 03 40 03 40 03 40 03 40 03 40 03 40 03 40 03 40 03 40 02 40 02 40 02 40 01 40 01 40 01 40 01 40 01 C3 83 
2025-10-15 22:14:38.813 | TX | 0E 03 A2 80 00 40 66 95 
2025-10-15 22:14:38.814 | RX | 0E 03 80 40 02 40 02 40 01 40 02 40 02 40 02 40 02 40 02 40 02 40 02 40 01 40 01 40 02 40 02 40 02 40 02 40 02 40 02 40 02 40 02 40 02 40 02 40 02 40 02 40 02 40 02 40 02 40 02 40 02 40 02 40 02 40 02 40 02 40 02 40 02 40 02 40 02 40 02 40 02 40 02 40 02 40 02 40 02 40 02 40 02 40 02 40 02 40 02 40 02 40 02 40 02 40 02 40 02 40 02 40 01 40 01 40 02 40 02 40 02 40 03 40 03 40 03 40 03 40 03 34 21 
2025-10-15 22:14:38.845 | TX | 0E 03 A2 C0 00 40 67 41 
2025-10-15 22:14:38.845 | RX | 0E 03 80 40 02 40 02 40 02 40 02 40 02 40 02 40 02 40 02 40 02 40 02 40 02 40 02 40 02 40 02 40 02 40 02 40 02 40 02 40 02 40 01 40 01 40 01 40 01 40 01 40 01 40 01 40 01 40 01 40 01 40 01 40 02 40 02 40 02 40 02 40 02 40 01 40 01 40 01 40 01 40 01 40 01 40 01 40 01 40 02 40 02 40 02 40 02 40 02 40 02 40 02 40 02 40 02 40 02 40 02 40 02 40 02 40 02 40 02 40 02 40 02 40 02 40 02 40 02 40 02 82 D1 
2025-10-15 22:14:38.876 | TX | 0E 03 A3 00 00 40 66 81 
2025-10-15 22:14:38.876 | RX | 0E 03 80 40 02 40 01 40 01 40 01 40 01 40 01 40 01 40 01 40 02 40 02 40 02 40 02 40 02 40 02 40 02 40 02 40 02 40 02 40 02 40 02 40 02 40 02 40 02 40 02 40 01 40 01 40 02 40 02 40 02 40 02 40 02 40 02 40 02 40 02 40 02 40 02 40 02 40 02 40 02 40 02 40 02 40 02 40 02 40 02 40 02 40 02 40 02 40 02 40 01 40 01 40 01 40 01 40 01 40 01 40 01 40 01 40 01 40 01 40 02 40 02 40 02 40 02 40 02 40 02 E8 BD 
2025-10-15 22:14:38.907 | TX | 0E 03 A3 40 00 40 67 55 
2025-10-15 22:14:38.907 | RX | 0E 03 80 40 02 40 02 40 02 40 02 40 02 40 02 40 02 40 02 40 02 40 02 40 02 40 02 40 02 40 02 40 02 40 02 40 03 40 03 40 02 40 02 40 02 40 01 40 01 40 01 40 01 40 02 40 02 40 02 40 02 40 02 40 02 40 02 40 03 40 03 40 03 40 03 40 03 40 03 40 03 40 03 40 03 40 03 40 02 40 02 40 02 40 02 40 02 40 02 40 02 40 02 40 02 40 02 40 02 40 01 40 01 40 01 40 02 40 02 40 02 40 02 40 02 40 02 40 02 40 02 D1 6C 
2025-10-15 22:14:38.938 | TX | 0E 03 A3 80 00 40 67 69 
2025-10-15 22:14:38.938 | RX | 0E 03 80 40 02 40 02 40 02 40 02 40 02 40 02 40 02 40 02 40 02 40 02 40 02 40 02 40 02 40 02 40 02 40 02 40 02 40 02 40 02 40 01 40 02 40 02 40 02 40 02 40 02 40 02 40 02 40 02 40 02 40 02 40 02 40 02 40 02 40 02 40 01 40 01 40 01 40 02 40 02 40 02 40 02 40 02 40 02 40 02 40 02 40 02 40 02 40 02 40 02 40 02 40 02 40 02 40 02 40 02 40 02 40 01 40 02 40 02 40 02 40 02 40 02 40 02 40 02 40 02 93 1D 
2025-10-15 22:14:38.969 | TX | 0E 03 A3 C0 00 40 66 BD 
2025-10-15 22:14:38.969 | RX | 0E 03 80 40 01 40 01 40 01 40 01 40 01 40 01 40 01 40 01 40 01 40 01 40 02 40 02 40 02 40 02 40 02 40 02 40 02 40 02 40 01 40 01 40 01 40 01 40 01 40 01 40 01 40 02 40 02 40 02 40 02 40 02 40 02 40 02 40 03 40 03 40 03 40 03 40 03 40 03 40 02 40 02 40 02 40 02 40 02 40 02 40 02 40 02 40 02 40 02 40 02 40 02 40 02 40 02 40 02 40 02 40 02 40 02 40 02 40 02 40 02 40 02 40 02 40 02 40 01 40 01 70 58 
2025-10-15 22:14:38.985 | TX | 0E 10 00 00 00 01 02 00 09 27 A6 
2025-10-15 22:14:38.985 | RX | 0E 10 00 00 00 01 01 36 
2025-10-15 22:14:39.016 | TX | 0E 03 A0 00 00 40 66 C5 
2025-10-15 22:14:39.016 | RX | 0E 03 80 00 1D 00 1E 00 1E 00 1B 00 1B 00 15 00 18 00 14 00 13 00 0F 00 1E 00 1B 00 19 00 13 00 17 00 17 00 0F 00 1B 00 0E 00 1A 00 1D 00 17 00 1E 00 17 00 13 00 19 00 FD 00 12 00 14 00 0E 00 1E 00 18 00 1B 00 1B 00 22 00 1D 00 1F 00 0F 00 0E 00 09 00 18 00 1B 00 14 00 17 00 1D 00 20 00 16 00 0E 00 10 00 10 00 12 00 1F 00 0F 00 08 00 1B 00 1A 00 17 00 15 00 15 40 0F 00 0D 00 0D 00 0D 00 21 AD D9 
2025-10-15 22:14:39.047 | TX | 0E 03 A0 40 00 40 67 11 
2025-10-15 22:14:39.047 | RX | 0E 03 80 00 12 00 0F 00 19 00 18 00 0E 00 1B 00 1B 00 20 00 13 00 15 00 13 00 10 40 16 00 1A 00 1D 00 1B 00 18 00 20 00 08 00 2B 00 20 00 16 00 27 00 20 00 24 00 17 00 24 00 16 00 13 00 0C 00 18 00 1C 00 1B 00 0E 00 1E 00 0A 00 23 00 19 00 13 00 0B 00 0C 00 20 00 20 00 15 00 1A 00 11 00 0C 00 0B 00 13 00 14 00 13 00 1C 00 18 00 15 00 15 00 18 00 15 00 15 00 0A 00 16 00 18 00 1A 00 13 00 10 81 CD 
2025-10-15 22:14:39.078 | TX | 0E 03 A0 80 00 40 67 2D 
2025-10-15 22:14:39.078 | RX | 0E 03 80 00 22 00 1E 00 1F 00 12 00 0D 00 1E 00 1C 00 1F 00 16 00 16 00 1D 00 12 00 0D 40 08 00 09 00 0B 00 10 00 1B 00 19 00 1E 00 23 00 1D 00 21 00 1D 00 09 00 02 00 15 00 0D 00 13 00 14 00 14 00 1A 00 1C 00 1F 00 16 00 1A 00 13 00 14 00 07 00 10 00 16 00 19 00 10 00 1E 00 17 00 19 00 15 00 13 00 17 00 19 00 1B 00 11 00 1C 00 1A 00 12 00 11 00 0B 00 14 00 16 00 10 00 17 40 17 00 22 00 18 53 1B 
2025-10-15 22:14:39.108 | TX | 0E 03 A0 C0 00 40 66 F9 
2025-10-15 22:14:39.109 | RX | 0E 03 80 00 21 00 0B 00 13 00 19 00 19 00 1F 00 11 00 05 00 18 00 0F 00 18 00 1C 00 19 00 1B 00 16 00 09 00 16 00 13 00 1B 00 10 00 0B 00 16 00 14 00 17 00 13 00 18 40 0B 00 19 00 26 00 18 00 1D 00 10 00 0F 00 11 00 15 00 1F 00 1C 00 1C 00 08 00 14 00 1A 00 18 00 19 00 23 00 1E 00 1F 00 1A 00 0F 00 16 00 0F 00 11 00 0F 00 13 00 13 00 10 00 14 00 1C 00 16 00 19 00 18 00 11 00 06 00 12 00 0C F1 07 
2025-10-15 22:14:39.139 | TX | 0E 03 A1 00 00 40 67 39 
2025-10-15 22:14:39.140 | RX | 0E 03 80 00 1B 00 1A 00 0F 00 18 00 16 00 10 00 0B 00 0F 00 1D 00 10 00 14 00 18 00 0B 00 17 00 15 00 22 00 1C 00 19 00 16 00 10 00 09 00 0A 00 12 00 16 00 0F 00 0F 40 1D 00 18 00 20 00 2B 00 12 00 08 00 0E 00 14 00 19 00 10 00 1B 00 07 00 28 00 22 00 1D 00 1B 00 1E 00 1C 00 0B 00 15 00 1A 00 11 00 18 00 15 00 11 00 17 00 15 40 15 00 1C 00 18 00 1E 00 14 00 20 00 20 00 17 00 0C 00 16 00 11 E3 E2 
2025-10-15 22:14:39.170 | TX | 0E 03 A1 40 00 40 66 ED 
2025-10-15 22:14:39.171 | RX | 0E 03 80 00 19 00 1A 00 18 00 17 00 15 00 17 00 0F 00 0F 00 12 00 0F 00 14 00 21 00 1E 00 17 00 15 00 14 00 07 00 16 00 1A 00 0F 00 19 00 18 00 17 00 12 00 1A 00 1D 00 12 00 15 00 11 00 13 00 23 00 1B 00 0F 00 0F 00 19 00 1A 00 22 40 09 00 08 00 1C 00 14 00 16 00 1C 00 12 00 17 00 16 00 15 00 20 00 0E 00 0F 00 11 00 16 00 15 00 0E 00 15 00 28 00 1A 00 13 00 16 00 18 00 1A 00 0E 00 1C 00 13 5D 45 
2025-10-15 22:14:39.201 | TX | 0E 03 A1 80 00 40 66 D1 
2025-10-15 22:14:39.202 | RX | 0E 03 80 00 19 00 1B 00 16 00 14 00 16 00 19 00 1C 00 09 40 22 40 02 00 04 00 0B 00 14 00 0D 00 12 00 11 00 1D 00 27 00 16 00 18 00 1B 00 08 00 15 00 16 00 22 00 0D 00 1A 00 12 00 20 00 1A 00 0B 00 14 00 1F 00 16 00 0F 00 12 00 10 00 23 00 1B 00 1A 00 16 00 12 00 11 00 15 00 12 00 23 00 13 00 20 00 1C 00 25 00 12 00 0E 00 1B 00 0F 00 11 00 13 00 18 00 1E 00 19 00 11 00 1D 00 2B 00 18 00 1B B2 80 
2025-10-15 22:14:39.234 | TX | 0E 03 A1 C0 00 40 67 05 
2025-10-15 22:14:39.234 | RX | 0E 03 80 00 10 00 0D 00 0A 00 0C 00 13 00 1D 00 16 40 15 00 19 00 18 00 1C 00 17 00 19 00 0F 00 12 00 16 00 1B 00 0F 00 17 00 17 00 0B 00 1B 00 18 00 14 00 15 00 23 00 17 00 13 00 1D 00 06 00 12 00 0D 00 0A 00 19 00 24 00 20 00 20 00 16 00 19 00 1E 00 0C 00 10 00 0E 00 0D 00 11 00 23 00 10 00 18 00 19 00 1A 00 18 00 12 00 15 00 12 00 16 00 14 00 1A 00 10 00 10 00 20 00 27 00 03 40 0F 00 17 1A 0E 
2025-10-15 22:14:39.265 | TX | 0E 03 A2 00 00 40 67 7D 
2025-10-15 22:14:39.265 | RX | 0E 03 80 40 02 40 01 40 01 40 01 40 01 40 02 40 01 40 01 40 02 40 02 40 01 40 02 40 01 40 01 40 02 40 01 40 01 40 02 40 03 40 02 40 01 40 02 40 02 40 02 40 02 40 02 40 01 40 02 40 01 40 01 40 02 40 02 40 03 40 02 40 02 40 02 40 01 40 02 40 02 40 01 40 03 40 02 40 03 40 01 40 03 40 02 40 02 40 02 40 03 40 02 40 01 40 02 40 02 40 03 40 02 40 02 40 01 40 01 40 02 40 01 40 02 40 02 40 02 40 03 1C 79 
2025-10-15 22:14:39.296 | TX | 0E 03 A2 40 00 40 66 A9 
2025-10-15 22:14:39.296 | RX | 0E 03 80 40 02 40 01 40 03 40 01 40 01 40 02 40 03 40 02 40 02 40 02 40 02 40 02 40 01 40 03 40 03 40 02 40 01 40 02 40 01 40 02 40 02 40 02 40 02 40 02 40 01 40 02 40 02 40 01 40 02 40 01 40 01 40 02 40 03 40 01 40 02 40 02 40 02 40 01 40 02 40 01 40 02 40 03 40 02 40 02 40 02 40 03 40 02 40 02 40 02 40 03 40 02 40 01 40 01 40 01 40 01 40 01 40 01 40 01 40 01 40 01 40 02 40 01 40 02 40 01 3D B3 
2025-10-15 22:14:39.326 | TX | 0E 03 A2 80 00 40 66 95 
2025-10-15 22:14:39.327 | RX | 0E 03 80 40 02 40 02 40 01 40 02 40 02 40 03 40 01 40 02 40 02 40 01 40 01 40 03 40 02 40 02 40 02 40 02 40 02 40 03 40 02 40 03 40 03 40 02 40 02 40 02 40 01 40 01 40 02 40 01 40 02 40 02 40 01 40 03 40 02 40 02 40 02 40 01 40 02 40 01 40 01 40 02 40 02 40 01 40 02 40 03 40 02 40 02 40 03 40 02 40 01 40 02 40 03 40 02 40 02 40 03 40 02 40 02 40 01 40 02 40 02 40 02 40 01 40 02 40 01 40 02 0B 1F 
2025-10-15 22:14:39.357 | TX | 0E 03 A2 C0 00 40 67 41 
2025-10-15 22:14:39.358 | RX | 0E 03 80 40 01 40 01 40 02 40 01 40 01 40 03 40 02 40 02 40 02 40 02 40 02 40 01 40 02 40 01 40 01 40 02 40 02 40 02 40 02 40 01 40 01 40 02 40 01 40 02 40 02 40 01 40 01 40 02 40 02 40 02 40 02 40 02 40 01 40 02 40 01 40 01 40 02 40 02 40 03 40 01 40 02 40 01 40 02 40 02 40 02 40 02 40 01 40 01 40 02 40 02 40 02 40 02 40 02 40 02 40 01 40 01 40 02 40 02 40 01 40 02 40 01 40 02 40 02 40 01 D8 0C 
2025-10-15 22:14:39.389 | TX | 0E 03 A3 00 00 40 66 81 
2025-10-15 22:14:39.389 | RX | 0E 03 80 40 02 40 02 40 01 40 02 40 02 40 02 40 01 40 02 40 02 40 02 40 01 40 02 40 02 40 02 40 02 40 02 40 01 40 01 40 02 40 02 40 02 40 02 40 02 40 02 40 01 40 01 40 01 40 01 40 01 40 02 40 01 40 01 40 01 40 01 40 01 40 02 40 01 40 01 40 02 40 02 40 01 40 02 40 03 40 01 40 01 40 01 40 01 40 01 40 01 40 02 40 02 40 02 40 03 40 02 40 02 40 02 40 02 40 01 40 02 40 02 40 01 40 01 40 03 40 01 FB 24 
2025-10-15 22:14:39.420 | TX | 0E 03 A3 40 00 40 67 55 
2025-10-15 22:14:39.420 | RX | 0E 03 80 40 01 40 01 40 01 40 01 40 01 40 01 40 01 40 01 40 02 40 02 40 02 40 02 40 02 40 02 40 02 40 02 40 01 40 01 40 01 40 02 40 02 40 02 40 02 40 02 40 02 40 02 40 02 40 02 40 02 40 02 40 02 40 03 40 03 40 02 40 02 40 02 40 02 40 01 40 01 40 01 40 01 40 01 40 01 40 01 40 01 40 01 40 01 40 01 40 01 40 01 40 01 40 01 40 01 40 01 40 01 40 01 40 01 40 01 40 01 40 01 40 01 40 01 40 01 40 01 D1 35 
2025-10-15 22:14:39.451 | TX | 0E 03 A3 80 00 40 67 69 
2025-10-15 22:14:39.451 | RX | 0E 03 80 40 01 40 01 40 01 40 01 40 01 40 01 40 01 40 01 40 01 40 01 40 01 40 01 40 01 40 01 40 01 40 01 40 01 40 01 40 01 40 01 40 01 40 01 40 01 40 01 40 01 40 01 40 01 40 01 40 01 40 01 40 01 40 01 40 02 40 02 40 02 40 02 40 02 40 02 40 03 40 02 40 02 40 02 40 02 40 01 40 01 40 01 40 01 40 02 40 02 40 02 40 02 40 02 40 02 40 02 40 02 40 02 40 02 40 02 40 02 40 02 40 02 40 02 40 02 40 02 6F 9D 
2025-10-15 22:14:39.481 | TX | 0E 03 A3 C0 00 40 66 BD 
2025-10-15 22:14:39.482 | RX | 0E 03 80 40 02 40 02 40 02 40 02 40 02 40 01 40 01 40 01 40 01 40 01 40 01 40 01 40 01 40 01 40 01 40 02 40 02 40 02 40 01 40 01 40 01 40 01 40 01 40 01 40 01 40 01 40 01 40 01 40 01 40 02 40 02 40 02 40 02 40 02 40 02 40 02 40 02 40 02 40 02 40 02 40 02 40 02 40 02 40 02 40 02 40 02 40 02 40 02 40 03 40 03 40 03 40 03 40 03 40 03 40 02 40 02 40 02 40 02 40 02 40 02 40 02 40 02 40 02 40 03 13 24 
2025-10-15 22:14:39.497 | TX | 0E 10 00 00 00 01 02 00 09 27 A6 
2025-10-15 22:14:39.498 | RX | 0E 10 00 00 00 01 01 36 
2025-10-15 22:14:39.528 | TX | 0E 03 A0 00 00 40 66 C5 
2025-10-15 22:14:39.529 | RX | 0E 03 80 00 1B 00 1E 00 1F 00 19 00 0E 00 19 00 19 00 1F 00 0F 00 17 00 1A 00 1B 00 20 00 0C 00 0F 00 0E 00 1E 00 20 00 10 00 1F 00 21 00 1E 00 17 00 19 00 0F 00 13 00 11 00 12 00 0F 00 0F 00 16 00 1D 00 13 00 19 00 18 00 1A 00 0D 00 12 00 15 00 0E 00 19 00 1D 00 17 00 16 00 15 00 1D 00 15 00 0A 00 09 00 1A 00 1B 00 19 00 05 00 15 00 15 00 22 00 18 00 22 00 15 40 12 00 14 00 15 00 15 00 16 B1 41 
2025-10-15 22:14:39.559 | TX | 0E 03 A0 40 00 40 67 11 
2025-10-15 22:14:39.560 | RX | 0E 03 80 00 07 00 10 00 1E 00 1C 00 14 00 1E 00 1F 00 24 00 18 00 17 00 19 00 0E 00 1B 00 0D 00 08 00 19 00 1D 00 19 00 22 00 0B 00 0F 00 18 00 21 00 18 00 0E 00 12 00 15 00 1E 00 10 00 14 00 19 00 0F 00 17 00 15 00 1A 00 10 00 20 00 18 00 17 00 15 00 18 00 1F 00 0F 00 0E 00 13 00 0D 00 11 00 21 00 1E 00 16 00 20 00 20 00 19 00 09 00 0C 00 0F 00 0E 00 0E 00 07 00 14 00 16 00 17 00 19 00 12 CF 37 
2025-10-15 22:14:39.590 | TX | 0E 03 A0 80 00 40 67 2D 
2025-10-15 22:14:39.590 | RX | 0E 03 80 00 18 00 20 00 1E 00 10 00 0F 00 16 00 19 00 13 00 10 00 10 00 0D 00 18 00 13 00 19 00 1D 00 18 40 17 00 17 00 18 00 20 00 1E 00 19 00 1A 00 12 00 0D 00 18 00 19 00 14 00 26 00 17 00 1B 00 1B 00 15 00 12 00 24 00 1C 00 10 00 11 00 13 00 1F 00 1A 00 13 00 07 00 19 00 21 00 20 00 17 00 11 00 0E 00 1B 00 22 00 15 00 1A 00 14 00 17 00 1D 00 15 00 17 00 18 00 1A 00 0D 00 0E 00 16 00 18 10 90 
2025-10-15 22:14:39.622 | TX | 0E 03 A0 C0 00 40 66 F9 
2025-10-15 22:14:39.622 | RX | 0E 03 80 00 1B 00 20 00 0F 00 21 00 27 00 18 00 15 00 19 00 1B 00 12 00 12 00 16 00 14 00 14 00 19 00 18 00 15 00 13 00 21 00 1F 00 16 00 1F 00 1A 00 1B 00 14 00 11 00 18 00 1C 00 1C 00 18 00 18 00 0A 00 16 00 1F 00 17 00 13 00 16 00 1E 00 19 00 19 00 17 00 10 00 06 00 0B 00 16 00 0D 00 0F 00 1F 00 27 00 0F 00 17 00 1B 00 12 40 0D 00 0C 00 14 00 18 00 12 00 19 00 1E 00 1A 00 1A 00 1D 00 21 DD 7A 
2025-10-15 22:14:39.653 | TX | 0E 03 A1 00 00 40 67 39 
2025-10-15 22:14:39.653 | RX | 0E 03 80 00 0F 00 15 00 16 00 12 00 0C 00 17 00 14 00 20 00 0F 00 1C 00 10 00 13 00 11 00 12 00 11 00 18 00 22 00 26 00 17 00 1A 00 1F 00 0D 00 0C 00 19 00 18 00 1E 00 0F 00 13 00 16 00 17 00 19 00 13 00 1D 00 0C 00 16 00 12 00 0D 00 16 00 1A 00 27 00 1C 00 1A 00 14 00 14 00 1C 00 1B 00 0C 00 07 00 14 00 0F 00 11 00 0A 00 1B 00 22 00 11 00 18 00 16 00 1C 00 16 00 15 00 13 00 1A 00 1C 00 16 E6 7D 
2025-10-15 22:14:39.683 | TX | 0E 03 A1 40 00 40 66 ED 
2025-10-15 22:14:39.684 | RX | 0E 03 80 00 1B 00 18 00 14 00 19 00 11 00 16 00 12 00 0E 00 0C 00 13 00 1A 00 18 40 1B 00 20 00 10 00 12 00 10 00 15 00 1D 00 15 00 13 00 1F 00 14 00 19 00 0F 00 11 00 13 00 11 00 20 00 13 00 20 00 17 00 15 00 11 00 10 00 19 00 1B 00 12 00 0B 00 1A 00 1D 00 1C 00 1C 00 18 00 1C 00 0A 00 11 00 1B 00 13 00 1F 00 1D 00 1E 00 1E 00 17 00 13 40 18 00 18 00 10 00 1A 00 1B 00 16 00 0F 00 0B 00 15 78 E0 
2025-10-15 22:14:39.715 | TX | 0E 03 A1 80 00 40 66 D1 
2025-10-15 22:14:39.715 | RX | 0E 03 80 00 1A 00 10 00 16 00 23 00 12 00 15 00 14 00 16 00 14 00 15 00 13 00 16 00 15 00 0C E0 1C 00 1F 00 19 00 1C 00 19 00 18 00 1B 00 16 00 15 00 19 00 17 00 0B 00 07 00 0F 00 13 00 17 00 15 00 21 00 17 00 1E 00 1C 00 13 00 1E 00 12 00 17 00 07 00 11 00 1B 00 19 00 16 00 1D 00 06 00 0E 00 19 00 18 00 15 00 1F 00 20 00 1C 00 21 00 18 00 17 00 03 
2025-10-15 22:14:39.715 | RX | 00 17 00 19 00 17 00 16 00 1B 00 2B 00 1A 2D 61 
2025-10-15 22:14:39.747 | TX | 0E 03 A1 C0 00 40 67 05 
2025-10-15 22:14:39.747 | RX | 0E 03 80 00 22 00 1C 00 17 00 19 40 17 00 1A 00 1C 00 16 00 18 00 16 00 12 00 10 00 08 00 0D 00 17 00 1A 00 17 00 1C 00 1B 00 1A 00 13 00 14 00 12 00 11 00 11 00 17 00 17 00 1A 00 1A 00 14 00 09 00 12 00 21 00 11 00 16 00 0E 00 1E 00 1E 00 17 00 07 00 1A 00 0C 40 16 00 28 00 1E 00 1C 00 1F 00 11 00 0B 00 20 00 11 00 14 00 1E 40 17 00 16 00 19 00 1C 00 15 00 0D 00 14 00 1B 00 12 00 0B 00 1A B2 81 
2025-10-15 22:14:39.778 | TX | 0E 03 A2 00 00 40 67 7D 
2025-10-15 22:14:39.779 | RX | 0E 03 80 40 01 40 02 40 02 40 03 40 01 40 01 40 02 40 01 40 01 40 01 40 03 40 02 40 02 40 02 40 02 40 04 40 01 40 02 40 02 40 02 40 01 40 02 40 01 40 02 40 03 40 01 40 01 40 02 40 01 40 03 40 01 40 01 40 02 40 02 40 02 40 02 40 01 40 02 40 02 40 01 40 01 40 02 40 02 40 01 40 02 40 01 40 02 40 02 40 02 40 03 40 02 40 02 40 02 40 02 40 02 40 01 40 02 40 01 40 02 40 01 40 02 40 02 40 02 40 01 B4 B9 
2025-10-15 22:14:39.810 | TX | 0E 03 A2 40 00 40 66 A9 
2025-10-15 22:14:39.810 | RX | 0E 03 80 40 01 40 02 40 02 40 01 40 02 40 02 40 02 40 01 40 01 40 01 40 00 40 02 40 01 40 02 40 01 40 02 40 02 40 02 40 03 40 03 40 03 40 02 40 01 40 02 40 01 40 01 40 02 40 01 40 01 40 03 40 02 40 01 40 01 40 01 40 01 40 02 40 01 40 02 40 01 40 03 40 01 40 01 40 01 40 01 40 02 40 01 40 02 40 02 40 01 40 02 40 02 40 02 40 03 40 02 40 01 40 02 40 02 40 02 40 01 40 01 40 02 40 02 40 01 40 01 FC 43 
2025-10-15 22:14:39.840 | TX | 0E 03 A2 80 00 40 66 95 
2025-10-15 22:14:39.840 | RX | 0E 03 80 40 02 40 02 40 02 40 02 40 01 40 02 40 02 40 02 40 02 40 02 40 02 40 02 40 01 40 01 40 02 40 02 40 02 40 01 40 02 40 02 40 01 40 02 40 02 40 01 40 03 40 02 40 02 40 01 40 02 40 02 40 02 40 02 40 01 40 01 40 02 40 02 40 01 40 02 40 04 40 03 40 01 40 03 40 02 40 02 40 02 40 03 40 03 40 02 40 02 40 02 40 03 40 03 40 02 40 02 40 03 40 02 40 02 40 01 40 02 40 01 40 02 40 02 40 02 40 01 41 F6 
2025-10-15 22:14:39.872 | TX | 0E 03 A2 C0 00 40 67 41 
2025-10-15 22:14:39.872 | RX | 0E 03 80 40 01 40 03 40 01 40 02 40 02 40 01 40 02 40 01 40 01 40 01 40 02 40 02 40 01 40 02 40 02 40 02 40 03 40 02 40 02 40 01 40 02 40 02 40 02 40 02 40 02 40 01 40 02 40 01 40 02 40 01 40 01 40 01 40 01 40 01 40 02 40 02 40 03 40 02 40 01 40 03 40 01 40 02 40 01 40 02 40 01 40 02 40 01 40 02 40 01 40 01 40 02 40 01 40 02 40 02 40 02 40 01 40 02 40 02 40 03 40 02 40 02 40 02 40 02 40 01 E9 E4 
2025-10-15 22:14:39.903 | TX | 0E 03 A3 00 00 40 66 81 
2025-10-15 22:14:39.903 | RX | 0E 03 80 40 02 40 03 40 02 40 01 40 02 40 01 40 02 40 03 40 01 40 02 40 01 40 03 40 02 40 02 40 01 40 02 40 02 40 01 40 02 40 02 40 03 40 02 40 02 40 03 40 01 40 01 40 01 40 02 40 01 40 01 40 02 40 01 40 02 40 02 40 01 40 02 40 01 40 02 40 01 40 02 40 02 40 02 40 01 40 02 40 01 40 02 40 01 40 01 40 02 40 01 40 02 40 02 40 02 40 01 40 02 40 01 40 02 40 02 40 01 40 02 40 02 40 01 40 01 40 02 54 95 
2025-10-15 22:14:39.934 | TX | 0E 03 A3 40 00 40 67 55 
2025-10-15 22:14:39.934 | RX | 0E 03 80 40 02 40 01 40 02 40 02 40 02 40 02 40 02 40 01 40 02 40 02 40 02 40 03 40 01 40 01 40 01 40 02 40 02 40 02 40 03 40 02 40 01 40 02 40 02 40 01 40 01 40 03 40 02 40 00 40 02 40 02 40 03 40 02 40 02 40 01 40 02 40 02 40 01 40 02 40 01 40 02 40 02 40 01 40 02 40 01 40 01 40 02 40 01 40 02 40 02 40 01 40 02 40 02 40 01 40 02 40 02 40 02 40 02 40 03 40 02 40 02 40 02 40 02 40 01 40 02 54 B9 
2025-10-15 22:14:39.965 | TX | 0E 03 A3 80 00 40 67 69 
2025-10-15 22:14:39.965 | RX | 0E 03 80 40 02 40 02 40 01 40 01 40 02 40 02 40 01 40 01 40 02 40 01 40 01 40 02 40 02 40 02 40 02 40 02 40 01 40 02 40 02 40 02 40 01 40 02 40 02 40 02 40 01 40 01 40 02 40 01 40 02 40 02 40 01 40 02 40 02 40 02 40 02 40 01 40 02 40 01 40 01 40 02 40 02 40 02 40 01 40 02 40 01 40 02 40 01 40 02 40 02 40 02 40 03 40 03 40 02 40 01 40 01 40 01 40 02 40 02 40 02 40 01 40 02 40 02 40 01 40 02 31 EF 
2025-10-15 22:14:39.996 | TX | 0E 03 A3 C0 00 40 66 BD 
2025-10-15 22:14:39.996 | RX | 0E 03 80 40 02 40 02 40 02 40 02 40 02 40 02 40 02 40 03 40 02 40 02 40 02 40 02 40 01 40 01 40 02 40 01 40 01 40 02 40 02 40 02 40 02 40 02 40 03 40 02 40 01 40 02 40 02 40 02 40 02 40 01 40 01 40 01 40 02 40 01 40 01 40 02 40 01 40 03 40 02 40 02 40 02 40 01 40 01 40 02 40 02 40 01 40 01 40 02 40 01 40 01 40 02 40 01 40 01 40 02 40 02 40 02 40 02 40 02 40 03 40 02 40 02 40 02 40 03 40 02 12 C1 
2025-10-15 22:14:40.011 | TX | 0E 10 00 00 00 01 02 00 09 27 A6 
2025-10-15 22:14:40.011 | RX | 0E 10 00 00 00 01 01 36 
2025-10-15 22:14:40.042 | TX | 0E 03 A0 00 00 40 66 C5 
2025-10-15 22:14:40.043 | RX | 0E 03 80 00 0E 00 14 00 19 00 16 00 1E 00 0F 00 1E 00 22 00 27 00 11 00 1B 00 10 00 1C 00 12 00 12 00 10 00 1B 00 23 00 14 00 18 00 18 00 17 00 18 00 18 00 1A 00 20 00 15 00 11 00 11 00 0D 00 13 00 17 00 12 00 13 00 1E 00 19 00 18 00 18 00 18 00 0C 00 11 00 10 00 1D 00 16 00 10 00 13 00 28 00 1F 00 15 00 12 00 1E 00 1D 00 19 00 14 00 15 00 1C 00 10 00 1A 40 1A 00 17 00 1B 00 1B 00 0E 00 18 9A 56 
2025-10-15 22:14:40.073 | TX | 0E 03 A0 40 00 40 67 11 
2025-10-15 22:14:40.073 | RX | 0E 03 80 00 1C 00 15 00 0F 00 13 00 17 00 18 00 1C 00 0E 00 1D 00 11 00 10 00 0D 00 19 00 15 00 28 00 14 00 1B 00 10 00 1A 00 16 00 16 00 0F 00 05 00 23 00 1F 00 22 00 21 00 18 00 1D 00 1D 00 14 00 00 00 11 00 14 00 13 00 1B 00 1A 00 21 00 1F 00 1F 00 1A 00 0D 00 12 00 22 00 1B 00 15 00 12 00 19 00 1B 00 12 40 0A 00 17 00 1C 00 0B 00 15 00 18 00 12 00 1C 00 14 00 24 00 1D 00 1C 00 1B 00 14 F6 07 
2025-10-15 22:14:40.104 | TX | 0E 03 A0 80 00 40 67 2D 
2025-10-15 22:14:40.104 | RX | 0E 03 80 00 1B 00 23 00 1D 00 1C 00 09 00 1B 00 16 00 0F 00 1C 00 18 00 20 00 25 00 12 00 12 00 0D 00 14 00 1A 00 15 00 14 00 20 00 1F 00 1F 00 18 00 14 00 0E 00 10 00 18 00 15 00 13 00 1D 00 23 00 23 00 19 00 18 00 16 40 13 00 15 00 12 00 17 00 0D 00 0F 00 10 00 1C 00 1C 00 15 00 29 40 23 00 0C 00 0E 00 1F 00 17 00 18 00 18 00 17 00 21 00 14 00 1C 00 0A 00 06 00 12 00 11 00 21 00 10 00 16 C8 32 
2025-10-15 22:14:40.135 | TX | 0E 03 A0 C0 00 40 66 F9 
2025-10-15 22:14:40.136 | RX | 0E 03 80 40 05 00 0E 00 06 00 19 00 1A 00 17 00 17 00 16 00 22 00 1B 00 20 00 09 00 0A 00 13 00 11 00 14 00 13 00 1B 00 24 00 17 00 18 00 14 00 0F 00 12 00 18 00 20 00 15 00 14 00 1C 00 1D 00 1A 00 18 00 16 00 15 00 15 00 12 00 19 00 18 00 1F 00 1F 00 12 00 18 00 1E E0 0D 00 08 00 12 00 13 00 10 00 22 00 10 00 1C 00 14 00 14 00 25 00 16 00 07 00 0D 00 14 00 13 00 12 00 12 00 14 00 18 40 1F 24 3F 
2025-10-15 22:14:40.166 | TX | 0E 03 A1 00 00 40 67 39 
2025-10-15 22:14:40.167 | RX | 0E 03 80 00 1C 00 15 00 0E 00 0B 00 1D 00 11 00 08 00 0F 00 15 00 18 00 17 00 19 00 12 00 10 00 16 00 14 00 1D 00 1C 00 1B 00 11 00 14 00 16 00 0E 00 16 00 14 00 11 00 15 00 11 00 11 00 1D 00 16 00 1D 00 18 00 21 00 23 40 14 00 0F 00 11 00 1C 00 1B 00 1A 00 1E 00 1F 00 0F 00 24 00 1E 00 0C 00 0B 00 11 00 1F 00 0F 00 1E 00 19 00 24 00 22 40 1A 00 10 00 0A 00 19 00 18 00 05 00 24 00 1D 00 12 A2 47 
2025-10-15 22:14:40.197 | TX | 0E 03 A1 40 00 40 66 ED 
2025-10-15 22:14:40.198 | RX | 0E 03 80 00 15 00 12 00 15 00 18 00 10 40 15 00 14 00 11 00 1A 00 14 00 18 00 1B 00 1F 00 17 1F FF 00 22 00 10 00 1C 00 11 00 12 00 0E 40 1F 00 1F 00 17 00 1F 00 1D 00 24 00 17 00 17 00 13 00 11 00 20 00 16 00 16 00 12 00 17 00 1A 00 0F 00 0E 00 1E 00 1B 00 1E 00 08 00 15 00 0E 00 13 00 14 00 10 00 0F 00 10 00 1A 00 1B 00 16 00 17 00 21 00 1B 00 17 00 0B 00 07 00 11 00 23 00 16 00 17 00 22 
2025-10-15 22:14:40.198 | RX | 82 DF 
2025-10-15 22:14:40.229 | TX | 0E 03 A1 80 00 40 66 D1 
2025-10-15 22:14:40.230 | RX | 0E 03 80 00 1C 00 18 00 20 00 0B 00 18 00 16 00 11 00 17 00 1D 00 0F 00 1B 00 15 00 0C 00 14 00 16 00 0E 00 17 00 10 00 1B 00 14 00 15 00 16 00 19 00 1D 00 1A 40 1B 00 05 00 10 00 1C 00 0F 00 11 00 15 00 20 00 24 00 1D 00 19 00 1B 00 0F 00 13 00 1D 00 18 00 17 00 14 00 1F 00 1F 00 12 00 19 00 15 00 0F 00 13 00 1C 00 1C 00 12 00 1C 00 1B 00 13 00 14 00 0F 00 17 00 0E 00 0E 00 17 00 0D 00 14 46 05 
2025-10-15 22:14:40.260 | TX | 0E 03 A1 C0 00 40 67 05 
2025-10-15 22:14:40.261 | RX | 0E 03 80 00 19 00 18 00 17 00 17 00 17 00 16 00 16 00 16 00 17 00 17 00 18 00 19 00 19 00 1A 00 1A 00 1A 00 19 00 18 00 16 00 14 00 12 00 10 00 10 00 10 00 11 00 13 00 15 00 18 00 1B 00 1D 00 1E 00 1E 00 1E 00 1D 00 1C 00 1B 00 1A 00 1A 00 19 00 19 00 19 00 18 00 17 00 16 00 15 00 15 00 15 00 15 00 17 00 18 00 1A 00 1C 00 1D 00 1D 00 1C 00 1A 00 17 00 14 00 12 00 10 00 0E 00 0E 00 0E 00 0E 61 8C 
2025-10-15 22:14:40.291 | TX | 0E 03 A2 00 00 40 67 7D 
2025-10-15 22:14:40.292 | RX | 0E 03 80 40 03 40 03 40 03 40 03 40 03 40 03 40 03 40 03 40 03 40 03 40 02 40 02 40 02 40 02 40 02 40 02 40 02 40 02 40 02 40 02 40 02 40 02 40 02 40 02 40 02 40 02 40 03 40 03 40 03 40 03 40 03 40 03 40 03 40 02 40 02 40 02 40 02 40 02 40 03 40 03 40 03 40 03 40 03 40 03 40 02 40 02 40 02 40 02 40 01 40 01 40 01 40 01 40 01 40 02 40 01 40 01 40 01 40 01 40 01 40 01 40 01 40 01 40 02 40 02 EE 4C 
2025-10-15 22:14:40.322 | TX | 0E 03 A2 40 00 40 66 A9 
2025-10-15 22:14:40.323 | RX | 0E 03 80 40 02 40 02 40 02 40 02 40 02 40 02 40 02 40 02 40 02 40 02 40 01 40 01 40 02 40 02 40 02 40 02 40 02 40 02 40 02 40 02 40 02 40 02 40 02 40 02 40 02 40 02 40 02 40 02 40 03 40 03 40 03 40 03 40 03 40 02 40 02 40 01 40 01 40 01 40 01 40 02 40 02 40 03 40 03 40 03 40 03 40 03 40 03 40 02 40 02 40 02 40 02 40 02 40 02 40 01 40 01 40 01 40 01 40 01 40 01 40 02 40 02 40 02 40 02 40 02 B0 60 
2025-10-15 22:14:40.353 | TX | 0E 03 A2 80 00 40 66 95 
2025-10-15 22:14:40.353 | RX | 0E 03 80 40 02 40 02 40 02 40 02 40 02 40 02 40 02 40 02 40 02 40 02 40 02 40 02 40 03 40 03 40 03 40 03 40 02 40 02 40 02 40 02 40 02 40 02 40 02 40 02 40 02 40 02 40 02 40 02 40 02 40 02 40 02 40 02 40 02 40 02 40 02 40 02 40 02 40 02 40 02 40 02 40 02 40 02 40 02 40 02 40 02 40 02 40 02 40 03 40 03 40 04 40 04 40 04 40 03 40 03 40 03 40 03 40 03 40 03 40 02 40 02 40 02 40 02 40 02 40 02 C1 98 
2025-10-15 22:14:40.384 | TX | 0E 03 A2 C0 00 40 67 41 
2025-10-15 22:14:40.384 | RX | 0E 03 80 40 02 40 02 40 02 40 02 40 02 40 02 40 02 40 02 40 02 40 02 40 02 40 02 40 02 40 02 40 02 40 02 40 01 40 01 40 01 40 01 40 01 40 01 40 01 40 01 40 01 40 01 40 01 40 01 40 01 40 01 40 01 40 01 40 01 40 01 40 01 40 01 40 01 40 01 40 02 40 02 40 02 40 02 40 02 40 02 40 02 40 02 40 02 40 02 40 02 40 02 40 02 40 02 40 03 40 03 40 02 40 02 40 02 40 02 40 02 40 02 40 02 40 02 40 02 40 03 AC 89 
2025-10-15 22:14:40.415 | TX | 0E 03 A3 00 00 40 66 81 
2025-10-15 22:14:40.416 | RX | 0E 03 80 40 03 40 03 40 03 40 03 40 03 40 03 40 02 40 02 40 02 40 03 40 03 40 03 40 03 40 03 40 03 40 03 40 02 40 02 40 02 40 02 40 02 40 02 40 02 40 01 40 01 40 01 40 02 40 02 40 02 40 02 40 02 40 02 40 02 40 02 40 01 40 01 40 01 40 02 40 02 40 02 40 02 40 02 40 02 40 02 40 02 40 02 40 02 40 02 40 02 40 02 40 02 40 02 40 02 40 02 40 02 40 02 40 02 40 02 40 02 40 02 40 02 40 02 40 02 40 02 7C 8E 
2025-10-15 22:14:40.447 | TX | 0E 03 A3 40 00 40 67 55 
2025-10-15 22:14:40.448 | RX | 0E 03 80 40 02 40 02 40 02 40 02 40 02 40 02 40 03 40 03 40 03 40 03 40 03 40 03 40 03 40 03 40 03 40 02 40 02 40 02 40 02 40 02 40 02 40 02 40 02 40 03 40 03 40 03 40 03 40 03 40 04 40 04 40 03 40 03 40 03 40 02 40 02 40 02 40 03 40 03 40 03 40 03 40 02 40 02 40 02 40 02 40 02 40 02 40 02 40 02 40 02 40 02 40 01 40 01 40 01 40 02 40 02 40 02 40 02 40 02 40 02 40 02 40 02 40 02 40 02 40 02 55 45 
2025-10-15 22:14:40.479 | TX | 0E 03 A3 80 00 40 67 69 
2025-10-15 22:14:40.479 | RX | 0E 03 80 40 02 40 02 40 02 40 02 40 02 40 02 40 02 40 02 40 02 40 02 40 02 40 02 40 02 40 02 40 02 40 02 40 02 40 02 40 02 40 02 40 02 40 02 40 02 40 02 40 02 40 02 40 02 40 02 40 02 40 02 40 02 40 02 40 02 40 02 40 02 40 02 40 03 40 03 40 03 40 03 40 03 40 03 40 03 40 03 40 03 40 03 40 03 40 03 40 03 40 03 40 03 40 03 40 03 40 02 40 02 40 02 40 02 40 02 40 02 40 02 40 02 40 02 40 02 40 02 41 C1 
2025-10-15 22:14:40.510 | TX | 0E 03 A3 C0 00 40 66 BD 
2025-10-15 22:14:40.510 | RX | 0E 03 80 40 02 40 02 40 02 40 03 40 03 40 03 40 03 40 03 40 03 40 03 40 03 40 03 40 03 40 03 40 03 40 02 40 02 40 02 40 02 40 02 40 02 40 02 40 02 40 02 40 02 40 02 40 02 40 02 40 02 40 02 40 02 40 02 40 02 40 03 40 03 40 03 40 03 40 03 40 03 40 03 40 03 40 03 40 03 40 03 40 03 40 02 40 02 40 02 40 02 40 01 40 01 40 01 40 01 40 01 40 01 40 01 40 01 40 01 40 01 40 01 40 02 40 02 40 02 40 02 F6 2E 
2025-10-15 22:14:40.526 | TX | 0E 10 00 00 00 01 02 00 09 27 A6 
2025-10-15 22:14:40.526 | RX | 0E 10 00 00 00 01 01 36 
2025-10-15 22:14:40.557 | TX | 0E 03 A0 00 00 40 66 C5 
2025-10-15 22:14:40.558 | RX | 0E 03 80 00 1C 00 1A 00 18 00 16 00 22 00 14 00 09 00 15 00 1A 00 17 00 0E 00 15 00 21 00 26 00 15 00 19 00 12 00 0F 00 10 00 1A 00 13 00 17 00 19 00 11 00 25 00 18 00 1A 40 24 00 15 00 13 00 12 00 0C 00 18 00 23 00 1A 00 13 40 1F 00 21 00 0D 00 0C 00 15 00 1F 00 16 00 18 00 0D 00 1C 00 1A 00 14 00 22 00 15 00 10 00 13 00 0F 00 1A 00 13 00 1B 00 12 00 21 00 1D 00 1E 00 21 00 13 00 11 00 19 DF 52 
2025-10-15 22:14:40.588 | TX | 0E 03 A0 40 00 40 67 11 
2025-10-15 22:14:40.589 | RX | 0E 03 80 00 1E 00 1F 00 25 00 1C 00 1A 00 08 00 0B 00 14 00 1C 00 10 00 13 00 1B 00 1A 00 15 00 1B 00 1B 00 05 00 13 00 1A 00 19 00 11 00 20 00 1E 00 13 00 15 00 1F 40 0A 00 12 00 10 00 17 00 1D 00 10 00 21 00 1B 00 21 00 24 00 13 00 13 00 0F 00 0C 00 1B 00 0C 00 12 00 17 00 1B 00 1E 00 21 40 1C 00 17 00 0E 00 17 00 11 00 13 00 13 00 16 00 24 00 18 00 1C 00 12 00 0C 00 10 00 13 00 11 00 14 
2025-10-15 22:14:40.589 | RX | 03 1E 
2025-10-15 22:14:40.619 | TX | 0E 03 A0 80 00 40 67 2D 
2025-10-15 22:14:40.620 | RX | 0E 03 80 00 1B 00 0E 00 0E 00 14 00 16 00 13 00 17 00 1B 00 11 00 0D 00 10 00 13 00 11 00 0F 00 1B 00 26 00 22 00 15 00 1C 00 0E 00 16 00 18 00 1A 00 18 00 18 00 1D 00 17 40 0C 00 10 00 12 00 18 00 1C 00 16 00 19 00 1E 00 1F 00 17 00 16 C0 19 00 11 00 20 00 15 00 14 00 11 00 17 00 1F 00 1D 00 1C 00 16 00 19 40 0C 00 17 00 15 00 1A 00 13 00 14 00 1D 00 20 00 1C 00 1F 00 20 00 18 00 09 00 20 96 B8 
2025-10-15 22:14:40.650 | TX | 0E 03 A0 C0 00 40 66 F9 
2025-10-15 22:14:40.651 | RX | 0E 03 80 00 19 00 0A 00 19 00 10 00 13 00 18 00 17 00 1D 00 14 00 12 00 1B 00 13 00 0F 00 12 00 10 00 1B 00 1E 00 1C 00 0F 00 0A 00 17 00 18 00 16 00 17 00 FF 00 18 00 16 00 1A 00 12 00 10 00 0E 00 1A 00 19 00 09 00 1B 00 19 00 11 00 14 00 07 00 FF 00 14 00 15 40 1C 00 23 00 1E 00 1D 00 1A 00 13 00 10 00 15 00 0F 00 1F 00 23 00 14 00 0F 00 11 00 0F 00 28 00 1B 00 1E 00 20 00 19 00 24 00 10 23 AC 
2025-10-15 22:14:40.681 | TX | 0E 03 A1 00 00 40 67 39 
2025-10-15 22:14:40.682 | RX | 0E 03 80 00 1E 00 20 00 16 00 0C 00 0C 00 16 00 12 00 1E 00 17 00 10 00 13 00 08 00 13 00 13 00 13 00 1C 00 22 00 1A 00 22 00 19 00 16 00 14 00 15 00 0A 00 13 00 15 00 16 00 1E 00 0E 00 1D 00 21 00 17 00 12 00 06 00 11 00 11 00 17 00 12 00 20 00 12 00 23 00 11 00 0E 00 13 00 1A 00 1E 00 25 00 21 00 21 00 1B 00 15 00 14 00 0F 40 0A 00 15 00 1B 00 1D 00 1C 00 1C 00 10 00 1F 00 26 00 14 00 16 1B 8A 
2025-10-15 22:14:40.712 | TX | 0E 03 A1 40 00 40 66 ED 
2025-10-15 22:14:40.713 | RX | 0E 03 80 00 15 00 17 00 08 00 13 00 15 00 15 00 1B 00 13 00 16 00 13 00 16 00 09 00 13 00 0D 00 0F 00 27 00 1E 00 27 00 12 00 13 00 08 00 1B 00 0E 00 0D 00 15 00 15 00 19 00 20 00 20 00 0E 00 17 40 0D 00 0E 00 13 00 15 00 1C 00 15 00 15 00 1C 00 1F 00 1E 00 20 00 16 00 04 00 0C 00 1F 00 1C 00 1B 00 19 00 1D C0 1B 40 1F 00 08 00 12 00 1D 00 19 00 19 00 1D 00 1D 00 22 00 19 00 1B 00 17 00 0C C6 68 
2025-10-15 22:14:40.742 | TX | 0E 03 A1 80 00 40 66 D1 
2025-10-15 22:14:40.744 | RX | 0E 03 80 00 13 00 18 00 0F 00 08 00 18 00 0A 00 1F 40 13 00 14 00 06 00 11 00 10 00 0E 00 21 00 19 00 16 00 0B 00 1A 00 18 00 1C 00 14 00 20 00 19 00 0E 00 1D 00 17 00 1A 00 20 00 13 00 15 00 08 00 17 00 17 00 0F 00 0E 00 1E 00 17 00 14 00 15 00 17 00 1F 00 17 00 15 00 14 00 0D 00 0B 00 15 00 0C 00 11 00 1E 00 16 00 20 00 18 00 13 00 15 00 1C 00 1B 00 13 00 19 00 13 00 16 00 11 00 14 00 14 C5 39 
2025-10-15 22:14:40.774 | TX | 0E 03 A1 C0 00 40 67 05 
2025-10-15 22:14:40.775 | RX | 0E 03 80 40 14 40 0B 00 13 00 17 00 1A 00 12 00 1A 00 17 00 13 00 1A 00 1E 00 0B 00 10 00 11 00 12 00 17 00 22 00 12 00 16 00 1F 00 10 00 1A 00 0B 00 15 00 23 00 11 00 19 00 1E 00 1D 00 18 40 1B 00 15 00 0B 00 14 00 15 00 15 00 1A 00 21 00 13 00 1F 00 1B 00 1B 00 12 00 11 00 10 00 0F 00 14 00 18 00 18 00 23 00 1A 00 18 00 1B 00 05 00 1C 00 14 00 14 00 12 00 19 00 25 00 14 00 07 00 13 00 0C 73 58 
2025-10-15 22:14:40.805 | TX | 0E 03 A2 00 00 40 67 7D 
2025-10-15 22:14:40.806 | RX | 0E 03 80 40 01 40 01 40 02 40 01 40 02 40 02 40 01 40 02 40 01 40 03 40 01 40 04 40 02 40 02 40 01 40 03 40 01 40 02 40 02 40 02 40 03 40 02 40 02 40 02 40 02 40 02 40 02 40 03 40 02 40 02 40 02 40 03 40 01 40 02 40 01 40 02 40 02 40 01 40 02 40 02 40 01 40 02 40 02 40 02 40 01 40 02 40 03 40 02 40 02 40 01 40 02 40 02 40 01 40 02 40 02 40 02 40 02 40 02 40 01 40 02 40 02 40 02 40 02 40 02 E1 C6 
2025-10-15 22:14:40.836 | TX | 0E 03 A2 40 00 40 66 A9 
2025-10-15 22:14:40.836 | RX | 0E 03 80 40 02 40 02 40 02 40 02 40 02 40 02 40 02 40 02 40 03 40 04 40 02 40 02 40 02 40 02 40 02 40 02 40 02 40 01 40 02 40 03 40 03 40 01 40 02 40 02 40 02 40 02 40 02 40 03 40 02 40 01 40 02 40 01 40 02 40 02 40 02 40 02 40 02 40 01 40 02 40 02 40 01 40 01 40 02 40 02 40 02 40 02 40 02 40 01 40 03 40 03 40 01 40 02 40 01 40 02 40 02 40 03 40 02 40 02 40 02 40 02 40 02 40 02 40 02 40 02 A5 10 
2025-10-15 22:14:40.867 | TX | 0E 03 A2 80 00 40 66 95 
2025-10-15 22:14:40.867 | RX | 0E 03 80 40 02 40 02 40 02 40 01 40 02 40 02 40 03 40 03 40 01 40 01 40 01 40 02 40 02 40 01 40 02 40 02 40 01 40 02 40 02 40 02 40 02 40 02 40 01 40 02 40 02 40 01 40 01 40 02 40 01 40 01 40 02 40 03 40 02 40 02 40 04 40 02 40 02 40 01 40 01 40 03 40 02 40 02 40 02 40 02 40 02 40 02 40 01 40 03 40 02 40 02 40 02 40 01 40 02 40 01 40 02 40 02 40 01 40 02 40 02 40 01 40 01 40 02 40 02 40 02 DC B2 
2025-10-15 22:14:40.898 | TX | 0E 03 A2 C0 00 40 67 41 
2025-10-15 22:14:40.898 | RX | 0E 03 80 40 02 40 03 40 01 40 03 40 02 40 02 40 02 40 02 40 01 40 02 40 03 40 02 40 03 40 02 40 02 40 03 40 03 40 02 40 03 40 03 40 02 40 01 40 02 40 01 40 02 40 00 40 02 40 03 40 02 40 02 40 02 40 03 40 02 40 01 40 02 40 02 40 01 40 02 40 01 40 02 40 02 40 02 40 02 40 02 40 01 40 01 40 02 40 02 40 02 40 02 40 02 40 01 40 02 40 02 40 02 40 02 40 02 40 01 40 02 40 02 40 01 40 02 40 02 40 01 C7 42 
2025-10-15 22:14:40.929 | TX | 0E 03 A3 00 00 40 66 81 
2025-10-15 22:14:40.930 | RX | 0E 03 80 40 01 40 01 40 01 40 02 40 02 40 02 40 02 40 02 40 01 40 02 40 03 40 02 40 01 40 03 40 01 40 02 40 02 40 02 40 02 40 01 40 02 40 01 40 03 40 02 40 02 40 02 40 02 40 02 40 02 40 02 40 02 40 02 40 02 40 02 40 02 40 02 40 01 40 01 40 02 40 02 40 01 40 01 40 02 40 03 40 01 40 03 40 02 40 02 40 02 40 01 40 01 40 03 40 01 40 02 40 02 40 03 40 02 40 02 40 02 40 02 40 02 40 02 40 01 40 01 8C 96 
2025-10-15 22:14:40.962 | TX | 0E 03 A3 40 00 40 67 55 
2025-10-15 22:14:40.962 | RX | 0E 03 80 40 02 40 02 40 02 40 01 40 02 40 02 40 01 40 02 40 02 40 03 40 02 40 01 40 02 40 01 40 03 40 03 40 01 40 01 40 01 40 02 40 02 40 02 40 02 40 04 40 02 40 03 40 03 40 02 40 02 40 02 40 02 40 03 40 02 40 02 40 01 40 01 40 02 40 03 40 02 40 02 40 01 40 02 40 02 40 02 40 02 40 02 40 01 40 02 40 02 40 02 40 02 40 02 40 01 40 01 40 02 40 02 40 02 40 02 40 02 40 02 40 02 40 01 40 02 40 02 7E FB 
2025-10-15 22:14:40.993 | TX | 0E 03 A3 80 00 40 67 69 
2025-10-15 22:14:40.993 | RX | 0E 03 80 40 02 40 03 40 02 40 03 40 01 40 02 40 01 40 02 40 01 40 01 40 01 40 01 40 02 40 01 40 02 40 03 40 01 40 02 40 02 40 02 40 02 40 02 40 02 40 02 40 02 40 02 40 03 40 03 40 02 40 01 40 01 40 01 40 01 40 01 40 01 40 02 40 01 40 03 40 02 40 02 40 02 40 02 40 03 40 03 40 02 40 02 40 01 40 02 40 01 40 00 40 02 40 03 40 02 40 01 40 01 40 02 40 02 40 02 40 03 40 02 40 02 40 02 40 03 40 01 BC 7C 
2025-10-15 22:14:41.024 | TX | 0E 03 A3 C0 00 40 66 BD 
2025-10-15 22:14:41.024 | RX | 0E 03 80 40 02 40 02 40 02 40 02 40 02 40 02 40 01 40 03 40 02 40 01 40 01 40 02 40 02 40 01 40 01 40 01 40 02 40 02 40 02 40 03 40 02 40 02 40 02 40 02 40 02 40 02 40 01 40 02 40 03 40 01 40 01 40 02 40 03 40 02 40 02 40 02 40 02 40 01 40 02 40 02 40 01 40 02 40 02 40 04 40 01 40 02 40 02 40 02 40 02 40 02 40 02 40 01 40 02 40 03 40 02 40 02 40 02 40 03 40 02 40 02 40 02 40 03 40 02 40 03 B6 F4 
2025-10-15 22:14:41.040 | TX | 0E 10 00 00 00 01 02 00 09 27 A6 
2025-10-15 22:14:41.040 | RX | 0E 10 00 00 00 01 01 36 
2025-10-15 22:14:41.070 | TX | 0E 03 A0 00 00 40 66 C5 
2025-10-15 22:14:41.071 | RX | 0E 03 80 00 18 00 10 00 1E 00 1B 00 19 00 19 00 0A 00 14 00 19 00 18 00 21 00 13 00 1C 00 14 40 07 00 1D 00 19 00 13 00 1E 00 1E 00 1A 00 13 00 19 00 13 00 14 00 11 00 0D 00 12 00 13 00 0F 00 1A 00 26 00 10 00 18 00 14 00 1F 00 10 00 13 00 0D 00 0E 00 1B 00 1B 00 0D 00 0B 00 1D E0 12 00 04 00 0D 00 13 00 18 00 1D 00 18 00 1F 00 1A 00 1E 00 24 00 11 40 0C 00 04 00 11 00 19 00 1F 00 18 00 20 95 9D 
2025-10-15 22:14:41.102 | TX | 0E 03 A0 40 00 40 67 11 
2025-10-15 22:14:41.103 | RX | 0E 03 80 00 10 00 10 00 10 00 12 00 13 00 15 00 16 00 17 00 18 00 18 00 19 00 18 00 18 00 17 00 15 00 14 00 13 00 11 00 10 00 0F 00 0E 00 0E 00 0E 00 0E 00 0F 00 10 00 11 00 12 00 13 00 13 00 13 00 12 00 11 00 10 00 0F 00 0E 00 0D 00 0B 00 09 00 08 00 06 00 06 00 06 00 08 00 0A 00 0E 00 11 40 15 40 18 40 1B 40 1D 40 1F 40 1F 40 1F 40 1F C0 1E C0 1C C0 1B 00 19 00 18 00 17 00 17 00 16 00 16 17 B1 
2025-10-15 22:14:41.133 | TX | 0E 03 A0 80 00 40 67 2D 
2025-10-15 22:14:41.134 | RX | 0E 03 80 00 15 00 15 00 14 00 14 00 14 00 14 00 13 00 13 00 13 00 13 00 12 00 12 00 12 00 12 00 13 00 14 00 15 00 16 00 16 00 16 00 16 00 15 00 14 00 14 00 14 00 14 00 14 00 15 00 15 00 14 00 14 00 14 00 14 00 14 00 14 00 15 00 16 00 17 00 18 00 19 00 1A 00 1A 00 1A 00 1A 00 1A 00 1A 00 19 00 19 00 18 00 18 00 17 00 16 00 15 00 13 00 11 00 0F 00 0E 00 0D 00 0E 00 10 40 13 40 16 40 19 40 1B 41 44 
2025-10-15 22:14:41.164 | TX | 0E 03 A0 C0 00 40 66 F9 
2025-10-15 22:14:41.164 | RX | 0E 03 80 40 1C 40 1C 40 1A 40 18 40 16 40 15 40 15 40 16 40 18 00 1A 00 1C 00 1F 00 21 00 22 00 23 00 22 00 21 00 20 00 1D 00 1B 00 19 00 17 00 15 00 14 00 14 00 13 00 13 00 12 00 11 00 10 00 0E 00 0D 00 0C 00 0C 00 0C 00 0C 00 0C 00 0C 00 0C 00 0C 00 0C 00 0D 00 0D 00 0D 00 0D 00 0D 00 0D 00 0E 00 0E 00 0F 00 10 00 11 00 12 00 14 00 15 00 17 00 19 00 1B 00 1D 00 1F 00 21 00 22 00 22 00 22 CE E0 
2025-10-15 22:14:41.195 | TX | 0E 03 A1 00 00 40 67 39 
2025-10-15 22:14:41.196 | RX | 0E 03 80 00 22 00 21 00 20 00 1E 00 1C 00 1A 00 17 00 15 00 11 00 0E 00 0B 00 09 00 07 00 06 00 06 00 07 00 09 00 0B 00 0F 00 11 00 14 00 16 00 17 00 18 00 19 00 19 00 19 00 19 00 18 00 17 00 15 00 15 00 14 00 14 00 14 00 14 00 14 00 14 00 15 00 15 00 16 00 17 00 19 00 1B 00 1C 00 1E 00 1E 00 1E 00 1D 00 1C 00 1A 00 19 00 17 00 15 00 14 00 14 00 14 00 15 00 16 00 17 00 18 00 19 00 19 00 19 8E 09 
2025-10-15 22:14:41.226 | TX | 0E 03 A1 40 00 40 66 ED 
2025-10-15 22:14:41.226 | RX | 0E 03 80 00 19 00 18 00 17 00 15 00 14 00 14 00 14 00 16 00 18 00 1A 00 1C 00 1D 00 1F 00 20 00 21 00 21 00 22 00 22 00 22 00 22 00 21 00 20 00 1D 00 1A 00 16 00 11 00 0D 00 0A 00 08 00 08 00 09 00 0A 00 0D 00 0F 00 11 00 13 00 13 00 14 00 14 00 14 00 15 00 15 00 15 00 16 00 17 00 18 00 19 00 1A 00 1B 00 1B 00 1A 00 19 00 19 00 18 00 17 00 17 00 17 00 18 00 18 00 19 00 19 00 19 00 18 00 18 86 4F 
2025-10-15 22:14:41.257 | TX | 0E 03 A1 80 00 40 66 D1 
2025-10-15 22:14:41.257 | RX | 0E 03 80 00 18 00 17 00 17 00 17 00 17 00 17 00 18 00 18 00 19 00 1A 00 1B 00 1D 00 1E 00 1F 00 21 00 22 00 23 00 23 00 23 00 21 00 20 00 1E 00 1C 00 1A 00 1A 00 1A 00 1B 00 1C 00 1D 00 1E 00 1D 00 1C 00 1B 00 19 00 17 00 14 00 11 00 0E 00 0B 00 07 00 04 00 00 1F FE 1F FC 1F FD 1F FE 00 01 00 04 00 08 00 0C 00 0F 00 12 00 15 00 18 00 1B 00 1D 00 1E 00 1F 00 1F 00 1F 00 1E 00 1E 00 1D 00 1C DA 78 
2025-10-15 22:14:41.288 | TX | 0E 03 A1 C0 00 40 67 05 
