2025-10-15 22:31:18.730 | TX | 0E 03 00 00 00 04 44 F6 
2025-10-15 22:31:18.730 | RX | 0E 03 08 00 00 00 01 00 00 30 CF CC 57 
2025-10-15 22:31:18.746 | TX | 0E 03 00 00 00 04 44 F6 
2025-10-15 22:31:18.746 | RX | 0E 03 08 00 00 00 01 00 00 30 CF CC 57 
2025-10-15 22:31:20.073 | TX | 0E 03 00 00 00 04 44 F6 
2025-10-15 22:31:20.074 | RX | 0E 03 08 00 00 00 01 00 00 30 D0 8D 9F 
2025-10-15 22:31:20.090 | TX | 0E 03 00 00 00 04 44 F6 
2025-10-15 22:31:20.090 | RX | 0E 03 08 00 00 00 01 00 00 30 D0 8D 9F 
2025-10-15 22:31:20.105 | TX | 0E 10 00 00 00 02 04 00 01 00 0A 12 7C 
2025-10-15 22:31:20.105 | RX | 0E 10 00 00 00 02 41 37 
2025-10-15 22:31:20.121 | TX | 0E 10 00 00 00 02 04 00 02 00 01 A3 BB 
2025-10-15 22:31:20.121 | RX | 0E 10 00 00 00 02 41 37 
2025-10-15 22:31:20.137 | TX | 0E 03 00 00 00 01 84 F5 
2025-10-15 22:31:20.137 | RX | 0E 03 02 00 00 EC 45 
2025-10-15 22:31:20.153 | TX | 0E 10 00 00 00 01 02 00 09 27 A6 
2025-10-15 22:31:20.153 | RX | 0E 10 00 00 00 01 01 36 
2025-10-15 22:31:20.169 | TX | 0E 03 00 00 00 01 84 F5 
2025-10-15 22:31:20.169 | RX | 0E 03 02 00 00 EC 45 
2025-10-15 22:31:20.185 | TX | 0E 10 00 00 00 01 02 00 09 27 A6 
2025-10-15 22:31:20.185 | RX | 0E 10 00 00 00 01 01 36 
2025-10-15 22:31:20.216 | TX | 0E 03 A0 00 00 40 66 C5 
2025-10-15 22:31:20.217 | RX | 0E 03 80 00 0B 00 12 00 1D 00 1F 00 1F 00 0C 00 18 00 15 00 16 00 20 00 1B 00 12 00 1D 00 1A 00 14 00 18 00 12 00 22 00 0D C0 08 40 16 00 21 00 1E 00 1A 00 0F 00 17 00 17 00 26 00 16 00 1A 00 18 00 12 00 11 00 12 00 1B 00 1D 00 2C 40 11 00 16 00 1D 00 1D 1F 04 00 1A 00 14 00 21 00 19 00 12 00 13 00 1E 00 13 00 12 40 15 00 1B 00 1E 00 1F 00 16 00 18 00 23 00 12 00 1B 00 23 00 20 00 15 00 1A D3 09 
2025-10-15 22:31:20.247 | TX | 0E 03 A0 40 00 40 67 11 
2025-10-15 22:31:20.247 | RX | 0E 03 80 00 1C 00 15 00 09 00 1C 00 1A 00 1B 00 1C 00 19 00 0B 00 0A 00 14 00 12 00 20 00 0A 00 11 00 1D 00 1F 00 1D 00 17 00 09 00 12 00 15 00 15 00 10 00 10 00 0C 00 0E 00 18 40 0D 00 15 00 11 00 1A 00 1C 00 1E 00 18 00 21 00 16 00 09 00 0D 00 1D 40 20 20 18 00 1D 00 17 00 22 40 23 40 24 00 0F 00 1F 00 23 00 13 00 1E 00 1B 00 19 00 16 00 14 00 19 00 1C 00 1B 00 0D 00 0D 00 1B 00 1A 00 1B 50 7C 
2025-10-15 22:31:20.278 | TX | 0E 03 A0 80 00 40 67 2D 
2025-10-15 22:31:20.279 | RX | 0E 03 80 00 18 00 18 00 19 00 19 00 19 00 19 00 19 00 19 00 18 00 16 00 15 00 12 00 10 00 0E 00 0D 00 0D 00 0D 00 0E 00 0E 00 0F 00 10 00 10 00 11 00 12 00 13 00 14 00 15 00 16 00 17 00 18 00 18 00 18 00 18 00 18 00 18 00 18 00 18 00 19 00 19 00 1B 00 1D 00 1F 00 21 00 23 00 25 00 26 00 26 00 26 00 25 00 24 00 24 00 23 00 23 00 22 00 21 00 20 00 1E 00 1C 00 19 00 17 00 14 00 12 00 0F 00 0D 75 B8 
2025-10-15 22:31:20.309 | TX | 0E 03 A0 C0 00 40 66 F9 
2025-10-15 22:31:20.310 | RX | 0E 03 80 00 0C 00 0B 00 0B 00 0D 00 0E 00 10 00 11 00 13 00 13 00 14 00 13 00 13 00 13 00 13 00 13 00 14 00 15 00 16 00 17 00 18 00 18 00 19 00 19 00 18 00 18 00 17 00 16 00 16 00 16 00 16 00 16 00 16 00 17 00 17 00 18 00 19 00 1A 00 1B 00 1C 00 1D 00 1E 00 1E 00 1E 00 1E 00 1D 00 1D 00 1C 00 1C 00 1B 00 1B 00 1A 00 19 00 17 00 16 00 15 00 15 00 16 00 17 00 18 00 19 00 1B 00 1C 00 1D 00 1E 2C 36 
2025-10-15 22:31:20.340 | TX | 0E 03 A1 00 00 40 67 39 
2025-10-15 22:31:20.341 | RX | 0E 03 80 00 1E 00 1D 00 1B 00 19 00 16 00 14 00 12 00 11 00 11 00 11 00 11 00 11 00 11 00 11 00 10 00 10 00 0F 00 0F 00 0F 00 0F 00 10 00 11 00 13 00 15 00 16 00 17 00 18 00 18 40 18 40 18 40 17 40 17 40 16 40 15 40 14 40 14 00 14 00 14 00 15 00 15 00 15 00 15 00 15 00 15 00 15 00 16 00 17 00 18 00 1A 00 1C 00 1E 00 21 00 22 00 23 00 23 00 22 00 21 00 1E 00 1C 00 19 00 17 00 15 00 13 00 12 80 D6 
2025-10-15 22:31:20.372 | TX | 0E 03 A1 40 00 40 66 ED 
2025-10-15 22:31:20.372 | RX | 0E 03 80 00 12 00 12 00 13 00 13 00 13 00 14 00 13 00 13 00 12 00 11 00 11 00 10 00 11 00 12 00 14 00 16 00 19 00 1B 00 1D 00 1F 00 21 00 21 00 21 00 20 00 1F 00 1E 00 1D 00 1C 00 1A 00 17 00 14 00 11 00 0E 00 0B 00 09 00 07 00 05 00 05 00 05 00 06 00 08 00 0A 00 0C 00 0E 00 10 40 12 40 13 40 14 40 15 40 16 40 16 40 17 40 17 00 17 00 17 00 16 00 16 00 15 00 15 00 14 00 13 00 12 00 12 00 12 4B FA 
2025-10-15 22:31:20.404 | TX | 0E 03 A1 80 00 40 66 D1 
2025-10-15 22:31:20.404 | RX | 0E 03 80 00 13 00 14 00 16 00 17 00 19 00 19 00 19 00 19 00 17 00 16 00 16 00 16 00 17 00 18 00 19 00 1B 00 1C 00 1C 00 1D 00 1D 00 1D 00 1D 00 1D 00 1D 00 1D 00 1D 00 1C 00 1C 00 1B 00 1B 00 1A 00 1A 00 19 00 19 00 19 00 19 00 19 00 1A 00 1B 00 1C 00 1C 00 1B 00 1A 00 1A 00 19 00 19 00 1A 00 1A 00 1A 00 19 00 18 00 17 00 16 00 15 00 13 00 12 00 10 00 0F 00 0E 00 0E 00 0E 00 10 00 11 00 14 31 9D 
2025-10-15 22:31:20.435 | TX | 0E 03 A1 C0 00 40 67 05 
2025-10-15 22:31:20.435 | RX | 0E 03 80 00 16 00 18 00 1A 00 1A 00 1A 00 19 00 18 00 17 00 17 00 16 00 17 00 18 00 19 00 1A 00 1C 00 1D 00 1E 00 1D 00 1C 00 1A 00 18 00 15 00 13 00 11 00 11 00 10 00 11 00 11 00 12 00 13 00 14 00 16 00 18 00 19 00 1B 00 1D 00 1F 00 20 00 20 00 21 00 20 00 1F 00 1F 00 1E 00 1D 00 1D 00 1D 00 1C 00 1C 00 1C 00 1B 00 1B 00 1B 00 1B 00 1B 00 1B 00 1A 00 1A 00 1B 00 1C 00 1C 00 1D 00 1E 00 1E 4F 2A 
2025-10-15 22:31:20.466 | TX | 0E 03 A2 00 00 40 67 7D 
2025-10-15 22:31:20.466 | RX | 0E 03 80 40 02 40 02 40 02 40 02 40 02 40 02 40 02 40 01 40 01 40 01 40 01 40 01 40 01 40 01 40 01 40 01 40 02 40 02 40 02 40 02 40 01 40 01 40 01 40 01 40 01 40 01 40 01 40 01 40 01 40 01 40 01 40 01 40 01 40 01 40 01 40 01 40 01 40 01 40 01 40 01 40 01 40 01 40 01 40 01 40 01 40 01 40 01 40 01 40 01 40 01 40 01 40 01 40 01 40 01 40 01 40 01 40 02 40 02 40 02 40 02 40 02 40 02 40 02 40 02 86 46 
2025-10-15 22:31:20.497 | TX | 0E 03 A2 40 00 40 66 A9 
2025-10-15 22:31:20.497 | RX | 0E 03 80 40 02 40 02 40 02 40 02 40 02 40 02 40 02 40 02 40 02 40 02 40 02 40 02 40 02 40 02 40 02 40 02 40 02 40 02 40 02 40 02 40 02 40 02 40 02 40 02 40 02 40 01 40 02 40 01 40 01 40 01 40 01 40 01 40 01 40 01 40 01 40 01 40 02 40 02 40 02 40 02 40 02 40 02 40 02 40 02 40 02 40 02 40 01 40 01 40 01 40 00 40 00 40 00 40 01 40 01 40 01 40 01 40 01 40 01 40 01 40 01 40 02 40 02 40 02 40 02 80 B1 
2025-10-15 22:31:20.528 | TX | 0E 03 A2 80 00 40 66 95 
2025-10-15 22:31:20.528 | RX | 0E 03 80 40 02 40 02 40 02 40 02 40 02 40 02 40 01 40 01 40 01 40 01 40 01 40 01 40 01 40 01 40 01 40 01 40 01 40 01 40 01 40 02 40 02 40 02 40 02 40 02 40 01 40 01 40 01 40 01 40 01 40 01 40 01 40 01 40 01 40 01 40 01 40 01 40 01 40 01 40 02 40 02 40 02 40 02 40 02 40 02 40 02 40 02 40 02 40 02 40 02 40 02 40 02 40 02 40 02 40 02 40 02 40 02 40 02 40 02 40 02 40 01 40 01 40 01 40 01 40 01 8D A0 
2025-10-15 22:31:20.559 | TX | 0E 03 A2 C0 00 40 67 41 
2025-10-15 22:31:20.560 | RX | 0E 03 80 40 01 40 01 40 01 40 01 40 01 40 02 40 02 40 02 40 02 40 02 40 02 40 02 40 01 40 01 40 01 40 01 40 02 40 02 40 02 40 02 40 02 40 02 40 02 40 02 40 01 40 01 40 01 40 01 40 01 40 02 40 02 40 02 40 02 40 02 40 02 40 02 40 02 40 02 40 02 40 03 40 03 40 03 40 02 40 02 40 02 40 02 40 02 40 02 40 02 40 02 40 02 40 02 40 02 40 02 40 02 40 02 40 02 40 02 40 02 40 02 40 01 40 01 40 01 40 01 30 91 
2025-10-15 22:31:20.590 | TX | 0E 03 A3 00 00 40 66 81 
2025-10-15 22:31:20.590 | RX | 0E 03 80 40 01 40 01 40 01 40 01 40 01 40 01 40 01 40 01 40 01 40 01 40 01 40 00 40 00 40 00 40 01 40 01 40 01 40 01 40 01 40 01 40 01 40 01 40 01 40 01 40 01 40 01 40 01 40 01 40 01 40 01 40 01 40 01 40 02 40 02 40 02 40 02 40 02 40 02 40 02 40 01 40 01 40 01 40 01 40 01 40 01 40 01 40 01 40 01 40 01 40 01 40 01 40 01 40 01 40 01 40 01 40 01 40 01 40 02 40 02 40 02 40 02 40 02 40 02 40 01 6A 70 
2025-10-15 22:31:20.622 | TX | 0E 03 A3 40 00 40 67 55 
2025-10-15 22:31:20.622 | RX | 0E 03 80 40 01 40 01 40 01 40 01 40 02 40 02 40 02 40 02 40 02 40 01 40 01 40 01 40 01 40 01 40 00 40 00 40 01 40 01 40 01 40 01 40 02 40 02 40 02 40 02 40 02 40 02 40 01 40 01 40 02 40 01 40 01 40 01 40 01 40 01 40 01 40 01 40 02 40 01 40 01 40 01 40 01 40 01 40 01 40 01 40 01 40 01 40 01 40 01 40 01 40 02 40 02 40 02 40 01 40 01 40 01 40 01 40 01 40 01 40 01 40 01 40 00 40 01 40 01 40 01 B0 C0 
2025-10-15 22:31:20.653 | TX | 0E 03 A3 80 00 40 67 69 
2025-10-15 22:31:20.653 | RX | 0E 03 80 40 01 40 01 40 01 40 01 40 01 40 01 40 02 40 02 40 01 40 01 40 01 40 01 40 01 40 01 40 01 40 01 40 01 40 00 40 00 40 00 40 00 40 00 40 01 40 01 40 01 40 01 40 01 40 01 40 02 40 02 40 02 40 01 40 01 40 01 40 01 40 02 40 02 40 02 40 02 40 02 40 01 40 01 40 01 40 01 40 01 40 01 40 01 40 01 40 01 40 01 40 01 40 01 40 01 40 01 40 01 40 01 40 01 40 01 40 01 40 00 40 00 40 01 40 01 40 01 35 62 
2025-10-15 22:31:20.684 | TX | 0E 03 A3 C0 00 40 66 BD 
2025-10-15 22:31:20.684 | RX | 0E 03 80 40 01 40 01 40 01 40 02 40 02 40 02 40 02 40 02 40 02 40 02 40 02 40 02 40 02 40 02 40 02 40 02 40 02 40 02 40 02 40 02 40 02 40 01 40 02 40 01 40 01 40 01 40 01 40 01 40 01 40 01 40 01 40 01 40 01 40 01 40 01 40 01 40 01 40 01 40 01 40 01 40 01 40 01 40 01 40 01 40 01 40 02 40 02 40 02 40 02 40 02 40 02 40 02 40 02 40 02 40 02 40 02 40 01 40 01 40 01 40 01 40 01 40 01 40 01 40 01 8C 43 
2025-10-15 22:31:20.716 | TX | 0E 10 00 00 00 01 02 00 09 27 A6 
2025-10-15 22:31:20.716 | RX | 0E 10 00 00 00 01 01 36 
2025-10-15 22:31:20.747 | TX | 0E 03 A0 00 00 40 66 C5 
2025-10-15 22:31:20.747 | RX | 0E 03 80 00 1F 00 1C 00 11 00 25 00 20 00 20 00 1D 00 1A 00 0D 00 0D 00 15 00 1A 00 14 00 1D 00 1B 00 1A 00 19 00 21 00 10 00 13 00 23 00 18 00 15 00 0D 00 0C 00 26 00 1E 00 14 C0 15 00 1B 00 18 00 1F 00 1D 00 1F 00 21 00 10 00 16 00 0A 00 1C 00 17 00 1C 00 16 00 0E 00 17 00 25 00 1A 40 17 C0 14 00 22 00 1E 00 20 00 1A 00 18 00 0F 00 06 00 1D 00 17 00 1E 00 17 00 09 00 0D 00 13 00 1C 00 1D 96 A1 
2025-10-15 22:31:20.778 | TX | 0E 03 A0 40 00 40 67 11 
2025-10-15 22:31:20.779 | RX | 0E 03 80 00 12 00 1D 00 17 00 1B 00 19 80 12 00 11 00 16 00 1B 00 20 40 1C 00 1E 00 19 00 1A 00 13 00 10 00 20 C0 28 C0 26 00 10 00 12 00 1A 00 17 00 18 40 1F 00 0F 00 21 00 2A 00 1E 00 1E 00 1B 00 0F 00 0D 00 20 00 1B 00 1F 00 24 00 19 00 17 00 14 00 1E 00 1E 00 20 00 1D 00 0E 00 10 00 1C 00 11 00 15 00 14 00 0B 00 06 00 1C 00 22 00 18 00 1B 00 1B 00 0A 00 11 00 1A 00 14 00 18 00 0B 00 0C 6B EA 
2025-10-15 22:31:20.809 | TX | 0E 03 A0 80 00 40 67 2D 
2025-10-15 22:31:20.809 | RX | 0E 03 80 00 18 00 1F 00 1B 00 1F C0 22 00 14 00 1E 00 10 00 1B 40 1A 00 13 00 02 00 21 00 19 00 14 00 13 00 12 00 0C 00 16 00 15 00 13 00 1C 00 1D 00 21 00 15 00 13 00 09 00 1A 00 19 00 1A 00 19 00 10 00 14 00 19 00 18 00 14 00 17 00 1A 00 12 00 0D 00 10 00 14 00 1B 00 13 00 20 00 16 00 1F 40 14 00 12 00 26 00 21 00 18 00 17 40 1A 00 24 00 10 00 16 00 15 00 15 00 1A 00 0C 00 1F 00 24 00 19 02 A5 
2025-10-15 22:31:20.840 | TX | 0E 03 A0 C0 00 40 66 F9 
2025-10-15 22:31:20.841 | RX | 0E 03 80 00 1C 00 0C 00 12 00 1C 00 1F 00 13 00 19 00 11 00 20 00 13 00 18 00 13 00 16 00 11 00 20 40 0F 00 16 00 1C 00 13 00 1F 00 14 00 20 00 1E 00 23 40 1B 00 15 00 24 00 1E 00 12 40 04 40 18 00 22 00 25 C0 16 00 15 00 14 00 1E 00 20 00 14 00 15 00 1A 40 1D 40 11 00 10 00 22 00 1A 00 20 40 19 00 1C 00 12 00 15 00 1B 00 23 00 16 00 10 00 18 00 14 00 18 00 16 00 11 00 1B 00 15 00 11 00 22 F5 6C 
2025-10-15 22:31:20.872 | TX | 0E 03 A1 00 00 40 67 39 
2025-10-15 22:31:20.872 | RX | 0E 03 80 00 1E 00 21 00 1A 00 12 00 0C 00 0E 00 1C 00 0C 40 0D 00 1D 00 20 00 1E 00 1F 00 13 00 17 40 13 00 1D 00 1D 00 18 00 1E 00 1B 00 1A 00 1E 00 17 00 1F 00 1E E0 31 40 0A 00 0E 00 25 00 1E 00 1D 00 16 00 17 00 10 00 0E 00 1E 00 1C 00 16 00 15 00 1A 00 20 00 19 00 1C 00 17 00 1D 00 11 00 1B 00 18 00 13 00 0E 00 19 00 19 00 12 00 0B 00 13 00 19 00 29 00 0F 00 1C 00 15 00 14 00 1C 00 1A 54 C9 
2025-10-15 22:31:20.902 | TX | 0E 03 A1 40 00 40 66 ED 
2025-10-15 22:31:20.903 | RX | 0E 03 80 00 1B 00 23 00 1E 00 12 00 1C 00 0B 00 11 00 11 00 1D 00 16 00 1C 00 19 00 27 00 12 00 0E 00 14 00 0A 00 14 00 0F 00 08 00 10 00 18 00 1C 00 12 00 13 00 19 00 22 00 20 00 12 00 0E 00 24 00 0F 40 16 00 24 00 12 40 15 00 0D 00 18 00 0F 00 0C 00 1F 40 28 C0 23 00 1B 00 18 00 2B 00 1D 00 16 00 18 00 1D 00 12 00 14 00 0E 00 14 00 17 00 1F 00 1A 00 18 00 18 40 20 00 1A 00 15 00 1F 00 1A C9 74 
2025-10-15 22:31:20.934 | TX | 0E 03 A1 80 00 40 66 D1 
2025-10-15 22:31:20.934 | RX | 0E 03 80 00 1E 00 16 00 1C 00 1A 00 1A 00 1F 00 27 00 1C 00 24 00 14 00 14 00 1A 00 1B 00 1A 00 0F 00 12 00 18 00 1D 00 0A 00 15 00 24 00 23 00 1A 00 29 00 1D 00 19 00 1A 00 0A 00 0B 00 22 00 22 40 15 40 11 00 16 00 25 00 1E 00 15 00 1F 00 21 00 1F 00 12 00 15 00 19 00 1E 00 11 00 19 00 0F 00 1B 00 21 00 11 00 17 00 1D 00 24 00 21 00 1D 00 0F 00 16 00 18 00 08 00 10 00 1F 00 10 00 1A 00 16 9E D4 
2025-10-15 22:31:20.965 | TX | 0E 03 A1 C0 00 40 67 05 
2025-10-15 22:31:20.965 | RX | 0E 03 80 00 10 00 21 00 0D 00 14 00 10 00 1C 00 21 E0 21 00 16 00 20 00 1F 00 19 00 20 00 19 00 14 00 11 00 20 00 1E 00 1A 00 0D 00 0B 00 1B 00 20 00 1B 00 20 00 14 00 1E 00 11 00 1C 00 12 00 15 00 14 00 12 00 1A 00 1F 00 1C 00 10 00 1D 00 15 40 19 00 19 00 19 40 1E 00 13 00 12 00 23 00 1D 40 16 00 0B 00 0E 00 17 00 18 80 1B 80 1C 00 27 00 1E 00 1B 00 15 00 0F 00 14 00 0A 00 17 00 14 00 1C 2F 94 
2025-10-15 22:31:20.996 | TX | 0E 03 A2 00 00 40 67 7D 
2025-10-15 22:31:20.996 | RX | 0E 03 80 40 01 40 02 40 02 40 01 40 00 40 02 40 01 40 02 40 02 40 02 40 02 40 02 40 02 40 01 40 02 40 01 40 02 40 02 40 02 40 01 40 01 40 01 40 01 40 00 40 02 40 02 40 01 40 01 40 01 40 02 40 02 40 01 40 01 40 01 40 01 40 01 40 01 40 01 40 02 40 01 40 00 40 01 40 00 40 01 40 02 40 02 40 02 40 01 40 02 40 02 40 01 40 02 40 02 40 01 40 01 40 01 40 01 40 02 40 01 40 01 40 01 40 02 40 01 40 01 D5 AE 
2025-10-15 22:31:21.026 | TX | 0E 03 A2 40 00 40 66 A9 
2025-10-15 22:31:21.027 | RX | 0E 03 80 40 01 40 02 40 01 40 01 40 01 40 02 40 02 40 02 40 02 40 01 40 02 40 01 40 02 40 02 40 01 40 01 40 01 40 02 40 02 40 02 40 03 40 01 40 01 40 01 40 00 40 03 40 01 40 01 40 01 40 01 40 02 40 01 40 03 40 02 40 02 40 01 40 02 40 02 40 01 40 01 40 02 40 01 40 02 40 02 40 01 40 01 40 01 40 00 40 02 40 01 40 01 40 02 40 01 40 01 40 02 40 02 40 01 40 03 40 02 40 02 40 01 40 02 40 02 40 02 46 5B 
2025-10-15 22:31:21.058 | TX | 0E 03 A2 80 00 40 66 95 
2025-10-15 22:31:21.059 | RX | 0E 03 80 40 02 40 02 40 01 40 02 40 02 40 02 40 00 40 02 40 01 40 01 40 01 40 01 40 01 40 01 40 02 40 01 40 02 40 02 40 01 40 02 40 02 40 02 40 01 40 01 40 02 40 
2025-10-15 22:31:21.059 | RX | 02 40 01 40 01 40 01 40 01 40 01 40 02 40 02 40 01 40 02 40 02 40 01 40 02 40 01 40 01 40 02 40 01 40 02 40 02 40 01 40 02 40 02 40 03 40 01 40 03 40 01 40 01 40 02 40 02 40 02 40 01 40 01 40 02 40 01 40 01 40 01 40 01 40 02 40 01 14 7A 
2025-10-15 22:31:21.090 | TX | 0E 03 A2 C0 00 40 67 41 
2025-10-15 22:31:21.090 | RX | 0E 03 80 40 02 40 02 40 02 40 02 40 02 40 02 40 02 40 02 40 02 40 02 40 02 40 02 40 02 40 02 40 02 40 02 40 02 40 02 40 02 40 02 40 02 40 01 40 01 40 01 40 01 40 01 40 01 40 01 40 01 40 01 40 01 40 01 40 01 40 01 40 02 40 01 40 01 40 01 40 01 40 01 40 01 40 01 40 01 40 01 40 01 40 01 40 01 40 01 40 01 40 01 40 01 40 01 40 01 40 01 40 01 40 02 40 02 40 02 40 02 40 03 40 03 40 03 40 03 40 03 04 EE 
2025-10-15 22:31:21.121 | TX | 0E 03 A3 00 00 40 66 81 
2025-10-15 22:31:21.121 | RX | 0E 03 80 40 03 40 03 40 02 40 02 40 02 40 02 40 02 40 02 40 01 40 01 40 01 40 00 40 01 40 01 40 01 40 02 40 02 40 02 40 03 40 03 40 03 40 03 40 02 40 02 40 02 40 01 40 01 40 01 40 01 40 01 40 01 40 01 40 01 40 01 40 01 40 02 40 02 40 02 40 02 40 02 40 02 40 02 40 02 40 02 40 02 40 02 40 02 40 02 40 02 40 02 40 02 40 02 40 02 40 02 40 02 40 02 40 02 40 02 40 02 40 02 40 02 40 01 40 01 40 01 E6 47 
2025-10-15 22:31:21.153 | TX | 0E 03 A3 40 00 40 67 55 
2025-10-15 22:31:21.153 | RX | 0E 03 80 40 01 40 01 40 02 40 02 40 02 40 02 40 02 40 02 40 02 40 02 40 02 40 02 40 02 40 02 40 02 40 02 40 02 40 02 40 02 40 02 40 02 40 02 40 02 40 02 40 02 40 02 40 02 40 02 40 02 40 02 40 02 40 02 40 02 40 02 40 03 40 02 40 02 40 02 40 02 40 02 40 02 40 02 40 01 40 01 40 01 40 01 40 01 40 01 40 01 40 01 40 01 40 01 40 01 40 01 40 01 40 01 40 01 40 01 40 01 40 01 40 01 40 01 40 01 40 01 4D FD 
2025-10-15 22:31:21.184 | TX | 0E 03 A3 80 00 40 67 69 
2025-10-15 22:31:21.184 | RX | 0E 03 80 40 01 40 01 40 01 40 01 40 01 40 01 40 01 40 01 40 01 40 01 40 01 40 01 40 01 40 01 40 01 40 02 40 02 40 02 40 02 40 02 40 02 40 02 40 02 40 01 40 01 40 01 40 01 40 01 40 01 40 01 40 01 40 01 40 01 40 01 40 01 40 01 40 01 40 00 40 00 40 00 40 01 40 01 40 01 40 01 40 01 40 01 40 01 40 01 40 01 40 01 40 01 40 01 40 01 40 01 40 01 40 01 40 01 40 01 40 01 40 01 40 01 40 01 40 01 40 01 E0 11 
2025-10-15 22:31:21.215 | TX | 0E 03 A3 C0 00 40 66 BD 
2025-10-15 22:31:21.215 | RX | 0E 03 80 40 01 40 01 40 01 40 01 40 01 40 01 40 01 40 01 40 01 40 01 40 01 40 01 40 01 40 01 40 01 40 01 40 01 40 01 40 01 40 01 40 01 40 01 40 01 40 01 40 01 40 01 40 02 40 02 40 02 40 02 40 02 40 02 40 02 40 02 40 02 40 02 40 02 40 01 40 01 40 01 40 01 40 01 40 01 40 01 40 01 40 01 40 01 40 00 40 00 40 00 40 00 40 00 40 00 40 00 40 01 40 01 40 01 40 01 40 01 40 01 40 01 40 00 40 00 40 00 9F 41 
2025-10-15 22:31:21.231 | TX | 0E 10 00 00 00 01 02 00 09 27 A6 
2025-10-15 22:31:21.231 | RX | 0E 10 00 00 00 01 01 36 
2025-10-15 22:31:21.262 | TX | 0E 03 A0 00 00 40 66 C5 
2025-10-15 22:31:21.262 | RX | 0E 03 80 40 18 00 19 00 19 00 17 00 19 00 16 00 15 00 1B 00 0D 00 16 00 18 00 19 00 1F 00 16 00 1B 00 17 00 25 00 14 00 22 00 22 00 1A 00 19 00 14 00 0F 00 13 00 1A 00 12 00 17 00 1F 00 1A 00 18 00 1E 00 0D 00 16 00 1C 00 15 00 17 00 18 00 16 00 13 00 1C 00 0F 40 19 00 13 00 13 00 1D 00 1D 00 15 00 1A 00 1B 00 1D 00 1F 00 0F 00 15 00 17 00 1B 40 12 E0 06 40 1A 00 1E C0 1F 00 18 00 1A 00 15 52 AB 
2025-10-15 22:31:21.293 | TX | 0E 03 A0 40 00 40 67 11 
2025-10-15 22:31:21.293 | RX | 0E 03 80 00 20 00 18 00 1F 00 0F 00 0C 00 15 00 14 00 1A 00 0D 00 07 00 1C 00 17 80 11 00 18 00 17 00 1C 00 1B 00 1F 00 18 00 18 00 24 00 28 00 23 00 15 00 1A 00 17 00 14 00 18 00 15 00 18 40 1A 80 1D E0 17 00 1B 00 22 00 18 00 1A 00 1A 00 1B 00 0C 00 15 00 1B 00 22 00 1A 00 13 00 0E 00 18 00 1D 00 1C 00 23 00 0F 00 12 00 1B 00 13 00 16 00 10 00 0D 00 0C 00 1A 00 11 00 19 00 19 00 20 00 00 B8 C0 
2025-10-15 22:31:21.324 | TX | 0E 03 A0 80 00 40 67 2D 
2025-10-15 22:31:21.324 | RX | 0E 03 80 00 16 00 1F 00 15 00 05 00 23 00 14 00 1D 00 10 00 0F 00 23 00 1D 00 1C 00 18 00 11 00 17 00 1C 00 1A 00 0A 00 12 00 1A 00 0F 00 12 00 0A 00 17 00 19 00 1A 00 20 00 15 00 1E 00 11 00 14 00 13 00 15 00 16 00 1C 00 18 C0 08 C0 05 00 1A 00 22 00 25 00 19 00 16 00 22 00 23 00 1A 00 13 00 22 40 18 00 0B 00 0E 00 17 00 14 00 24 80 24 40 1B 00 0E 00 24 00 1C 00 17 00 1D 00 19 00 0D 00 12 F2 0A 
2025-10-15 22:31:21.354 | TX | 0E 03 A0 C0 00 40 66 F9 
2025-10-15 22:31:21.355 | RX | 0E 03 80 00 1F 00 19 00 1C 00 22 00 21 00 19 40 22 00 0D 00 13 00 1C 00 21 00 16 00 10 00 19 00 10 00 19 00 18 00 19 00 12 00 19 00 12 00 14 00 1A 00 1E 00 1D 00 21 00 1C 00 14 00 1B 00 1A 00 18 00 1A 00 1E 00 20 00 1D 00 1F 00 17 00 0F 00 22 00 23 00 21 00 08 00 1A 00 1D 00 14 40 12 00 22 00 18 40 17 00 2B 00 29 00 1E 00 12 00 1B 00 1E 00 22 00 17 00 20 00 0D 00 18 00 0B 00 18 00 1F 40 20 28 2A 
2025-10-15 22:31:21.386 | TX | 0E 03 A1 00 00 40 67 39 
2025-10-15 22:31:21.386 | RX | 0E 03 80 00 17 00 10 00 15 00 1A 00 15 00 21 00 18 00 15 00 1F 00 1F 00 1C 00 0D 00 12 00 20 00 15 00 13 C0 19 00 0F 00 1E 40 1D 00 1E 00 1A 00 16 00 21 00 21 00 17 00 1D 00 1C 00 13 00 10 00 1F 00 16 00 20 40 23 C0 14 C0 1E 00 1E 00 24 00 21 00 1A 00 0E 00 1D 00 0A 00 1C 00 12 00 18 00 18 00 09 00 12 00 19 00 23 00 20 00 1B 00 0E 00 1F 00 1C 00 16 00 07 00 0E 00 0B 00 0D 00 1B 00 16 00 15 BA 0B 
2025-10-15 22:31:21.417 | TX | 0E 03 A1 40 00 40 66 ED 
2025-10-15 22:31:21.417 | RX | 0E 03 80 00 14 00 10 00 15 00 1A 00 26 40 27 00 23 00 23 00 22 00 1C 00 1A 00 1A 00 11 00 13 00 18 00 1B 00 15 00 17 00 1E 00 11 00 1D 00 24 00 23 00 1D 00 0E 00 09 00 19 00 10 00 13 00 15 40 14 00 22 00 19 00 20 00 17 00 21 00 15 00 1E 00 1A 00 20 00 11 00 05 00 1D 00 1F 00 1F 40 0A 00 0E 00 18 00 17 00 24 00 1A 00 21 00 10 00 1A 00 18 00 10 00 1A 00 1F 00 1A 00 0E 00 16 00 22 00 22 00 20 61 C4 
2025-10-15 22:31:21.448 | TX | 0E 03 A1 80 00 40 66 D1 
2025-10-15 22:31:21.448 | RX | 0E 03 80 00 14 00 1C 00 19 00 15 00 1C 00 0D 00 16 00 1B 00 11 00 13 00 1A 00 17 00 15 00 13 00 04 00 11 00 1C 00 1B 00 15 00 12 00 16 00 1B 00 1C 00 0F 00 09 40 17 00 28 00 16 00 11 00 1A 00 15 00 19 00 18 00 18 00 18 40 1E 00 15 00 19 00 1B 00 19 00 1B 00 22 00 0F 00 0E 00 21 00 1C 00 21 00 20 00 06 00 14 00 21 00 0E 00 21 00 15 00 06 00 16 00 20 00 0E 00 12 00 0A 00 17 00 23 00 1F 40 0E 2B E8 
2025-10-15 22:31:21.479 | TX | 0E 03 A1 C0 00 40 67 05 
2025-10-15 22:31:21.479 | RX | 0E 03 80 00 11 00 20 00 0E 40 15 00 18 00 17 00 1D 00 23 00 1D 00 17 00 18 00 1D 00 27 00 17 00 1B 00 1C 00 21 40 18 40 18 00 1F 00 1F 40 1F 00 22 00 0E 00 21 00 1F 00 21 00 11 00 19 00 16 00 1A 00 07 00 1F 00 1A 00 09 00 10 00 23 00 14 00 17 00 21 00 08 00 10 00 13 00 21 00 18 00 0D 00 14 00 14 00 0F 00 1A 40 15 00 16 00 1F 00 16 00 15 00 1F 00 20 40 11 00 13 00 15 00 17 00 22 00 1A 40 16 E1 2F 
2025-10-15 22:31:21.510 | TX | 0E 03 A2 00 00 40 67 7D 
2025-10-15 22:31:21.510 | RX | 0E 03 80 40 01 40 02 40 02 40 02 40 01 40 01 40 01 40 01 40 01 40 02 40 02 40 01 40 02 40 02 40 01 40 02 40 02 40 02 40 01 40 01 40 02 40 01 40 01 40 01 40 02 40 02 40 02 40 02 40 01 40 01 40 01 40 01 40 03 40 02 40 01 40 01 40 01 40 02 40 02 40 02 40 02 40 01 40 01 40 02 40 01 40 02 40 02 40 01 40 03 40 02 40 01 40 01 40 01 40 03 40 02 40 01 40 01 40 01 40 02 40 01 40 01 40 01 40 01 40 01 05 49 
2025-10-15 22:31:21.541 | TX | 0E 03 A2 40 00 40 66 A9 
2025-10-15 22:31:21.541 | RX | 0E 03 80 40 02 40 02 40 01 40 01 40 01 40 01 40 01 40 02 40 01 40 01 40 02 40 02 40 01 40 01 40 02 40 02 40 01 40 02 40 02 40 02 40 01 40 02 40 02 40 01 40 01 40 02 40 02 40 01 40 02 40 01 40 01 40 02 40 01 40 01 40 02 40 02 40 02 40 01 40 01 40 01 40 01 40 01 40 02 40 02 40 01 40 02 40 01 40 01 40 02 40 02 40 01 40 01 40 02 40 02 40 01 40 01 40 01 40 01 40 02 40 01 40 02 40 02 40 01 40 02 97 C1 
2025-10-15 22:31:21.572 | TX | 0E 03 A2 80 00 40 66 95 
2025-10-15 22:31:21.572 | RX | 0E 03 80 40 01 40 02 40 00 40 01 40 01 40 01 40 02 40 01 40 01 40 01 40 01 40 02 40 01 40 01 40 02 40 02 40 01 40 02 40 02 40 01 40 01 40 01 40 02 40 02 40 02 40 01 40 03 40 01 40 02 40 01 40 02 40 02 40 01 40 02 40 02 40 01 40 01 40 02 40 02 40 02 40 02 40 02 40 02 40 01 40 01 40 01 40 01 40 01 40 02 40 01 40 02 40 01 40 02 40 02 40 02 40 02 40 01 40 01 40 03 40 02 40 01 40 02 40 02 40 02 1D 9B 
2025-10-15 22:31:21.604 | TX | 0E 03 A2 C0 00 40 67 41 
2025-10-15 22:31:21.604 | RX | 0E 03 80 40 01 40 02 40 02 40 02 40 01 40 01 40 02 40 01 40 01 40 01 40 02 40 01 40 02 40 01 40 01 40 02 40 02 40 02 40 01 40 01 40 02 40 02 40 01 40 02 40 01 40 01 40 01 40 01 40 02 40 01 40 02 40 02 40 01 40 01 40 01 40 01 40 02 40 02 40 01 40 02 40 02 40 02 40 01 40 01 40 02 40 01 40 02 40 02 40 02 40 02 40 01 40 01 40 01 40 01 40 01 40 01 40 01 40 01 40 02 40 02 40 01 40 01 40 02 40 02 61 83 
2025-10-15 22:31:21.635 | TX | 0E 03 A3 00 00 40 66 81 
2025-10-15 22:31:21.635 | RX | 0E 03 80 40 02 40 01 40 01 40 01 40 02 40 02 40 01 40 02 40 01 40 02 40 01 40 02 40 01 40 01 40 02 40 01 40 01 40 01 40 02 40 02 40 01 40 02 40 02 40 01 40 01 40 02 40 02 40 01 40 01 40 02 40 01 40 01 40 02 40 02 40 01 40 02 40 01 40 02 40 02 40 01 40 01 40 02 40 01 40 02 40 02 40 01 40 02 40 01 40 02 40 03 40 01 40 02 40 02 40 02 40 01 40 01 40 02 40 01 40 01 40 01 40 01 40 02 40 01 40 02 E7 F1 
2025-10-15 22:31:21.666 | TX | 0E 03 A3 40 00 40 67 55 
2025-10-15 22:31:21.666 | RX | 0E 03 80 40 01 40 01 40 02 40 02 40 02 40 01 40 01 40 02 40 02 40 01 40 02 40 02 40 02 40 03 40 01 40 01 40 01 40 02 40 02 40 01 40 02 40 01 40 01 40 03 40 02 40 02 40 02 40 02 40 01 40 01 40 02 40 01 40 01 40 02 40 02 40 02 40 02 40 02 40 01 40 02 40 03 40 01 40 02 40 01 40 01 40 02 40 02 40 01 40 02 40 01 40 03 40 02 40 01 40 02 40 02 40 02 40 02 40 01 40 01 40 02 40 01 40 02 40 02 40 01 EF 31 
2025-10-15 22:31:21.697 | TX | 0E 03 A3 80 00 40 67 69 
2025-10-15 22:31:21.697 | RX | 0E 03 80 40 02 40 01 40 01 40 01 40 01 40 02 40 01 40 01 40 01 40 01 40 01 40 01 40 02 40 02 40 01 40 02 40 02 40 02 40 03 40 02 40 01 40 02 40 02 40 02 40 02 40 02 40 01 40 02 40 01 40 02 40 01 40 02 40 02 40 01 40 01 40 01 40 01 40 02 40 01 40 02 40 02 40 01 40 01 40 01 40 02 40 01 40 01 40 01 40 02 40 01 40 01 40 02 40 02 40 01 40 00 40 01 40 01 40 02 40 01 40 01 40 00 40 01 40 02 40 02 63 75 
2025-10-15 22:31:21.728 | TX | 0E 03 A3 C0 00 40 66 BD 
2025-10-15 22:31:21.728 | RX | 0E 03 80 40 01 40 01 40 02 40 02 40 01 40 01 40 01 40 02 40 01 40 01 40 02 40 02 40 01 40 01 40 01 40 02 40 02 40 02 40 02 40 01 40 02 40 01 40 01 40 02 40 03 40 02 40 02 40 02 40 01 40 02 40 02 40 00 40 01 40 01 40 02 40 02 40 02 40 02 40 01 40 02 40 03 40 02 40 02 40 01 40 02 40 01 40 02 40 02 40 01 40 01 40 01 40 02 40 03 40 02 40 02 40 02 40 01 40 02 40 01 40 02 40 02 40 01 40 02 40 00 55 E6 
2025-10-15 22:31:21.743 | TX | 0E 10 00 00 00 01 02 00 09 27 A6 
2025-10-15 22:31:21.743 | RX | 0E 10 00 00 00 01 01 36 
2025-10-15 22:31:21.774 | TX | 0E 03 A0 00 00 40 66 C5 
2025-10-15 22:31:21.774 | RX | 0E 03 80 00 1D 00 21 00 10 00 19 00 26 00 20 40 19 00 08 00 14 00 1E 00 1F 00 0D 00 13 00 17 00 15 00 27 00 1C 80 1C 40 11 00 28 00 1F 00 12 00 1F 00 1E 00 10 00 0E 00 13 00 1B 00 1F 40 20 00 10 00 14 00 1F 00 1F 00 1D 00 22 00 16 00 0C 00 19 00 0C 00 17 00 13 00 12 00 21 00 17 00 19 00 19 00 26 00 10 00 16 00 14 00 1C 00 14 00 0D 00 11 00 0B 00 14 00 16 80 12 00 16 00 1A 00 07 00 15 00 17 E2 91 
2025-10-15 22:31:21.805 | TX | 0E 03 A0 40 00 40 67 11 
2025-10-15 22:31:21.806 | RX | 0E 03 80 00 25 00 15 00 16 00 0A 00 1B 00 0E 00 18 00 13 00 1E 00 17 00 12 00 16 00 18 00 19 00 08 00 0E 00 06 00 0C 40 19 C0 15 00 15 00 20 00 1F 00 16 00 1E 00 1C 00 21 00 18 00 18 00 19 00 12 00 16 00 0F 00 1D 00 12 40 0C 00 19 00 1B 40 2B 00 1D 00 1F 00 21 00 1B 00 22 00 17 00 1E 00 1D 00 22 00 17 00 0C 00 21 00 1B 00 20 00 1D 00 1F 00 09 00 21 00 19 00 15 00 0F 00 0F 00 12 00 1B 00 0A 56 5B 
2025-10-15 22:31:21.836 | TX | 0E 03 A0 80 00 40 67 2D 
2025-10-15 22:31:21.837 | RX | 0E 03 80 00 16 00 12 00 15 00 20 40 14 00 0E 00 14 00 1B 00 1D 40 22 40 29 00 17 00 21 00 29 00 21 00 1E 00 10 00 17 00 11 00 18 00 18 00 0F 00 14 00 21 00 10 00 1F 00 1A 00 11 00 0F 00 19 00 1B 00 1D 00 0F 00 0F 00 12 00 1E 40 1D 40 0E 00 0F 00 1E 00 23 00 14 00 11 00 18 40 18 00 22 00 20 00 15 00 1E 00 1C 00 0D 00 0E 00 08 00 20 40 19 40 1A 00 19 00 1D 00 19 00 2A 00 17 00 21 C0 1E 00 07 AC 56 
2025-10-15 22:31:21.867 | TX | 0E 03 A0 C0 00 40 66 F9 
2025-10-15 22:31:21.868 | RX | 0E 03 80 00 17 00 13 00 19 00 19 00 0C 00 1B 00 24 00 15 00 1A 00 10 00 16 00 1C 00 13 00 17 00 18 00 0F 00 15 00 17 00 12 00 27 00 17 00 0F 00 1B 00 13 00 1D 00 0F 00 1A 00 21 00 1B 00 13 00 12 00 11 00 16 00 20 C0 18 40 0D 00 14 00 1A 00 1F 00 1F 00 1E 00 1D 40 13 00 1A 00 1E 00 17 00 1E 00 17 00 01 00 1B 00 15 00 17 00 1D 00 16 00 0B 00 0B 00 17 00 16 00 1D 00 15 00 12 00 0A 00 12 00 0F 80 9D 
2025-10-15 22:31:21.898 | TX | 0E 03 A1 00 00 40 67 39 
2025-10-15 22:31:21.898 | RX | 0E 03 80 00 20 00 17 00 0F 00 19 00 19 00 1B 00 1E 00 15 00 07 00 12 00 21 00 19 00 17 00 1B 00 0E 00 17 00 22 00 19 00 1F 00 0B 00 1B 00 19 00 1B 00 1A 00 14 00 13 00 1C 00 22 00 1A 40 0F 00 14 00 22 00 18 00 1D 00 1D 00 1F 00 14 00 13 00 1F 00 26 00 22 00 1E 00 0D 00 0F 00 16 00 23 00 23 00 26 00 09 00 08 00 13 00 1A 00 1B 00 11 00 13 00 1B 00 18 00 23 00 1D 00 23 00 0F 00 10 00 1D 00 1C DA 95 
2025-10-15 22:31:21.929 | TX | 0E 03 A1 40 00 40 66 ED 
2025-10-15 22:31:21.930 | RX | 0E 03 80 00 19 00 1A 00 1B 00 1C 00 1B 00 1A 00 17 00 15 00 13 00 11 00 11 00 11 00 11 00 13 00 14 00 16 00 18 00 1A 00 1B 00 1D 00 1E 00 1E 00 1E 00 1D 00 1C 00 1B 00 1A 00 18 00 18 00 17 00 17 00 17 00 17 00 17 00 18 00 19 00 1A 00 1B 00 1B 00 1B 00 19 00 16 00 13 00 10 00 0D 00 0B 00 0A 00 0B 00 0C 00 0F 00 12 00 15 80 18 80 1A C0 1C C0 1D C0 1D C0 1D 80 1B 80 18 80 16 80 13 80 11 00 0F 5F 5F 
2025-10-15 22:31:21.960 | TX | 0E 03 A1 80 00 40 66 D1 
2025-10-15 22:31:21.961 | RX | 0E 03 80 00 0E 00 0E 00 0E 00 0F 00 10 00 12 00 14 00 15 00 15 00 15 00 14 00 13 00 13 00 14 00 15 00 18 00 1A 00 1C 00 1D 00 1E 00 1F 00 1F 00 1F 00 1E 00 1D 00 1C 00 1B 00 1A 00 1A 00 1A 00 1A 00 1B 00 1D 00 1F 00 21 00 23 00 25 00 26 00 27 00 27 00 26 00 25 00 23 00 21 00 1E 00 1C 00 19 00 18 00 17 00 17 00 17 00 17 00 18 00 18 00 18 00 19 00 1A 00 1A 00 1B 00 1C 00 1C 00 1B 00 19 00 17 67 74 
2025-10-15 22:31:21.992 | TX | 0E 03 A1 C0 00 40 67 05 
2025-10-15 22:31:21.992 | RX | 0E 03 80 00 14 00 12 00 0F 00 0D 00 0B 00 0A 00 0A 00 0B 00 0D 00 10 00 13 80 15 80 17 80 19 80 1A 80 1A 80 1B 80 1C 80 1D C0 1D C0 1D C0 1D C0 1B C0 19 C0 17 C0 16 C0 15 80 14 80 14 00 13 00 12 00 12 00 12 00 13 00 13 00 14 00 15 00 16 00 17 00 18 00 18 00 19 00 19 00 19 00 18 00 18 00 18 00 17 00 17 00 17 00 17 00 16 00 15 00 14 00 12 00 11 00 10 00 10 00 10 00 11 00 13 00 14 00 16 00 17 C0 80 
2025-10-15 22:31:22.024 | TX | 0E 03 A2 00 00 40 67 7D 
2025-10-15 22:31:22.024 | RX | 0E 03 80 40 02 40 02 40 01 40 01 40 01 40 01 40 01 40 01 40 01 40 01 40 01 40 01 40 01 40 01 40 01 40 01 40 01 40 01 40 01 40 01 40 01 40 01 40 01 40 01 40 01 40 01 40 01 40 01 40 01 40 01 40 01 40 01 40 01 40 01 40 01 40 01 40 01 40 01 40 01 40 01 40 01 40 01 40 01 40 01 40 01 40 01 40 01 40 01 40 01 40 01 40 01 40 01 40 01 40 01 40 01 40 01 40 01 40 00 40 01 40 01 40 01 40 01 40 02 40 02 B1 0B 
2025-10-15 22:31:22.054 | TX | 0E 03 A2 40 00 40 66 A9 
2025-10-15 22:31:22.054 | RX | 0E 03 80 40 02 40 02 40 02 40 01 40 01 40 01 40 01 40 01 40 01 40 01 40 01 40 01 40 02 40 02 40 02 40 02 40 02 40 02 40 02 40 01 40 01 40 01 40 01 40 01 40 01 40 01 40 01 40 01 40 01 40 01 40 01 40 01 40 01 40 01 40 01 40 01 40 01 40 01 40 01 40 01 40 01 40 01 40 01 40 01 40 01 40 01 40 01 40 01 40 01 40 01 40 01 40 01 40 02 40 02 40 02 40 02 40 02 40 02 40 01 40 02 40 02 40 02 40 02 40 02 B9 DA 
2025-10-15 22:31:22.086 | TX | 0E 03 A2 80 00 40 66 95 
2025-10-15 22:31:22.086 | RX | 0E 03 80 40 02 40 02 40 02 40 02 40 02 40 02 40 02 40 02 40 01 40 01 40 02 40 02 40 02 40 02 40 02 40 01 40 01 40 01 40 01 40 01 40 01 40 01 40 01 40 01 40 01 40 01 40 01 40 01 40 00 40 00 40 00 40 00 40 00 40 00 40 01 40 01 40 01 40 01 40 01 40 01 40 01 40 01 40 01 40 01 40 01 40 01 40 00 40 01 40 01 40 01 40 01 40 02 40 02 40 02 40 02 40 02 40 02 40 02 40 01 40 01 40 01 40 01 40 01 40 01 2E 25 
2025-10-15 22:31:22.117 | TX | 0E 03 A2 C0 00 40 67 41 
2025-10-15 22:31:22.117 | RX | 0E 03 80 40 01 40 01 40 01 40 01 40 01 40 01 40 01 40 01 40 01 40 01 40 01 40 01 40 01 40 01 40 01 40 01 40 01 40 01 40 01 40 01 40 01 40 02 40 02 40 02 40 01 40 01 40 01 40 01 40 01 40 01 40 02 40 02 40 02 40 02 40 02 40 02 40 02 40 02 40 02 40 02 40 02 40 02 40 02 40 02 40 02 40 02 40 02 40 01 40 01 40 01 40 01 40 01 40 01 40 01 40 01 40 01 40 01 40 01 40 02 40 02 40 02 40 02 40 02 40 02 97 5B 
2025-10-15 22:31:22.148 | TX | 0E 03 A3 00 00 40 66 81 
2025-10-15 22:31:22.148 | RX | 0E 03 80 40 02 40 02 40 01 40 01 40 01 40 01 40 01 40 01 40 01 40 01 40 01 40 01 40 01 40 01 40 01 40 01 40 01 40 01 40 01 40 01 40 01 40 01 40 01 40 01 40 01 40 01 40 01 40 01 40 01 40 01 40 01 40 01 40 01 40 01 40 01 40 02 40 02 40 02 40 02 40 02 40 02 40 02 40 02 40 02 40 02 40 02 40 02 40 02 40 01 40 01 40 01 40 01 40 01 40 01 40 01 40 01 40 01 40 01 40 01 40 01 40 01 40 01 40 01 40 01 B3 89 
2025-10-15 22:31:22.179 | TX | 0E 03 A3 40 00 40 67 55 
2025-10-15 22:31:22.179 | RX | 0E 03 80 40 01 40 01 40 01 40 01 40 01 40 01 40 01 40 01 40 01 40 01 40 01 40 01 40 01 40 01 40 02 40 02 40 02 40 02 40 02 40 02 40 02 40 02 40 02 40 02 40 02 40 01 40 01 40 01 40 01 40 01 40 01 40 01 40 02 40 02 40 02 40 01 40 01 40 01 40 01 40 01 40 01 40 01 40 02 40 02 40 02 40 02 40 03 40 03 40 03 40 03 40 03 40 03 40 02 40 02 40 02 40 02 40 01 40 01 40 01 40 01 40 01 40 01 40 01 40 01 EA 2F 
2025-10-15 22:31:22.210 | TX | 0E 03 A3 80 00 40 67 69 
2025-10-15 22:31:22.210 | RX | 0E 03 80 40 02 40 02 40 02 40 02 40 02 40 02 40 02 40 02 40 02 40 01 40 01 40 01 40 01 40 01 40 01 40 01 40 01 40 01 40 01 40 01 40 01 40 01 40 01 40 01 40 01 40 02 40 02 40 02 40 02 40 01 40 01 40 01 40 02 40 02 40 02 40 02 40 02 40 02 40 02 40 02 40 02 40 02 40 02 40 01 40 01 40 01 40 01 40 01 40 01 40 01 40 01 40 01 40 01 40 01 40 01 40 01 40 01 40 01 40 02 40 02 40 02 40 01 40 01 40 01 84 C0 
2025-10-15 22:31:22.241 | TX | 0E 03 A3 C0 00 40 66 BD 
2025-10-15 22:31:22.242 | RX | 0E 03 80 40 01 40 02 40 02 40 02 40 02 40 02 40 02 40 02 40 02 40 02 40 02 40 02 40 02 40 02 40 02 40 02 40 02 40 02 40 02 40 02 40 02 40 01 40 01 40 01 40 01 40 01 40 01 40 01 40 01 40 01 40 02 40 02 40 02 40 02 40 02 40 02 40 02 40 02 40 02 40 02 40 02 40 02 40 02 40 02 40 02 40 02 40 02 40 02 40 02 40 02 40 02 40 02 40 02 40 02 40 02 40 02 40 01 40 01 40 01 40 01 40 00 40 00 40 01 40 01 45 A2 
2025-10-15 22:31:22.257 | TX | 0E 10 00 00 00 01 02 00 09 27 A6 
2025-10-15 22:31:22.257 | RX | 0E 10 00 00 00 01 01 36 
2025-10-15 22:31:22.289 | TX | 0E 03 A0 00 00 40 66 C5 
2025-10-15 22:31:22.289 | RX | 0E 03 80 00 14 00 1B 00 13 00 1B 00 29 00 0D 00 18 00 18 00 16 00 1A C0 11 C0 13 00 14 00 19 00 23 00 16 00 1D 00 1F 00 22 00 17 00 11 00 1B 00 1C 00 10 00 16 00 14 00 10 00 1B 00 1C C0 1E 00 0E 00 15 00 1A 00 23 00 20 00 1F 00 0F 00 16 00 1A 00 19 00 1D 00 1B 00 1B 00 23 00 1E 00 21 00 13 00 21 00 12 00 1A 00 20 00 15 00 17 00 1C 00 1E 00 1B 00 1C 00 15 00 20 00 17 00 1A 00 15 00 17 00 1C A7 46 
2025-10-15 22:31:22.319 | TX | 0E 03 A0 40 00 40 67 11 
2025-10-15 22:31:22.320 | RX | 0E 03 80 00 21 00 10 00 1F 00 24 00 0D 00 15 00 17 00 1E 40 23 40 24 00 08 00 24 00 1F 00 1D 00 12 00 0D 00 12 00 13 00 1B 00 22 00 16 00 0C 00 18 00 1B 00 1A 00 24 00 1D 00 0B 00 1A 00 11 00 1B 00 17 00 10 00 18 00 16 00 12 80 15 40 0D 00 2B 00 15 00 22 00 15 00 25 00 1B 00 18 00 19 00 0D 00 1E 00 16 C0 13 00 0F 00 1E 00 1B 00 15 00 22 00 13 00 15 00 15 00 1C 00 27 00 16 00 02 00 0A 00 15 B2 D1 
2025-10-15 22:31:22.351 | TX | 0E 03 A0 80 00 40 67 2D 
2025-10-15 22:31:22.351 | RX | 0E 03 80 00 1C 00 15 00 1B 00 18 00 16 00 18 00 1B 00 20 00 19 00 11 00 19 00 1A 00 26 00 14 00 0E 00 12 00 1C 00 16 00 19 00 17 00 08 00 16 40 13 00 1E 00 12 00 1C 00 1D 00 19 00 1E 00 22 00 14 00 1F 00 17 00 0A 00 25 00 1A C0 06 00 15 40 18 00 2C 40 1F C0 14 00 17 00 1A 00 25 00 17 00 1B 00 1A 40 1D 00 1D 00 0C 00 11 00 10 00 27 00 24 00 1A 00 1D 00 22 00 27 00 19 00 10 00 06 00 0F 00 1C E5 A3 
2025-10-15 22:31:22.381 | TX | 0E 03 A0 C0 00 40 66 F9 
2025-10-15 22:31:22.381 | RX | 0E 03 80 00 1F 40 23 00 20 00 16 00 29 00 18 00 0E 40 12 00 1B 00 18 E0 1E 00 14 00 0F 00 2A 00 2B 00 1B 00 22 00 14 00 12 00 14 00 10 00 16 00 14 00 11 00 12 00 0D 00 1D 00 12 00 1B 00 1E 00 17 00 1E 00 17 00 18 00 09 00 10 00 0B 00 15 00 19 00 18 00 1A 00 23 00 17 00 13 00 20 00 1E 00 1A 00 16 00 10 00 23 00 20 40 18 E0 19 00 14 00 1E 00 22 00 1F 00 1B 00 16 00 1C 00 1C 00 1C 00 13 00 1A 92 4A 
2025-10-15 22:31:22.412 | TX | 0E 03 A1 00 00 40 67 39 
2025-10-15 22:31:22.412 | RX | 0E 03 80 E0 0A 00 11 00 16 C0 2B 00 1A 00 1A 00 1B 00 1D 00 16 00 1D 00 14 00 0D 00 17 00 1F 00 1A 00 13 40 11 00 1E 00 1A 00 1B 00 16 00 21 00 1E 00 1B 00 1B 40 15 00 07 40 16 00 1B 00 10 00 11 00 0D 00 17 00 13 00 15 00 1A 00 26 00 18 00 10 00 11 00 19 00 19 00 1A 40 25 00 17 00 1E 00 1A 00 14 00 12 00 19 00 0C 00 23 00 22 00 19 00 17 00 19 00 12 00 15 00 1B 00 16 00 1B 00 1B 00 1F 40 1B B1 12 
2025-10-15 22:31:22.443 | TX | 0E 03 A1 40 00 40 66 ED 
2025-10-15 22:31:22.443 | RX | 0E 03 80 00 0A 00 1F 40 17 00 1A 00 13 00 11 00 21 00 16 00 21 00 1D 00 21 40 1C 00 16 00 18 00 17 00 1A 40 0D 00 10 00 18 00 1F 80 20 40 19 00 1E 00 22 00 1A 00 1D 00 22 00 21 00 16 00 17 00 12 00 19 00 1A 00 0F 00 15 00 0F 00 29 00 20 00 23 00 22 00 09 00 07 00 17 00 09 00 18 00 14 00 14 00 0D 00 22 00 17 00 18 00 17 00 17 00 14 00 16 00 1A 00 1B 00 16 00 14 00 19 00 16 00 15 00 11 00 0F 42 83 
2025-10-15 22:31:22.474 | TX | 0E 03 A1 80 00 40 66 D1 
2025-10-15 22:31:22.474 | RX | 0E 03 80 00 12 00 19 00 18 00 19 00 15 00 11 00 12 00 18 00 0B 00 17 00 20 00 20 00 19 00 20 00 18 00 20 40 19 00 1B 00 0E 00 0E 00 12 00 18 00 1D 40 0B 40 0C 00 1C 00 27 00 23 00 27 00 15 00 12 00 26 00 1E 00 1C 00 21 40 19 00 0D 00 11 00 17 00 1E 00 1C 00 1F 00 12 00 19 00 13 00 18 00 21 00 1A 00 0B 00 10 00 18 00 17 00 1E 00 16 00 01 00 10 00 0D 00 1B 00 25 00 19 00 14 00 23 00 1D 00 15 AD E8 
2025-10-15 22:31:22.505 | TX | 0E 03 A1 C0 00 40 67 05 
2025-10-15 22:31:22.505 | RX | 0E 03 80 00 18 00 1E 00 0B 00 13 00 1C 00 18 00 1D 00 17 00 13 00 23 00 14 00 18 00 17 00 13 00 19 00 23 00 1A 00 13 00 17 00 0C 00 1B 00 13 00 0E 00 10 00 1F 00 1A 00 1A 00 13 00 1A 00 0E 00 1B 00 1C 00 1B 00 1B 00 17 00 19 00 16 00 0E 00 16 00 1C 00 16 00 08 00 23 00 1C 00 1F 00 1F 00 13 00 1A 00 0D 00 24 40 13 00 10 00 24 00 19 00 27 00 0C 00 0F 00 15 00 12 00 22 00 25 00 16 00 24 00 1A FC 1D 
2025-10-15 22:31:22.536 | TX | 0E 03 A2 00 00 40 67 7D 
2025-10-15 22:31:22.536 | RX | 0E 03 80 40 03 40 01 40 01 40 01 40 03 40 01 40 01 40 01 40 02 40 02 40 01 40 01 40 02 40 02 40 01 40 01 40 03 40 02 40 02 40 02 40 01 40 02 40 01 40 02 40 01 40 01 40 02 40 02 40 02 40 02 40 03 40 02 40 01 40 02 40 02 40 03 40 01 40 02 40 02 40 01 40 02 40 01 40 03 40 03 40 02 40 01 40 01 40 02 40 01 40 02 40 01 40 01 40 01 40 01 40 02 40 02 40 01 40 02 40 02 40 01 40 01 40 01 40 02 40 01 28 2F 
2025-10-15 22:31:22.567 | TX | 0E 03 A2 40 00 40 66 A9 
2025-10-15 22:31:22.567 | RX | 0E 03 80 40 02 40 02 40 02 40 02 40 01 40 02 40 00 40 02 40 02 40 01 40 01 40 01 40 02 40 02 40 01 40 02 40 02 40 01 40 02 40 01 40 01 40 01 40 02 40 01 40 03 40 02 40 02 40 02 40 01 40 01 40 02 40 01 40 01 40 01 40 01 40 02 40 00 40 01 40 01 40 01 40 02 40 01 40 02 40 01 40 01 40 01 40 02 40 02 40 02 40 01 40 01 40 01 40 01 40 02 40 02 40 01 40 01 40 02 40 02 40 01 40 01 40 02 40 01 40 02 02 59 
2025-10-15 22:31:22.598 | TX | 0E 03 A2 80 00 40 66 95 
2025-10-15 22:31:22.598 | RX | 0E 03 80 40 01 40 01 40 01 40 01 40 02 40 00 40 01 40 01 40 02 40 02 40 02 40 01 40 01 40 01 40 01 40 02 40 02 40 01 40 02 40 01 40 02 40 02 40 00 40 02 40 01 40 01 40 01 40 01 40 01 40 01 40 01 40 01 40 02 40 01 40 01 40 02 40 02 40 01 40 02 40 01 40 01 40 02 40 02 40 02 40 01 40 01 40 01 40 01 40 01 40 01 40 02 40 02 40 01 40 02 40 01 40 02 40 00 40 01 40 02 40 01 40 02 40 02 40 01 40 02 02 22 
2025-10-15 22:31:22.629 | TX | 0E 03 A2 C0 00 40 67 41 
2025-10-15 22:31:22.629 | RX | 0E 03 80 40 02 40 02 40 01 40 01 40 01 40 01 40 02 40 02 40 02 40 03 40 01 40 02 40 01 40 00 40 01 40 02 40 01 40 01 40 02 40 02 40 01 40 01 40 01 40 01 40 01 40 01 40 01 40 02 40 01 40 02 40 02 40 01 40 01 40 02 40 00 40 01 40 03 40 01 40 02 40 02 40 02 40 02 40 02 40 02 40 02 40 02 40 02 40 01 40 02 40 01 40 01 40 01 40 02 40 02 40 02 40 02 40 02 40 01 40 02 40 01 40 01 40 03 40 02 40 01 35 CB 
2025-10-15 22:31:22.660 | TX | 0E 03 A3 00 00 40 66 81 
2025-10-15 22:31:22.661 | RX | 0E 03 80 40 01 40 01 40 02 40 01 40 01 40 03 40 02 40 01 40 03 40 02 40 01 40 01 40 02 40 01 40 01 40 01 40 01 40 02 40 03 40 01 40 03 40 02 40 01 40 01 40 02 40 00 40 02 40 02 40 02 40 02 40 01 40 01 40 02 40 02 40 01 40 01 40 02 40 01 40 02 40 02 40 00 40 02 40 02 40 01 40 02 40 01 40 01 40 01 40 02 40 02 40 02 40 01 40 01 40 00 40 02 40 01 40 01 40 01 40 02 40 01 40 01 40 01 40 01 40 02 B3 09 
2025-10-15 22:31:22.691 | TX | 0E 03 A3 40 00 40 67 55 
2025-10-15 22:31:22.692 | RX | 0E 03 80 40 02 40 01 40 01 40 02 40 02 40 01 40 01 40 01 40 02 40 03 40 02 40 02 40 01 40 02 40 03 40 02 40 02 40 01 40 01 40 01 40 01 40 01 40 01 40 01 40 01 40 02 40 01 40 02 40 01 40 01 40 02 40 01 40 01 40 01 40 02 40 01 40 02 40 01 40 01 40 01 40 03 40 02 40 01 40 02 40 01 40 02 40 01 40 01 40 01 40 03 40 00 40 02 40 00 40 00 40 02 40 01 40 02 40 02 40 02 40 02 40 02 40 01 40 02 40 02 29 AA 
2025-10-15 22:31:22.723 | TX | 0E 03 A3 80 00 40 67 69 
2025-10-15 22:31:22.723 | RX | 0E 03 80 40 01 40 01 40 02 40 01 40 01 40 01 40 02 40 02 40 03 40 02 40 02 40 01 40 02 40 01 40 01 40 01 40 02 40 01 40 01 40 01 40 03 40 01 40 01 40 02 40 02 40 02 40 02 40 01 40 02 40 01 40 01 40 01 40 01 40 02 40 02 40 02 40 02 40 02 40 01 40 02 40 02 40 01 40 01 40 01 40 02 40 01 40 01 40 02 40 01 40 01 40 01 40 02 40 03 40 02 40 02 40 02 40 01 40 01 40 02 40 02 40 02 40 01 40 02 40 02 29 F0 
2025-10-15 22:31:22.753 | TX | 0E 03 A3 C0 00 40 66 BD 
2025-10-15 22:31:22.753 | RX | 0E 03 80 40 02 40 02 40 01 40 02 40 01 40 02 40 02 40 02 40 02 40 02 40 02 40 02 40 01 40 01 40 01 40 02 40 02 40 01 40 02 40 01 40 02 40 01 40 02 40 02 40 01 40 03 40 01 40 01 40 01 40 02 40 01 40 01 40 02 40 02 40 02 40 01 40 03 40 02 40 01 40 01 40 01 40 02 40 01 40 01 40 01 40 02 40 02 40 01 40 01 40 01 40 01 40 01 40 01 40 02 40 02 40 01 40 02 40 02 40 01 40 01 40 01 40 02 40 01 40 02 87 3C 
2025-10-15 22:31:22.769 | TX | 0E 10 00 00 00 01 02 00 09 27 A6 
2025-10-15 22:31:22.769 | RX | 0E 10 00 00 00 01 01 36 
2025-10-15 22:31:22.800 | TX | 0E 03 A0 00 00 40 66 C5 
2025-10-15 22:31:22.800 | RX | 0E 03 80 00 21 00 20 00 13 00 12 00 1B 00 11 00 17 00 0D 00 08 00 20 00 13 00 20 00 18 00 15 00 1E 00 0E 00 10 00 10 00 15 00 17 00 1B 00 0F 00 19 00 1A 00 22 80 09 00 1A 40 1E 00 20 00 15 00 21 00 0F 00 15 00 19 00 0E 00 13 00 22 40 1D 00 13 00 11 00 18 00 1B 00 1A 00 1E 40 1C 00 19 00 21 00 17 00 19 00 0F 00 0F 00 1C 00 13 00 15 00 13 00 12 00 15 00 12 00 1B 00 1C 00 18 00 08 00 1F 00 20 00 0D 
2025-10-15 22:31:22.831 | TX | 0E 03 A0 40 00 40 67 11 
2025-10-15 22:31:22.831 | RX | 0E 03 80 00 20 00 19 00 18 00 17 00 1D 00 25 00 1B 00 07 00 0D 00 21 00 13 00 1C 00 17 00 19 00 14 00 18 00 1F 00 1E 00 16 00 18 00 21 00 20 00 18 00 16 00 15 00 15 00 1A 00 19 00 11 00 0D 00 1E 00 16 00 1F 00 12 00 17 00 1D 40 15 00 0F 00 09 00 11 00 1D 00 0B C0 0D 00 1B 00 1E 00 20 60 1F 00 12 00 1F 00 26 00 13 00 0C 00 1B 00 17 00 17 00 0D 00 0E 00 17 00 20 00 1D 00 15 00 1E 00 1D 00 20 72 B6 
2025-10-15 22:31:22.862 | TX | 0E 03 A0 80 00 40 67 2D 
2025-10-15 22:31:22.862 | RX | 0E 03 80 00 14 00 14 00 0F 00 15 00 1A 00 1E 00 19 00 15 00 14 00 03 00 1A 00 14 00 10 00 21 C0 20 00 1D 00 18 40 1D 00 11 00 13 00 26 00 1C 00 11 00 10 00 15 00 14 00 19 00 16 00 10 00 1D 00 13 00 16 00 1F 00 21 00 1F 00 23 00 13 00 19 40 0C 00 19 40 25 E0 1C 40 0E 00 1C 00 19 00 19 00 23 00 22 00 1E 00 2B 00 1B 00 1A 00 12 40 14 00 10 00 1F 40 1F 40 13 00 0B 00 1F 00 24 00 19 00 1C 00 16 4F 5B 
2025-10-15 22:31:22.893 | TX | 0E 03 A0 C0 00 40 66 F9 
2025-10-15 22:31:22.893 | RX | 0E 03 80 00 28 00 24 00 11 00 15 00 1E 00 0E 00 1B 00 21 00 05 00 1E 00 19 00 20 00 20 00 06 00 19 00 15 00 1B 00 16 00 13 00 14 00 25 00 1B 00 14 00 0B 40 0F 00 18 00 1F 00 1F 00 17 00 16 00 1B 00 1D 00 18 00 13 00 1A 00 19 00 20 00 14 00 12 00 21 00 1A 40 28 00 20 00 11 00 1E 00 1E 00 1E 00 22 00 0A 00 15 00 0E 00 11 00 27 00 17 00 18 00 18 00 14 00 1E 00 05 00 20 00 18 00 19 00 1E 00 11 BA 01 
2025-10-15 22:31:22.924 | TX | 0E 03 A1 00 00 40 67 39 
2025-10-15 22:31:22.924 | RX | 0E 03 80 00 17 00 10 00 0F 00 20 00 13 00 17 00 12 00 0F 00 24 00 28 00 20 00 0C 00 0B 00 20 00 1E 00 17 40 09 40 12 00 20 00 1E 00 1F 00 20 00 18 00 1B 00 19 00 0F 00 18 40 16 00 1B 00 14 00 1B 00 0E 00 1B 00 1D C0 1F 00 1A 00 21 00 19 00 1A 00 16 00 20 00 09 00 16 00 1E 00 1B 00 15 00 1F 00 01 00 18 00 14 00 18 00 25 00 1C 00 13 00 18 00 16 00 15 00 16 00 10 40 1B 00 11 00 0F 00 17 00 12 59 92 
2025-10-15 22:31:22.955 | TX | 0E 03 A1 40 00 40 66 ED 
2025-10-15 22:31:22.956 | RX | 0E 03 80 00 13 00 1D 00 15 00 1E 00 12 00 16 00 0E 00 17 00 10 00 09 00 1A 00 1C 00 1E 00 1A 00 17 00 0F 00 1E 00 23 00 1F 00 13 00 15 00 19 00 16 00 1F 00 10 00 0E 00 1C 00 1C 00 22 00 19 00 14 00 15 00 10 00 20 00 29 00 17 00 11 00 22 00 13 00 12 00 0D 00 17 00 23 00 20 00 1F 00 14 00 17 00 14 00 1E 00 23 00 11 00 13 00 14 00 15 00 15 00 15 00 0D 00 13 00 22 00 0E 40 15 00 21 00 14 00 13 06 84 
2025-10-15 22:31:22.986 | TX | 0E 03 A1 80 00 40 66 D1 
2025-10-15 22:31:22.986 | RX | 0E 03 80 00 06 00 1F 00 14 00 10 00 17 00 12 00 0D 00 1C 00 1C 00 25 00 12 00 16 00 10 00 18 00 1E 00 15 00 25 00 1B 00 09 00 1C 00 16 00 10 00 15 00 0C 00 17 00 1E 00 12 00 1B 00 0B 00 1B 00 1C 00 1A 00 18 00 19 80 0C 00 15 00 11 00 20 00 12 40 19 00 0B 00 17 00 24 00 19 00 27 00 1E 00 17 40 19 00 17 00 14 00 13 00 15 00 17 00 14 00 19 00 19 00 19 40 1B 00 14 00 25 00 22 00 23 00 09 00 11 ED 1F 
2025-10-15 22:31:23.017 | TX | 0E 03 A1 C0 00 40 67 05 
2025-10-15 22:31:23.017 | RX | 0E 03 80 00 0F 00 18 00 1E 00 1D 40 12 00 19 00 18 00 1D 40 17 40 12 00 14 00 0E 00 1A 00 17 00 12 00 1E 00 16 00 21 00 18 00 1E 00 1B 00 1A 40 12 00 16 00 20 00 1E 00 14 00 2A 00 19 00 13 00 12 00 24 00 1A 00 12 00 14 00 17 00 0E 00 10 00 10 00 14 00 18 00 13 00 29 00 25 00 1B 00 16 00 0E 00 11 00 1B 00 25 00 16 00 0F 00 20 00 1D 00 1B 00 19 00 12 00 19 00 1D 00 0A 00 1C 00 18 00 0A 00 13 CB 26 
2025-10-15 22:31:23.048 | TX | 0E 03 A2 00 00 40 67 7D 
2025-10-15 22:31:23.048 | RX | 0E 03 80 40 02 40 01 40 02 40 02 40 01 40 01 40 02 40 01 40 02 40 02 40 03 40 04 40 02 40 02 40 02 40 02 40 01 40 01 40 02 40 02 40 02 40 02 40 02 40 01 40 02 40 02 40 02 40 02 40 01 40 01 40 01 40 02 40 02 40 03 40 02 40 02 40 01 40 01 40 01 40 02 40 01 40 02 40 02 40 01 40 01 40 02 40 01 40 00 40 02 40 02 40 01 40 02 40 01 40 02 40 01 40 03 40 02 40 02 40 02 40 01 40 01 40 01 40 01 40 01 3B 1C 
2025-10-15 22:31:23.079 | TX | 0E 03 A2 40 00 40 66 A9 
2025-10-15 22:31:23.079 | RX | 0E 03 80 40 01 40 02 40 01 40 01 40 01 40 01 40 02 40 02 40 02 40 02 40 02 40 02 40 02 40 02 40 02 40 01 40 02 40 01 40 01 40 01 40 01 40 01 40 02 40 02 40 03 40 02 40 01 40 02 40 02 40 01 40 02 40 01 40 01 40 01 40 01 40 00 40 02 40 01 40 02 40 02 40 02 40 01 40 02 40 01 40 01 40 01 40 01 40 01 40 01 40 02 40 01 40 01 40 01 40 01 40 01 40 02 40 02 40 01 40 02 40 02 40 03 40 02 40 00 40 02 3C 3F 
2025-10-15 22:31:23.110 | TX | 0E 03 A2 80 00 40 66 95 
2025-10-15 22:31:23.110 | RX | 0E 03 80 40 02 40 01 40 02 40 01 40 02 40 01 40 02 40 03 40 01 40 01 40 01 40 01 40 01 40 01 40 02 40 01 40 02 40 01 40 01 40 01 40 02 40 01 40 01 40 01 40 01 40 01 40 02 40 02 40 01 40 02 40 01 40 01 40 01 40 01 40 02 40 02 40 01 40 01 40 01 40 02 40 02 40 02 40 01 40 02 40 01 40 01 40 01 40 01 40 01 40 02 40 01 40 01 40 02 40 01 40 01 40 02 40 02 40 02 40 02 40 01 40 01 40 02 40 02 40 02 3D 6F 
2025-10-15 22:31:23.141 | TX | 0E 03 A2 C0 00 40 67 41 
2025-10-15 22:31:23.141 | RX | 0E 03 80 40 02 40 02 40 01 40 01 40 01 40 02 40 01 40 01 40 01 40 01 40 02 40 01 40 01 40 02 40 01 40 02 40 01 40 01 40 01 40 02 40 02 40 01 40 01 40 01 40 01 40 01 40 01 40 02 40 01 40 01 40 01 40 02 40 02 40 00 40 01 40 01 40 01 40 01 40 01 40 02 40 02 40 01 40 02 40 01 40 01 40 00 40 01 40 02 40 01 40 01 40 02 40 03 40 01 40 01 40 01 40 01 40 01 40 01 40 02 40 01 40 02 40 01 40 00 40 01 35 8B 
2025-10-15 22:31:23.172 | TX | 0E 03 A3 00 00 40 66 81 
2025-10-15 22:31:23.173 | RX | 0E 03 80 40 01 40 02 40 01 40 02 40 01 40 01 40 01 40 01 40 01 40 02 40 02 40 02 40 01 40 01 40 01 40 01 40 01 40 00 40 01 40 01 40 01 40 02 40 01 40 02 40 02 40 01 40 01 40 01 40 02 40 01 40 01 40 02 40 01 40 02 40 01 40 02 40 01 40 02 40 01 40 02 40 01 40 01 40 01 40 01 40 02 40 01 40 02 40 01 40 03 40 01 40 01 40 02 40 02 40 02 40 02 40 02 40 01 40 02 40 01 40 02 40 01 40 01 40 01 40 02 4A 80 
2025-10-15 22:31:23.203 | TX | 0E 03 A3 40 00 40 67 55 
2025-10-15 22:31:23.203 | RX | 0E 03 80 40 01 40 02 40 02 40 02 40 02 40 01 40 02 40 01 40 01 40 02 40 02 40 02 40 02 40 02 40 01 40 01 40 02 40 01 40 01 40 01 40 02 40 02 40 02 40 01 40 01 40 00 40 02 40 01 40 01 40 01 40 01 40 01 40 01 40 02 40 02 40 02 40 01 40 01 40 01 40 01 40 01 40 02 40 01 40 01 40 03 40 01 40 02 40 01 40 01 40 02 40 01 40 02 40 02 40 02 40 01 40 01 40 01 40 01 40 02 40 01 40 01 40 01 40 01 40 02 E0 A7 
2025-10-15 22:31:23.234 | TX | 0E 03 A3 80 00 40 67 69 
2025-10-15 22:31:23.234 | RX | 0E 03 80 40 01 40 02 40 01 40 01 40 02 40 01 40 02 40 02 40 01 40 02 40 02 40 03 40 01 40 02 40 02 40 02 40 02 40 02 40 02 40 02 40 02 40 01 40 01 40 02 40 02 40 02 40 02 40 01 40 02 40 02 40 02 40 01 40 03 40 02 40 01 40 02 40 02 40 03 40 02 40 02 40 02 40 02 40 02 40 01 40 02 40 02 40 01 40 01 40 01 40 03 40 01 40 02 40 02 40 02 40 02 40 01 40 01 40 01 40 01 40 02 40 02 40 02 40 02 40 02 F7 7C 
2025-10-15 22:31:23.265 | TX | 0E 03 A3 C0 00 40 66 BD 
2025-10-15 22:31:23.266 | RX | 0E 03 80 40 02 40 02 40 01 40 03 40 01 40 02 40 01 40 02 40 00 40 01 40 02 40 01 40 02 40 01 40 02 40 02 40 01 40 02 40 01 40 01 40 02 40 02 40 02 40 02 40 02 40 01 40 02 40 01 40 01 40 01 40 02 40 01 40 02 40 03 40 02 40 01 40 02 40 01 40 01 40 01 40 01 40 01 40 01 40 01 40 02 40 02 40 01 40 02 40 02 40 03 40 01 40 01 40 03 40 02 40 01 40 01 40 02 40 01 40 02 40 01 40 02 40 02 40 02 40 02 90 25 
2025-10-15 22:31:23.281 | TX | 0E 10 00 00 00 01 02 00 09 27 A6 
2025-10-15 22:31:23.281 | RX | 0E 10 00 00 00 01 01 36 
2025-10-15 22:31:23.312 | TX | 0E 03 A0 00 00 40 66 C5 
2025-10-15 22:31:23.312 | RX | 0E 03 80 00 1D 00 15 00 14 00 29 00 20 00 22 00 1C 00 1C 00 24 00 1A 00 1B 00 1B 00 1F 00 17 00 16 00 1B 00 0F 00 1E 00 1C 00 20 00 29 00 0F 00 11 00 17 00 1E 00 0E 00 15 00 0D 00 26 C0 25 C0 20 00 19 00 18 00 1C 00 16 00 12 00 1A 00 16 00 1D 00 16 80 0D 00 15 00 14 00 1D 00 1D 00 1E 00 0E 00 1A 00 1E 00 11 00 11 00 14 00 14 00 17 00 19 00 14 00 0C 00 27 00 16 00 20 00 11 00 0A C0 15 00 1B 21 FC 
2025-10-15 22:31:23.343 | TX | 0E 03 A0 40 00 40 67 11 
2025-10-15 22:31:23.343 | RX | 0E 03 80 00 19 00 19 00 12 00 14 00 18 00 19 00 1B 00 0B 00 16 00 1B 00 19 00 17 00 16 00 18 00 16 00 1B 00 1D 00 15 00 1D 00 1C 00 04 00 0D 00 1B 00 2B 00 13 00 1E 00 1A 00 20 00 13 00 17 00 1C 40 1F 00 0E 00 27 00 19 00 18 00 19 00 18 00 10 00 1A 00 15 00 22 00 19 00 12 00 09 00 19 00 1C 00 07 00 1D 00 13 00 0A 00 16 00 1E 00 16 00 1A 00 1A 00 1B 00 24 00 21 00 1D 00 15 00 0E 00 11 00 18 D5 10 
2025-10-15 22:31:23.374 | TX | 0E 03 A0 80 00 40 67 2D 
2025-10-15 22:31:23.374 | RX | 0E 03 80 00 1D 00 1B 00 19 00 0B 00 15 00 1D 00 19 00 10 00 12 00 1D 00 11 00 1E 00 22 00 0A 00 16 00 22 00 1F 00 0E 00 10 00 0B 00 23 00 19 00 18 00 0E 00 0A 00 27 00 2C 00 15 00 18 40 18 00 1F 00 11 00 14 00 0D 00 1B 00 1B 40 15 00 15 00 21 00 1E 00 23 00 19 40 13 00 19 00 22 00 23 C0 19 40 18 00 15 00 21 00 19 00 21 00 19 00 21 00 1C 00 0F 00 1D 00 13 00 1C 00 09 00 18 00 22 00 1A 00 10 DC D8 
2025-10-15 22:31:23.405 | TX | 0E 03 A0 C0 00 40 66 F9 
2025-10-15 22:31:23.405 | RX | 0E 03 80 00 1A 00 0F 00 11 00 1A 00 13 40 22 00 18 00 16 00 1F 00 16 00 0F 00 1F 00 13 00 20 00 1F 00 28 00 20 00 13 00 15 00 11 00 10 00 1C 00 21 00 20 00 1D 00 14 00 17 00 20 00 12 00 14 00 18 00 2B 00 04 00 1B 00 17 00 1C 00 1C 00 11 00 17 00 17 00 11 00 18 00 1A 00 13 00 17 00 21 00 20 00 1D 00 1E 00 0D 00 1F 00 0D 00 14 40 12 00 16 00 1D 00 2A 00 22 00 18 00 1F 00 17 00 11 00 19 00 07 9C E3 
2025-10-15 22:31:23.436 | TX | 0E 03 A1 00 00 40 67 39 
2025-10-15 22:31:23.436 | RX | 0E 03 80 00 10 40 10 C0 1A 00 1D 00 21 C0 24 40 13 00 17 00 1E 00 22 00 17 00 21 00 11 00 0F 00 1F 00 18 00 1D 00 1F 40 1F 00 16 00 18 00 25 00 21 00 21 00 17 00 14 00 16 00 16 00 15 00 1A 00 1A 00 13 00 11 00 14 00 20 00 1E 00 16 00 08 00 29 00 1E 00 1D 00 0B 00 0A 00 21 00 16 00 21 00 16 80 14 00 14 00 23 00 1E 00 17 00 1B 00 17 00 21 00 1F 00 12 00 19 00 17 00 10 40 0B 00 14 00 1D 00 28 45 2A 
2025-10-15 22:31:23.467 | TX | 0E 03 A1 40 00 40 66 ED 
2025-10-15 22:31:23.467 | RX | 0E 03 80 00 17 00 13 00 1C 00 17 00 17 00 12 00 0A 00 1D 00 22 00 10 00 0B C0 15 00 11 00 1E 00 26 00 18 00 16 00 26 00 1C 00 1B 00 0C 00 09 00 0E 00 18 00 09 00 FF 00 04 00 14 00 19 00 1D 00 1F 00 15 00 1B 00 12 00 15 00 12 00 0A 00 0D 00 1B 00 0B 00 10 00 18 00 16 00 18 00 1D 00 0F 00 18 00 19 00 23 00 12 00 18 00 14 00 1C C0 14 40 1A 00 14 00 17 00 1C 00 21 00 1A 00 1A 00 21 00 19 00 1F 0A DA 
2025-10-15 22:31:23.498 | TX | 0E 03 A1 80 00 40 66 D1 
2025-10-15 22:31:23.498 | RX | 0E 03 80 40 27 40 1C 00 13 00 1B 00 1B 00 20 00 0E 00 1D 00 26 00 19 00 1F 00 1A 00 1C 00 15 00 12 00 1C 00 0F 00 1A 00 17 00 1D 00 1F 00 15 00 0B 00 12 00 15 00 1E 00 1D 00 02 00 17 00 18 00 1A 00 0E 40 0E 00 19 00 28 00 2B 40 17 00 18 00 19 00 1C 00 1C 00 20 00 19 00 1C 00 17 00 15 00 18 00 14 00 14 00 21 40 0A 00 0A 00 1B 00 23 00 1F 00 19 00 1F 00 0D 00 14 00 1D 00 21 00 20 00 12 00 10 D9 A2 
2025-10-15 22:31:23.529 | TX | 0E 03 A1 C0 00 40 67 05 
2025-10-15 22:31:23.529 | RX | 0E 03 80 00 26 00 15 00 0D 00 0B 00 1E 00 23 00 18 00 02 00 09 00 12 00 11 00 21 00 13 00 1A 00 23 00 20 00 1B 00 16 00 06 C0 17 00 23 00 11 00 20 00 16 00 15 00 14 00 15 00 24 00 1D 60 1C 00 0F 00 1B 00 20 00 1C 00 1C 00 22 00 1A 00 15 00 11 00 11 00 15 00 1E 00 11 00 0F 00 1C 00 21 00 1D 00 1C 00 13 00 10 00 1C 00 16 00 18 00 11 00 21 00 10 00 0A 00 11 00 17 00 16 40 1E 00 17 00 16 00 1B 13 47 
2025-10-15 22:31:23.560 | TX | 0E 03 A2 00 00 40 67 7D 
2025-10-15 22:31:23.560 | RX | 0E 03 80 40 02 40 01 40 01 40 02 40 01 40 01 40 01 40 01 40 02 40 01 40 02 40 01 40 01 40 02 40 02 40 01 40 01 40 02 40 02 40 01 40 01 40 01 40 02 40 01 40 01 40 02 40 02 40 02 40 02 40 03 40 03 40 01 40 01 40 00 40 01 40 01 40 01 40 01 40 01 40 01 40 01 40 01 40 01 40 02 40 01 40 01 40 01 40 02 40 02 40 01 40 02 40 00 40 01 40 02 40 02 40 01 40 02 40 01 40 01 40 01 40 01 40 01 40 02 40 01 90 F6 
2025-10-15 22:31:23.591 | TX | 0E 03 A2 40 00 40 66 A9 
2025-10-15 22:31:23.591 | RX | 0E 03 80 40 01 40 01 40 01 40 01 40 00 40 01 40 01 40 01 40 02 40 01 40 02 40 02 40 01 40 02 40 01 40 01 40 02 40 01 40 01 40 01 40 01 40 02 40 01 40 02 40 01 40 01 40 01 40 02 40 02 40 01 40 00 40 02 40 01 40 01 40 02 40 02 40 01 40 02 40 02 40 02 40 01 40 01 40 01 40 01 40 00 40 01 40 01 40 02 40 01 40 01 40 01 40 00 40 01 40 01 40 01 40 01 40 02 40 02 40 01 40 01 40 01 40 02 40 02 40 01 E7 21 
2025-10-15 22:31:23.622 | TX | 0E 03 A2 80 00 40 66 95 
2025-10-15 22:31:23.622 | RX | 0E 03 80 40 01 40 01 40 01 40 01 40 01 40 01 40 00 40 01 40 01 40 01 40 01 40 01 40 01 40 01 40 01 40 01 40 01 40 01 40 01 40 01 40 01 40 01 40 00 40 00 40 00 40 00 40 00 40 00 40 00 40 00 40 00 40 01 40 01 40 01 40 01 40 01 40 01 40 01 40 01 40 01 40 01 40 01 40 01 40 01 40 01 40 01 40 01 40 01 40 02 40 02 40 02 40 02 40 02 40 02 40 02 40 01 40 01 40 01 40 01 40 01 40 01 40 01 40 01 40 01 53 C5 
2025-10-15 22:31:23.653 | TX | 0E 03 A2 C0 00 40 67 41 
2025-10-15 22:31:23.653 | RX | 0E 03 80 40 00 40 00 40 01 40 01 40 01 40 01 40 02 40 02 40 01 40 01 40 01 40 01 40 01 40 01 40 01 40 01 40 01 40 01 40 01 40 01 40 01 40 01 40 01 40 01 40 01 40 01 40 01 40 01 40 01 40 01 40 01 40 02 40 02 40 01 40 01 40 01 40 00 40 00 40 00 40 00 40 01 40 01 40 01 40 01 40 01 40 01 40 01 40 01 40 02 40 02 40 01 40 01 40 01 40 01 40 02 40 02 40 02 40 02 40 02 40 02 40 02 40 02 40 02 40 01 F6 63 
2025-10-15 22:31:23.683 | TX | 0E 03 A3 00 00 40 66 81 
2025-10-15 22:31:23.684 | RX | 0E 03 80 40 01 40 01 40 01 40 01 40 02 40 02 40 02 40 02 40 02 40 02 40 02 40 02 40 02 40 02 40 01 40 01 40 01 40 01 40 01 40 01 40 01 40 01 40 01 40 01 40 01 40 01 40 01 40 01 40 01 40 01 40 01 40 01 40 01 40 01 40 01 40 01 40 01 40 01 40 01 40 01 40 01 40 01 40 01 40 01 40 01 40 01 40 01 40 01 40 01 40 01 40 01 40 01 40 01 40 01 40 01 40 01 40 01 40 01 40 01 40 01 40 01 40 00 40 00 40 00 14 CD 
2025-10-15 22:31:23.714 | TX | 0E 03 A3 40 00 40 67 55 
2025-10-15 22:31:23.715 | RX | 0E 03 80 40 01 40 01 40 01 40 01 40 01 40 01 40 01 40 00 40 00 40 00 40 00 40 00 40 00 40 00 40 00 40 00 40 00 40 01 40 01 40 01 40 01 40 01 40 01 40 01 40 01 40 01 40 01 40 01 40 01 40 01 40 01 40 01 40 02 40 01 40 01 40 01 40 01 40 01 40 01 40 01 40 01 40 01 40 00 40 00 40 00 40 00 40 00 40 01 40 01 40 01 40 01 40 02 40 01 40 01 40 01 40 00 40 00 40 00 40 00 40 01 40 01 40 01 40 01 40 01 C1 47 
2025-10-15 22:31:23.745 | TX | 0E 03 A3 80 00 40 67 69 
2025-10-15 22:31:23.746 | RX | 0E 03 80 40 01 40 01 40 01 40 01 40 01 40 01 40 01 40 01 40 01 40 01 40 02 40 02 40 02 40 02 40 02 40 02 40 01 40 01 40 01 40 01 40 01 40 01 40 01 40 01 40 01 40 01 40 01 40 01 40 01 40 01 40 01 40 01 40 01 40 01 40 00 40 00 40 00 40 01 40 01 40 01 40 01 40 01 40 01 40 01 40 01 40 01 40 01 40 01 40 01 40 01 40 01 40 01 40 01 40 01 40 00 40 00 40 00 40 01 40 01 40 01 40 01 40 01 40 01 40 01 77 39 
2025-10-15 22:31:23.777 | TX | 0E 03 A3 C0 00 40 66 BD 
2025-10-15 22:31:23.777 | RX | 0E 03 80 40 01 40 01 40 01 40 01 40 01 40 02 40 02 40 02 40 02 40 01 40 01 40 01 40 01 40 01 40 01 40 02 40 02 40 02 40 02 40 01 40 01 40 01 40 01 40 01 40 01 40 01 40 01 40 01 40 01 40 01 40 01 40 01 40 01 40 01 40 00 40 00 40 00 40 00 40 00 40 00 40 01 40 01 40 01 40 01 40 01 40 02 40 02 40 02 40 02 40 02 40 02 40 02 40 02 40 02 40 02 40 02 40 02 40 02 40 02 40 02 40 01 40 01 40 01 40 01 D7 56 
2025-10-15 22:31:23.793 | TX | 0E 10 00 00 00 01 02 00 09 27 A6 
2025-10-15 22:31:23.793 | RX | 0E 10 00 00 00 01 01 36 
2025-10-15 22:31:23.824 | TX | 0E 03 A0 00 00 40 66 C5 
2025-10-15 22:31:23.824 | RX | 0E 03 80 C0 2C C0 26 00 19 00 25 00 1E 00 1A 00 1D 00 19 00 21 00 10 00 10 00 22 00 19 00 13 00 07 00 15 00 1D 00 1E 00 1F 00 24 00 15 00 18 00 15 00 14 00 07 00 09 00 11 00 0A 00 19 00 13 00 17 00 1B 00 16 00 0C 00 20 00 1F 00 14 00 11 00 04 00 10 00 0F 40 18 40 13 40 16 00 20 00 22 00 29 00 16 00 21 00 24 00 17 00 23 00 0D 00 1B 00 11 00 09 00 12 00 1A 00 18 40 23 60 13 00 0D 00 1C 00 28 CE 3A 
2025-10-15 22:31:23.856 | TX | 0E 03 A0 40 00 40 67 11 
2025-10-15 22:31:23.856 | RX | 0E 03 80 00 28 40 13 00 0A 00 0D 00 21 00 20 00 1C 00 17 00 11 00 19 00 1C 00 26 00 0E 00 1B 00 12 00 1F 00 25 00 11 00 15 00 12 00 11 00 17 40 10 00 12 00 13 00 0F 00 06 00 14 00 1F 00 1C 00 18 00 26 00 1C 00 25 00 21 00 17 00 0F 00 12 00 0C 00 14 00 1C 00 09 00 1B 00 1D 00 1B 40 22 00 26 00 1B 00 16 00 1A 00 1F 00 1C 00 18 00 15 00 23 00 1F 00 12 00 14 00 22 00 24 00 15 00 14 00 16 00 1A 26 B8 
2025-10-15 22:31:23.886 | TX | 0E 03 A0 80 00 40 67 2D 
2025-10-15 22:31:23.887 | RX | 0E 03 80 00 1C 00 1B 00 13 00 09 00 0E 00 17 00 17 00 19 00 18 00 19 00 13 00 1F 00 15 00 19 40 23 00 15 00 13 00 13 00 17 00 15 00 1A 00 19 00 1B 00 1D E0 1B 40 05 00 16 00 1D 00 1D 00 1C 00 16 00 17 00 13 00 1E 00 17 00 11 00 0F 00 12 00 16 00 1A 00 1E 00 1B 00 18 00 18 00 15 00 1C 00 13 00 12 00 15 00 13 00 1E 00 14 80 19 C0 0D 00 11 00 19 40 1F 00 11 00 11 00 14 00 16 00 10 00 15 00 16 AA 66 
2025-10-15 22:31:23.917 | TX | 0E 03 A0 C0 00 40 66 F9 
2025-10-15 22:31:23.918 | RX | 0E 03 80 00 19 00 17 00 18 00 0F 00 22 40 24 00 1F 00 1D 00 18 00 16 00 1A 00 1A 00 1D 00 16 00 0F 00 0F 00 1C 00 1F 00 24 00 23 80 11 40 11 00 29 00 14 1F 18 00 16 00 11 00 1B 00 13 C0 1A 00 10 00 1A 00 1E 00 17 00 1D 00 20 00 15 00 1B 00 23 00 20 00 17 00 10 00 12 00 18 00 18 00 20 00 17 00 19 00 1C 00 19 00 22 00 1E 00 14 00 0B 00 1C 00 20 00 18 00 11 00 12 00 18 00 20 00 18 00 11 00 1F 02 65 
2025-10-15 22:31:23.949 | TX | 0E 03 A1 00 00 40 67 39 
2025-10-15 22:31:23.949 | RX | 0E 03 80 00 2B 00 18 00 04 00 15 00 12 00 15 00 1A 00 14 00 08 00 15 00 1A 00 1D 00 1A 00 19 00 12 00 1F 00 18 00 27 00 0F 00 0A 00 1F 00 14 00 15 80 13 00 0B 00 22 00 24 00 21 00 18 00 1A 00 1C 00 19 00 21 00 1A 00 1E 00 0D 00 19 00 14 00 18 00 29 00 26 40 19 00 15 00 17 00 20 00 23 00 17 00 11 00 14 00 1B 00 11 00 1D 00 19 00 0B 00 0E 00 1E 00 21 00 16 00 1B 00 13 00 13 00 1D 00 1A 00 0F 4E 31 
2025-10-15 22:31:23.981 | TX | 0E 03 A1 40 00 40 66 ED 
2025-10-15 22:31:23.984 | RX | 0E 03 80 00 13 00 1B 00 17 00 1F 00 12 00 15 00 15 00 1E 00 23 00 13 00 19 00 17 00 1A 00 14 00 18 00 0A 00 0B 00 1F 00 11 00 1B 00 1C 00 0F 00 11 00 1A 00 1A 40 15 00 18 00 14 00 1C 00 20 40 12 00 13 00 21 00 1B 00 19 C0 1A 00 1E 00 19 00 1A 00 16 00 18 00 19 C0 15 00 20 00 0D 00 1F 00 10 00 1B 00 20 00 16 00 12 00 17 00 1D 00 18 00 09 00 13 00 19 00 21 00 1C 00 19 00 0A 00 10 00 11 00 1A BD 96 
2025-10-15 22:31:24.033 | TX | 0E 03 A1 80 00 40 66 D1 
2025-10-15 22:31:24.033 | RX | 0E 03 80 C0 17 00 24 00 22 00 1A 00 1A 00 20 00 19 00 14 00 17 00 0C 00 1A 00 1F 00 
2025-10-15 22:31:24.033 | RX | 17 00 00 00 1B 00 1A 00 21 00 15 00 14 00 19 00 12 00 1A 00 23 00 10 00 15 00 14 00 1F 00 1A 00 21 00 18 00 0F 00 1F 00 1E 00 1B 00 15 00 12 00 0E 00 17 00 0F 00 0E C0 0D 00 1D 00 19 00 21 00 18 00 1B 00 1A 00 1C 00 12 00 1C 00 1F 00 14 00 21 00 13 00 0B 00 23 00 21 C0 28 40 23 00 0B 00 1C 00 21 00 1C 00 1F C9 77 
2025-10-15 22:31:24.064 | TX | 0E 03 A1 C0 00 40 67 05 
2025-10-15 22:31:24.065 | RX | 0E 03 80 00 17 00 1C 00 07 00 1A 00 24 00 26 00 16 00 12 00 0D 00 22 00 20 00 17 00 19 00 1D 00 19 00 19 00 1F 00 20 00 1E 00 14 00 08 00 14 00 18 40 23 00 18 00 0D 00 1B 00 1B 00 12 00 10 00 1A 00 1F 00 1D 00 24 00 14 00 20 00 1E 00 1E 00 10 00 20 00 12 00 0A 00 19 00 1A 00 1C 00 16 00 14 00 19 00 1D 00 1F 00 15 00 21 00 18 00 14 00 12 00 1C 00 1F 00 10 00 12 00 20 00 1A 00 1B 00 0D 00 11 50 EF 
2025-10-15 22:31:24.096 | TX | 0E 03 A2 00 00 40 67 7D 
2025-10-15 22:31:24.096 | RX | 0E 03 80 40 02 40 03 40 01 40 00 40 01 40 02 40 02 40 02 40 01 40 01 40 01 40 01 40 02 40 02 40 02 40 02 40 02 40 02 40 01 40 03 40 02 40 03 40 03 40 02 40 03 40 02 40 01 40 01 40 01 40 02 40 02 40 01 40 02 40 02 40 03 40 02 40 03 40 03 40 03 40 03 40 03 40 02 40 01 40 02 40 02 40 03 40 01 40 02 40 01 40 01 40 02 40 02 40 02 40 02 40 02 40 01 40 02 40 01 40 01 40 02 40 03 40 02 40 02 40 02 FB D5 
2025-10-15 22:31:24.127 | TX | 0E 03 A2 40 00 40 66 A9 
2025-10-15 22:31:24.127 | RX | 0E 03 80 40 01 40 01 40 02 40 01 40 01 40 01 40 03 40 01 40 02 40 03 40 01 40 02 40 01 40 02 40 02 40 02 40 02 40 02 40 02 40 02 40 01 40 01 40 01 40 01 40 02 40 02 40 01 40 01 40 01 40 01 40 01 40 02 40 01 40 01 40 01 40 01 40 01 40 01 40 01 40 01 40 01 40 01 40 01 40 02 40 02 40 02 40 02 40 02 40 02 40 01 40 02 40 02 40 01 40 02 40 02 40 02 40 02 40 02 40 00 40 01 40 01 40 02 40 02 40 02 01 21 
2025-10-15 22:31:24.157 | TX | 0E 03 A2 80 00 40 66 95 
2025-10-15 22:31:24.157 | RX | 0E 03 80 40 02 40 02 40 02 40 00 40 01 40 02 40 01 40 01 40 01 40 02 40 03 40 02 40 01 40 01 40 02 40 01 40 02 40 01 40 01 40 02 40 01 40 01 40 02 40 02 40 02 40 02 40 01 40 02 40 02 40 01 40 01 40 01 40 02 40 02 40 01 40 02 40 02 40 03 40 00 40 01 40 01 40 01 40 01 40 01 40 02 40 02 40 02 40 00 40 01 40 02 40 02 40 02 40 02 40 02 40 02 40 01 40 02 40 02 40 01 40 01 40 02 40 01 40 01 40 02 20 5C 
2025-10-15 22:31:24.188 | TX | 0E 03 A2 C0 00 40 67 41 
2025-10-15 22:31:24.189 | RX | 0E 03 80 40 01 40 01 40 02 40 01 40 02 40 01 40 02 40 01 40 01 40 01 40 01 40 02 40 01 40 02 40 01 40 01 40 02 40 01 40 01 40 02 40 01 40 02 40 01 40 01 40 01 40 00 40 01 40 02 40 01 40 01 40 02 40 02 40 01 40 02 40 01 40 01 40 02 40 02 40 02 40 02 40 02 40 01 40 01 40 02 40 01 40 01 40 02 40 02 40 01 40 01 40 02 40 02 40 01 40 02 40 01 40 01 40 01 40 01 40 03 40 01 40 01 40 02 40 02 40 02 7D 3F 
2025-10-15 22:31:24.219 | TX | 0E 03 A3 00 00 40 66 81 
2025-10-15 22:31:24.220 | RX | 0E 03 80 40 01 40 01 40 01 40 01 40 01 40 02 40 01 40 02 40 02 40 01 40 01 40 01 40 02 40 02 40 02 40 01 40 02 40 01 40 02 40 03 40 00 40 01 40 01 40 01 40 03 40 01 40 01 40 02 40 01 40 01 40 01 40 02 40 01 40 01 40 01 40 01 40 01 40 01 40 01 40 02 40 01 40 01 40 02 40 02 40 02 40 02 40 02 40 01 40 01 40 02 40 01 40 01 40 01 40 02 40 01 40 01 40 01 40 02 40 00 40 01 40 01 40 01 40 02 40 01 39 44 
2025-10-15 22:31:24.250 | TX | 0E 03 A3 40 00 40 67 55 
2025-10-15 22:31:24.251 | RX | 0E 03 80 40 01 40 01 40 02 40 01 40 02 40 01 40 02 40 01 40 01 40 01 40 02 40 02 40 02 40 01 40 01 40 01 40 01 40 02 40 01 40 02 40 01 40 01 40 02 40 01 40 02 40 02 40 02 40 02 40 00 40 01 40 02 40 01 40 00 40 02 40 02 40 01 40 02 40 01 40 02 40 02 40 02 40 02 40 02 40 01 40 01 40 01 40 01 40 01 40 01 40 01 40 01 40 02 40 01 40 02 40 01 40 01 40 02 40 02 40 01 40 01 40 01 40 01 40 02 40 01 9F 7D 
2025-10-15 22:31:24.281 | TX | 0E 03 A3 80 00 40 67 69 
2025-10-15 22:31:24.282 | RX | 0E 03 80 40 01 40 01 40 02 40 02 40 02 40 01 40 02 40 01 40 01 40 02 40 02 40 01 40 01 40 01 40 02 40 02 40 01 40 02 40 01 40 01 40 01 40 02 40 02 40 02 40 02 40 01 40 01 40 02 40 02 40 01 40 01 40 01 40 01 40 01 40 02 40 01 40 02 40 02 40 02 40 02 40 02 40 02 40 01 40 02 40 02 40 02 40 02 40 01 40 01 40 02 40 01 40 02 40 01 40 02 40 01 40 02 40 01 40 01 40 01 40 02 40 01 40 01 40 02 40 01 AC 82 
2025-10-15 22:31:24.313 | TX | 0E 03 A3 C0 00 40 66 BD 
2025-10-15 22:31:24.313 | RX | 0E 03 80 40 02 40 02 40 01 40 02 40 01 40 02 40 01 40 02 40 01 40 01 40 02 40 02 40 03 40 02 40 01 40 01 40 02 40 01 40 02 40 02 40 02 40 02 40 02 40 01 40 01 40 02 40 02 40 02 40 01 40 01 40 02 40 02 40 01 40 01 40 01 40 01 40 02 40 02 40 01 40 01 40 01 40 01 40 02 40 02 40 01 40 01 40 02 40 01 40 02 40 02 40 02 40 01 40 02 40 01 40 01 40 01 40 01 40 02 40 03 40 01 40 01 40 02 40 01 40 01 D2 3A 
2025-10-15 22:31:24.328 | TX | 0E 10 00 00 00 01 02 00 09 27 A6 
2025-10-15 22:31:24.329 | RX | 0E 10 00 00 00 01 01 36 
2025-10-15 22:31:24.360 | TX | 0E 03 A0 00 00 40 66 C5 
2025-10-15 22:31:24.360 | RX | 0E 03 80 00 19 00 15 00 17 00 1D 00 19 00 18 00 1D 00 14 00 1C 00 13 00 14 00 22 00 13 00 26 00 1C 00 17 00 0C 00 10 00 10 00 1D 00 1D 00 12 00 23 00 2D 00 07 00 1E 00 22 00 07 00 0E 00 12 00 21 00 1A 00 0D 00 1F 00 24 00 17 00 1A 00 23 00 16 00 15 00 14 00 14 00 17 00 09 00 0F 00 1E 00 12 00 1A 40 12 1F 1F 00 1E 00 10 00 15 00 10 00 17 00 18 40 15 00 0B 00 14 00 1B 00 1A 00 21 00 1C 00 1D 8F F6 
2025-10-15 22:31:24.391 | TX | 0E 03 A0 40 00 40 67 11 
2025-10-15 22:31:24.391 | RX | 0E 03 80 40 0F 00 17 00 1F 40 23 00 18 00 1E 00 1A 40 1B 00 17 00 1A 00 16 00 21 00 18 40 0A 40 0D 00 14 00 1F 00 20 C0 1F 00 13 00 1F 00 1C 00 18 00 0A 00 24 00 19 40 19 00 1A 00 12 00 1F 00 19 00 21 40 22 00 15 00 1B 00 19 00 1B 00 16 00 07 00 14 00 0F 00 18 00 20 00 1E 00 10 00 1A 00 1B 00 1A 00 20 00 18 00 16 00 20 00 2D 00 20 00 11 00 17 00 04 00 16 00 0A 00 16 00 23 00 15 00 13 00 18 86 C1 
2025-10-15 22:31:24.422 | TX | 0E 03 A0 80 00 40 67 2D 
2025-10-15 22:31:24.422 | RX | 0E 03 80 00 1A 00 1A 00 1B 00 1D 00 18 00 1F 00 18 00 1B 00 17 00 13 00 1B 00 21 00 14 00 11 00 16 00 1D 00 20 00 19 00 1D 00 1A 00 20 00 1E 00 1D 00 16 00 1E 00 1D 00 0F 00 0D 00 16 00 1B 00 1B 60 23 00 0D 00 1C 00 19 00 2D 00 2B 00 15 00 09 00 18 00 1A 00 13 00 16 00 0F 00 13 00 1E 00 0E 00 1C 00 1B 00 19 00 0B 00 2F 00 16 00 1B 00 10 00 11 00 21 40 17 00 13 00 13 00 12 00 16 00 1E 00 1E 4D BE 
2025-10-15 22:31:24.452 | TX | 0E 03 A0 C0 00 40 66 F9 
2025-10-15 22:31:24.453 | RX | 0E 03 80 00 19 40 19 C0 1A C0 1B C0 1C C0 1D C0 1E C0 1F C0 1F C0 1F C0 1F C0 20 80 20 80 22 80 24 80 25 80 27 00 28 00 28 00 28 00 27 00 26 00 26 00 25 00 25 00 25 00 25 00 25 00 26 00 25 00 24 00 23 00 20 00 1E 00 1B 00 19 00 17 00 17 00 17 00 18 00 19 00 1A 00 1B 00 1D 00 1E 00 1F 00 20 00 20 00 20 00 20 00 1F 00 1E 00 1D 00 1C 00 1B 00 1B 00 1B 00 1B 00 1C 00 1C 00 1C 00 1B 00 1A 00 19 C7 C9 
2025-10-15 22:31:24.484 | TX | 0E 03 A1 00 00 40 67 39 
2025-10-15 22:31:24.485 | RX | 0E 03 80 00 17 00 15 00 13 00 10 00 0D 00 0A 00 08 00 07 00 07 00 07 00 09 00 0B 00 0D 00 0F 00 11 00 13 40 15 40 16 40 17 40 18 40 19 40 1A 40 1B 40 1C 40 1C 40 1C 00 1C 00 1B 00 19 00 18 00 17 00 16 00 16 00 17 00 18 00 1A 00 1B 00 1C 00 1C 00 1B 00 1A 00 18 00 14 00 11 00 0D 00 0A 00 07 00 05 00 05 00 06 00 08 00 0B 00 0E 00 12 00 15 00 17 00 1A 00 1B 00 1C 00 1C 00 1C 00 1A 00 19 00 18 7E FA 
2025-10-15 22:31:24.515 | TX | 0E 03 A1 40 00 40 66 ED 
2025-10-15 22:31:24.516 | RX | 0E 03 80 00 16 00 16 00 16 00 17 00 19 00 1B 00 1D 00 1F 00 20 00 22 00 23 00 23 00 22 00 21 00 1F 00 1D 00 1B 00 1A 00 19 00 18 00 17 00 16 00 15 00 14 00 14 00 14 00 15 00 15 00 17 00 18 00 19 00 19 00 1A 00 1B 00 1C 00 1C 00 1D 00 1D 00 1E 00 1E 00 1E 00 1D 00 1D 00 1D 00 1D 00 1E 00 20 00 22 00 24 00 25 00 26 00 25 00 24 00 22 00 20 00 1E 00 1D 00 1C 00 1C 00 1B 00 1B 00 1B 00 1B 00 1A C2 25 
2025-10-15 22:31:24.546 | TX | 0E 03 A1 80 00 40 66 D1 
2025-10-15 22:31:24.547 | RX | 0E 03 80 00 1A 00 19 00 18 00 17 00 17 00 16 00 16 00 16 00 16 00 15 00 15 00 15 00 14 00 14 00 14 00 14 00 14 00 15 00 15 00 16 00 16 00 16 00 17 00 17 00 18 00 19 00 1A 00 1C 00 1D 00 1E 00 1F 00 1F 00 1E 00 1C 00 19 00 15 00 12 00 0F 00 0C 00 0A 00 08 00 07 00 07 00 07 00 08 00 0A 00 0D 00 0F 00 12 00 15 00 18 00 1A 00 1C 00 1D 00 1D 00 1C 00 1A 00 17 00 14 00 12 00 10 00 10 00 11 00 12 A2 93 
2025-10-15 22:31:24.577 | TX | 0E 03 A1 C0 00 40 67 05 
2025-10-15 22:31:24.578 | RX | 0E 03 80 00 14 00 16 00 18 00 1B 00 1E 00 20 40 22 40 24 40 26 40 26 40 26 40 24 00 21 00 1E 00 1B 00 18 00 15 00 14 00 13 00 13 00 13 00 15 00 16 00 18 00 19 00 1B 00 1C 00 1C 00 1C 00 1C 00 1C 00 1C 00 1B 00 1B 00 1B 00 1A 00 1A 00 19 00 18 00 18 00 17 00 18 00 18 00 18 00 18 00 17 00 17 00 15 00 14 00 13 00 12 00 10 00 0E 00 0C 00 0B 00 0A 00 0A 00 0B 00 0D 00 10 00 12 00 15 00 18 00 1B 24 50 
2025-10-15 22:31:24.609 | TX | 0E 03 A2 00 00 40 67 7D 
2025-10-15 22:31:24.609 | RX | 0E 03 80 40 02 40 02 40 02 40 02 40 02 40 02 40 02 40 02 40 02 40 02 40 02 40 02 40 02 40 01 40 01 40 01 40 02 40 02 40 02 40 02 40 02 40 01 40 01 40 01 40 01 40 01 40 01 40 01 40 01 40 01 40 01 40 01 40 01 40 01 40 01 40 01 40 01 40 01 40 01 40 01 40 02 40 02 40 02 40 01 40 01 40 02 40 02 40 02 40 02 40 02 40 02 40 02 40 02 40 02 40 02 40 01 40 02 40 02 40 02 40 02 40 02 40 02 40 02 40 02 F5 90 
2025-10-15 22:31:24.640 | TX | 0E 03 A2 40 00 40 66 A9 
2025-10-15 22:31:24.640 | RX | 0E 03 80 40 02 40 01 40 01 40 01 40 01 40 01 40 01 40 02 40 02 40 02 40 02 40 02 40 02 40 02 40 02 40 02 40 02 40 02 40 02 40 02 40 02 40 02 40 02 40 02 40 02 40 02 40 03 40 03 40 03 40 03 40 03 40 03 40 03 40 03 40 03 40 03 40 03 40 02 40 02 40 02 40 02 40 02 40 01 40 01 40 01 40 01 40 01 40 01 40 01 40 01 40 01 40 01 40 01 40 01 40 01 40 01 40 01 40 01 40 01 40 01 40 01 40 01 40 01 40 01 86 95 
2025-10-15 22:31:24.671 | TX | 0E 03 A2 80 00 40 66 95 
2025-10-15 22:31:24.671 | RX | 0E 03 80 40 01 40 02 40 02 40 02 40 02 40 02 40 02 40 02 40 02 40 02 40 02 40 02 40 02 40 02 40 02 40 02 40 02 40 02 40 02 40 02 40 02 40 01 40 01 40 01 40 01 40 01 40 01 40 01 40 01 40 01 40 01 40 01 40 01 40 02 40 02 40 02 40 01 40 01 40 01 40 01 40 01 40 01 40 02 40 02 40 02 40 02 40 02 40 02 40 02 40 02 40 02 40 02 40 02 40 02 40 02 40 02 40 02 40 02 40 02 40 02 40 02 40 02 40 03 40 02 4E 67 
2025-10-15 22:31:24.701 | TX | 0E 03 A2 C0 00 40 67 41 
2025-10-15 22:31:24.701 | RX | 0E 03 80 40 02 40 02 40 02 40 02 40 02 40 02 40 02 40 01 40 01 40 01 40 01 40 01 40 01 40 01 40 01 40 01 40 01 40 01 40 01 40 01 40 01 40 02 40 02 40 02 40 01 40 01 40 00 40 00 40 00 40 00 40 00 40 01 40 01 40 01 40 02 40 02 40 02 40 02 40 01 40 01 40 01 40 01 40 01 40 01 40 02 40 02 40 02 40 02 40 02 40 02 40 02 40 02 40 02 40 03 40 03 40 03 40 03 40 03 40 03 40 02 40 02 40 02 40 02 40 02 61 63 
2025-10-15 22:31:24.732 | TX | 0E 03 A3 00 00 40 66 81 
2025-10-15 22:31:24.732 | RX | 0E 03 80 40 02 40 02 40 02 40 02 40 02 40 02 40 02 40 02 40 02 40 02 40 02 40 02 40 02 40 01 40 01 40 01 40 01 40 01 40 01 40 01 40 01 40 01 40 01 40 01 40 01 40 02 40 02 40 02 40 01 40 01 40 01 40 01 40 01 40 01 40 01 40 01 40 01 40 01 40 01 40 01 40 01 40 01 40 01 40 01 40 02 40 02 40 02 40 02 40 01 40 01 40 01 40 01 40 01 40 01 40 01 40 01 40 01 40 01 40 01 40 01 40 01 40 01 40 01 40 01 54 FD 
2025-10-15 22:31:24.763 | TX | 0E 03 A3 40 00 40 67 55 
2025-10-15 22:31:24.763 | RX | 0E 03 80 40 01 40 01 40 01 40 01 40 01 40 01 40 01 40 01 40 01 40 01 40 01 40 02 40 02 40 02 40 02 40 02 40 02 40 02 40 02 40 02 40 02 40 02 40 02 40 01 40 01 40 01 40 01 40 01 40 01 40 01 40 01 40 01 40 01 40 01 40 01 40 01 40 01 40 01 40 01 40 01 40 01 40 01 40 02 40 02 40 03 40 03 40 03 40 03 40 03 40 03 40 02 40 02 40 02 40 02 40 02 40 02 40 02 40 02 40 02 40 02 40 02 40 02 40 02 40 02 AA 42 
2025-10-15 22:31:24.794 | TX | 0E 03 A3 80 00 40 67 69 
2025-10-15 22:31:24.794 | RX | 0E 03 80 40 02 40 02 40 02 40 02 40 02 40 02 40 02 40 02 40 02 40 02 40 03 40 03 40 02 40 02 40 02 40 02 40 02 40 02 40 02 40 02 40 02 40 02 40 02 40 02 40 02 40 02 40 02 40 02 40 02 40 02 40 02 40 02 40 02 40 02 40 02 40 02 40 02 40 02 40 02 40 02 40 02 40 01 40 01 40 01 40 01 40 02 40 02 40 02 40 01 40 01 40 01 40 01 40 01 40 02 40 02 40 02 40 02 40 01 40 01 40 01 40 01 40 01 40 01 40 01 B3 25 
2025-10-15 22:31:24.826 | TX | 0E 03 A3 C0 00 40 66 BD 
2025-10-15 22:31:24.826 | RX | 0E 03 80 40 02 40 02 40 01 40 01 40 01 40 01 40 01 40 01 40 01 40 01 40 01 40 01 40 01 40 02 40 02 40 02 40 02 40 02 40 02 40 02 40 02 40 02 40 02 40 02 40 02 40 01 40 01 40 01 40 01 40 01 40 01 40 01 40 01 40 01 40 01 40 01 40 01 40 01 40 01 40 01 40 01 40 01 40 01 40 01 40 01 40 01 40 01 40 01 40 01 40 01 40 01 40 01 40 01 40 01 40 01 40 01 40 01 40 01 40 01 40 01 40 01 40 01 40 00 40 00 11 CF 
2025-10-15 22:31:24.841 | TX | 0E 10 00 00 00 01 02 00 09 27 A6 
2025-10-15 22:31:24.841 | RX | 0E 10 00 00 00 01 01 36 
2025-10-15 22:31:24.872 | TX | 0E 03 A0 00 00 40 66 C5 
2025-10-15 22:31:24.872 | RX | 0E 03 80 00 17 00 12 00 18 00 0F 00 0F 00 22 00 11 00 11 00 13 00 1A 00 0E 00 22 00 22 00 22 00 11 00 07 00 0A 00 1F 40 15 00 0A 00 15 00 18 00 10 00 15 00 1D 00 19 00 1F 00 1F 00 1A 00 15 00 11 00 13 00 18 00 26 00 18 00 1A 00 2B 60 1A 00 13 00 18 00 23 00 1E 00 20 00 18 00 14 00 16 00 19 00 23 00 13 00 12 00 0D 00 19 00 1B 00 14 00 1B 00 13 00 15 00 16 00 1E 00 1B 00 12 00 11 00 14 00 1A B8 A0 
2025-10-15 22:31:24.903 | TX | 0E 03 A0 40 00 40 67 11 
2025-10-15 22:31:24.903 | RX | 0E 03 80 00 1B 00 19 00 1F 00 15 00 26 00 18 00 14 60 23 00 0F 00 19 00 1D 00 16 C0 0F 00 19 00 12 00 23 40 20 00 20 00 1F 00 24 00 23 00 1D 00 12 00 27 00 16 00 10 00 17 00 14 00 17 00 18 00 19 00 1D 00 26 00 29 00 1C 00 22 00 15 00 1A 00 13 00 14 00 0C 00 0E 00 0F 00 10 00 12 00 10 00 20 00 1D 00 11 00 12 00 1F 00 1F 00 15 00 0A 00 15 00 0C 40 1E 00 15 00 13 00 12 00 1A 00 1C 00 26 C0 11 8B 29 
2025-10-15 22:31:24.934 | TX | 0E 03 A0 80 00 40 67 2D 
2025-10-15 22:31:24.934 | RX | 0E 03 80 40 1F 00 22 00 1B 00 1B 00 15 00 13 00 18 00 11 00 27 40 1D 00 13 00 15 00 21 00 1D 00 23 00 19 00 0C 00 14 00 1E 00 23 00 19 00 1B 00 15 00 22 00 21 00 17 00 1C 1F 13 00 11 00 1A 00 15 00 06 00 0F 00 1A 00 10 00 1D 00 15 00 1E 00 1A 00 20 00 15 00 1C 00 1E 00 1B 00 0F 00 0B 00 11 00 19 00 20 40 18 00 0F 00 21 00 1F 00 1C 00 16 00 11 C0 1C 00 22 00 17 00 1D 00 14 00 20 00 19 00 09 5F BE 
2025-10-15 22:31:24.965 | TX | 0E 03 A0 C0 00 40 66 F9 
2025-10-15 22:31:24.965 | RX | 0E 03 80 00 21 00 22 00 1D 00 20 00 1A 00 19 00 2E 00 18 00 1D 00 0E 00 0E 00 12 00 1D 00 16 00 13 00 08 00 1E 00 14 40 22 00 21 00 1D 00 1F 00 1E 00 19 00 0A 00 17 00 1C 00 1A 00 FB 40 16 C0 0C 00 19 00 18 40 1E 00 18 00 1A 00 26 00 1B 40 20 00 0D 00 14 40 1B 00 11 20 12 00 0A 00 1A 00 1B 00 1E 00 20 00 14 00 19 00 1D 00 20 00 13 00 0F 00 0B 00 18 00 21 00 10 00 1E 00 14 00 17 00 1F 00 1C CA 6F 
2025-10-15 22:31:24.996 | TX | 0E 03 A1 00 00 40 67 39 
2025-10-15 22:31:24.996 | RX | 0E 03 80 60 15 00 12 00 19 00 1E 00 20 00 23 00 15 00 20 00 20 00 19 00 1F 00 0E 00 11 00 09 00 26 00 10 00 0B 00 0C 00 17 00 1C 00 1B 00 1B 00 0B 00 1A 00 14 00 20 00 1E 00 18 00 0F 00 14 00 16 40 15 40 10 00 1E 00 1B 00 10 00 0F 00 18 00 12 00 17 00 0E 00 13 00 17 00 1A 00 11 00 12 40 08 00 0E 00 10 00 1B 00 20 C0 0F 00 1B 00 18 00 2C 00 13 00 16 00 19 00 1C 00 18 00 1A 00 10 00 0F 00 18 11 39 
2025-10-15 22:31:25.027 | TX | 0E 03 A1 40 00 40 66 ED 
2025-10-15 22:31:25.028 | RX | 0E 03 80 00 13 00 18 00 16 00 19 00 1E 00 13 00 17 00 1A 00 18 00 1D 00 20 00 20 00 0F 00 21 00 23 00 1D 00 19 00 20 00 1D 00 0A 00 0C 00 1B 40 1D 00 1A 00 19 00 16 00 1F 00 19 00 1E 00 20 00 09 00 10 00 1B 00 1B 00 0B 00 16 00 1F 40 17 E0 0A 00 1F 00 1B 00 22 00 18 00 24 00 18 00 20 00 1E 00 1A 00 20 00 1E 00 08 00 12 00 13 00 22 00 1B 00 0C 00 14 00 14 00 17 00 18 00 25 00 1B 00 15 00 17 91 9C 
2025-10-15 22:31:25.058 | TX | 0E 03 A1 80 00 40 66 D1 
2025-10-15 22:31:25.059 | RX | 0E 03 80 00 24 00 1D 00 1E 00 1C 00 24 00 09 00 1D 00 17 00 18 00 29 00 0C 00 15 00 13 00 25 00 1F 00 1D 00 11 00 21 00 20 00 20 00 19 00 20 00 15 00 22 00 1D 00 15 C0 0F 00 14 00 21 00 22 C0 1C 40 10 00 19 00 18 00 14 00 16 00 0E 00 1C 00 16 00 0C 00 20 00 17 00 11 00 14 00 1C 00 10 00 1E 00 12 00 1F 00 25 00 15 00 14 00 09 00 1F 00 20 00 10 00 1D 00 1E 00 1C 00 1F 00 15 00 0C 00 1E 00 17 A3 96 
2025-10-15 22:31:25.089 | TX | 0E 03 A1 C0 00 40 67 05 
2025-10-15 22:31:25.090 | RX | 0E 03 80 00 1C 00 11 00 1F 00 1A 00 1C 00 18 00 14 00 18 00 2B 40 1F 00 10 00 16 00 1A 00 1F 00 1D 40 1E 00 11 00 1E 00 1D 00 1A 00 1A 00 18 00 24 00 12 00 1A 00 0E 00 1A 00 1A 00 19 00 16 00 19 00 19 00 20 00 22 00 23 00 16 00 0D 00 17 00 0D 00 09 40 11 40 0E 00 1D 40 1E 00 1F 00 1D 00 17 00 1C 00 1F C0 1E 00 0B 00 2B 00 28 00 1C 00 12 40 11 00 1A 00 1E 00 23 C0 20 40 0F 00 0F 00 1B 00 1F F3 5B 
2025-10-15 22:31:25.120 | TX | 0E 03 A2 00 00 40 67 7D 
2025-10-15 22:31:25.120 | RX | 0E 03 80 40 01 40 01 40 02 40 02 40 02 40 02 40 01 40 02 40 01 40 01 40 00 40 03 40 01 40 02 40 02 40 01 40 02 40 01 40 02 40 01 40 01 40 02 40 02 40 03 40 02 40 02 40 02 40 03 40 02 40 01 40 02 40 02 40 01 40 01 40 01 40 01 40 02 40 01 40 01 40 01 40 02 40 01 40 02 40 02 40 01 40 01 40 02 40 01 40 01 40 02 40 01 40 02 40 02 40 01 40 02 40 01 40 03 40 01 40 01 40 02 40 02 40 02 40 02 40 01 7D 54 
2025-10-15 22:31:25.152 | TX | 0E 03 A2 40 00 40 66 A9 
2025-10-15 22:31:25.152 | RX | 0E 03 80 40 01 40 02 40 02 40 01 40 01 40 01 40 00 40 01 40 02 40 02 40 02 40 02 40 02 40 02 40 01 40 01 40 01 40 01 40 01 40 01 40 02 40 02 40 01 40 01 40 02 40 01 40 02 40 02 40 01 40 01 40 01 40 01 40 02 40 02 40 02 40 01 40 02 40 01 40 01 40 02 40 02 40 02 40 02 40 01 40 01 40 01 40 01 40 01 40 01 40 02 40 00 40 01 40 02 40 01 40 02 40 02 40 01 40 01 40 02 40 01 40 02 40 01 40 02 40 00 2F A0 
2025-10-15 22:31:25.184 | TX | 0E 03 A2 80 00 40 66 95 
2025-10-15 22:31:25.184 | RX | 0E 03 80 40 02 40 02 40 02 40 02 40 01 40 01 40 01 40 01 40 01 40 01 40 01 40 01 40 02 40 02 40 02 40 01 40 01 40 01 40 01 40 02 40 01 40 02 40 01 40 00 40 01 40 02 40 02 40 02 40 01 40 03 40 01 40 01 40 01 40 01 40 02 40 01 40 01 40 01 40 01 40 01 40 02 40 01 40 01 40 02 40 02 40 01 40 02 40 02 40 02 40 03 40 02 40 02 40 01 40 01 40 01 40 01 40 01 40 02 40 02 40 02 40 02 40 01 40 01 40 01 EB C1 
2025-10-15 22:31:25.214 | TX | 0E 03 A2 C0 00 40 67 41 
2025-10-15 22:31:25.215 | RX | 0E 03 80 40 01 40 02 40 01 40 01 40 01 40 01 40 01 40 01 40 01 40 01 40 02 40 01 40 01 40 02 40 02 40 01 40 01 40 01 40 01 40 03 40 01 40 02 40 01 40 01 40 02 40 02 40 01 40 01 40 01 40 01 40 00 40 02 40 02 40 01 40 01 40 01 40 01 40 01 40 02 40 01 40 02 40 01 40 01 40 03 40 01 40 02 40 01 40 01 40 02 40 02 40 01 40 00 40 02 40 02 40 02 40 01 40 00 40 01 40 02 40 00 40 02 40 01 40 01 40 02 38 D9 
2025-10-15 22:31:25.245 | TX | 0E 03 A3 00 00 40 66 81 
2025-10-15 22:31:25.246 | RX | 0E 03 80 40 01 40 01 40 01 40 02 40 02 40 02 40 01 40 02 40 01 40 01 40 01 40 01 40 02 40 02 40 01 40 01 40 01 40 01 40 01 40 02 40 01 40 02 40 02 40 02 40 02 40 03 40 01 40 02 40 01 40 02 40 01 40 01 40 01 40 02 40 01 40 02 40 02 40 02 40 01 40 03 40 02 40 01 40 03 40 02 40 01 40 02 40 02 40 02 40 02 40 02 40 01 40 01 40 02 40 02 40 01 40 02 40 02 40 01 40 02 40 02 40 02 40 02 40 02 40 02 79 4B 
2025-10-15 22:31:25.276 | TX | 0E 03 A3 40 00 40 67 55 
2025-10-15 22:31:25.277 | RX | 0E 03 80 40 01 40 00 40 02 40 01 40 01 40 01 40 01 40 01 40 01 40 01 40 01 40 03 40 02 40 01 40 02 40 02 40 01 40 01 40 02 40 02 40 01 40 03 40 02 40 00 40 01 40 01 40 03 40 02 40 01 40 01 40 01 40 02 40 02 40 02 40 01 40 01 40 01 40 02 40 00 40 02 40 02 40 02 40 02 40 01 40 02 40 01 40 01 40 01 40 01 40 01 40 02 40 01 40 02 40 01 40 02 40 02 40 01 40 03 40 02 40 01 40 01 40 03 40 01 40 01 52 34 
2025-10-15 22:31:25.307 | TX | 0E 03 A3 80 00 40 67 69 
2025-10-15 22:31:25.308 | RX | 0E 03 80 40 01 40 01 40 01 40 01 40 02 40 02 40 02 40 02 40 02 40 02 40 02 40 02 40 01 40 01 40 01 40 01 40 01 40 02 40 02 40 02 40 02 40 02 40 02 40 02 40 02 40 02 40 02 40 02 40 02 40 02 40 02 40 02 40 02 40 03 40 03 40 03 40 02 40 02 40 02 40 02 40 01 40 01 40 01 40 01 40 01 40 01 40 01 40 01 40 01 40 01 40 01 40 01 40 01 40 01 40 01 40 01 40 01 40 01 40 01 40 01 40 01 40 00 40 01 40 01 49 FB 
2025-10-15 22:31:25.339 | TX | 0E 03 A3 C0 00 40 66 BD 
2025-10-15 22:31:25.339 | RX | 0E 03 80 40 01 40 01 40 01 40 01 40 01 40 01 40 01 40 01 40 01 40 02 40 02 40 02 40 02 40 01 40 01 40 01 40 01 40 01 40 01 40 01 40 00 40 00 40 00 40 00 40 00 40 00 40 00 40 01 40 01 40 01 40 02 40 02 40 02 40 02 40 02 40 02 40 02 40 01 40 01 40 01 40 01 40 01 40 01 40 01 40 01 40 01 40 01 40 01 40 01 40 01 40 01 40 01 40 01 40 01 40 02 40 02 40 02 40 02 40 02 40 02 40 02 40 02 40 02 40 02 01 AF 
2025-10-15 22:31:25.354 | TX | 0E 10 00 00 00 01 02 00 09 27 A6 
2025-10-15 22:31:25.354 | RX | 0E 10 00 00 00 01 01 36 
2025-10-15 22:31:25.385 | TX | 0E 03 A0 00 00 40 66 C5 
2025-10-15 22:31:25.385 | RX | 0E 03 80 00 1D 00 0D 00 19 00 14 00 1F 00 12 00 08 00 19 00 17 00 24 00 1D 00 1F 00 0C 00 19 00 1A 00 1B 00 09 00 10 00 0E 00 0B 00 11 00 1B 00 14 00 1B 00 1A 00 1B 00 1C 00 24 00 22 00 19 00 19 00 16 00 1D 00 1F 00 13 40 0B 40 12 00 19 40 1E 00 0F 00 1B 00 1E 00 1D 00 24 00 1E 00 1E 00 15 00 1F 00 17 00 16 00 1A 00 18 00 27 E0 23 40 12 00 23 00 1D 00 15 00 20 00 1A 00 17 00 15 00 0D 00 16 4E 3B 
2025-10-15 22:31:25.416 | TX | 0E 03 A0 40 00 40 67 11 
2025-10-15 22:31:25.416 | RX | 0E 03 80 00 10 00 07 00 09 00 1E 40 0A 40 16 00 12 00 13 00 21 00 1C 00 1F 00 1A 00 1B 00 20 00 1F 00 17 00 02 00 10 00 10 00 20 40 08 00 14 00 11 40 0F 00 17 00 18 00 22 00 15 00 18 00 1E 00 1A 00 0C 00 16 00 03 00 0B C0 1A 00 16 00 19 00 1C 00 23 00 14 00 16 00 16 00 1C 00 19 00 21 00 15 00 13 00 11 00 0D 40 12 C0 0F 00 1A 00 18 40 1B 00 26 00 1D 00 22 00 16 00 1A 00 14 00 0B 40 1D 00 18 4F C4 
2025-10-15 22:31:25.447 | TX | 0E 03 A0 80 00 40 67 2D 
2025-10-15 22:31:25.447 | RX | 0E 03 80 00 1C 00 11 00 20 80 19 00 14 00 1A 00 19 00 29 00 1E 40 17 00 15 00 08 00 10 00 13 00 15 00 13 00 08 00 1D 00 28 00 09 00 1C 00 15 00 1D 00 1F 00 15 00 11 00 14 00 16 00 1C 00 10 C0 1D 00 1B 00 1B 00 19 00 0E 00 12 40 17 00 20 00 23 00 17 00 18 00 11 00 1C 00 0D 00 04 00 16 00 18 C0 1D 40 26 00 15 00 1D 00 18 00 1A 00 1F 00 1C 00 0E 00 10 00 21 00 1F 00 17 00 0E 00 10 00 1D 00 1F C0 46 
2025-10-15 22:31:25.478 | TX | 0E 03 A0 C0 00 40 66 F9 
2025-10-15 22:31:25.478 | RX | 0E 03 80 00 15 00 15 00 1B 00 24 00 23 00 1D 00 1D 00 29 00 1B 00 1C 00 19 00 1B 00 13 00 16 00 1A 00 25 00 23 40 1B 00 17 00 19 00 1C 00 12 00 19 00 1F 00 1B 00 17 00 16 00 15 00 13 00 14 00 11 00 14 00 1C 00 1D 00 1A 00 1A 00 16 00 23 00 19 00 16 00 12 00 1B 00 1F 00 13 00 18 00 17 00 17 00 18 C0 1B 40 0F 00 21 00 1B 00 17 00 1A 00 15 00 1B 00 15 00 22 00 16 00 1A 00 24 00 17 00 0B 00 25 AE 40 
2025-10-15 22:31:25.509 | TX | 0E 03 A1 00 00 40 67 39 
2025-10-15 22:31:25.509 | RX | 0E 03 80 00 27 00 10 00 12 00 12 00 20 00 14 00 16 00 15 00 11 00 1C 00 22 00 13 00 11 00 19 00 16 00 1F 00 1C 00 13 00 23 00 1E 00 19 00 1D 00 12 00 1B 00 1E 00 1E 00 1D 00 1D 00 1E 00 15 00 18 00 15 00 14 00 1B 40 1C 00 0A 00 24 00 24 00 1F 00 1D 00 17 00 11 00 18 00 17 00 1C 00 0C 00 15 00 17 00 1E 00 1F 00 19 00 1F 00 1B 00 21 00 19 00 18 00 11 00 0F 00 0B 00 11 00 1A 00 17 00 1F 00 1B E2 46 
2025-10-15 22:31:25.540 | TX | 0E 03 A1 40 00 40 66 ED 
2025-10-15 22:31:25.540 | RX | 0E 03 80 00 1B 00 16 00 1A 00 0C 00 09 00 15 00 16 00 27 00 18 00 0E 00 07 00 0F 00 0D 00 1E 00 1E 00 13 00 15 00 1F 00 1B 00 11 00 16 00 20 00 1F 00 19 00 13 00 0D C0 1A 00 1C 00 1C 40 1C 00 17 00 23 00 1D 00 17 00 16 00 18 00 1F 00 14 00 13 00 15 00 24 00 1C 00 21 40 18 00 10 00 1C 00 20 00 19 00 1F 00 22 00 0F 00 11 00 11 00 1C 00 1C 00 1D 00 10 00 0A 00 1C 00 18 00 20 00 21 00 1F 00 11 E5 3F 
2025-10-15 22:31:25.571 | TX | 0E 03 A1 80 00 40 66 D1 
2025-10-15 22:31:25.572 | RX | 0E 03 80 00 12 00 27 00 1E 00 11 00 10 00 10 00 15 00 1C E0 07 00 1B 00 1D 00 1C 00 22 00 1F 00 1D 00 11 00 25 00 23 00 1D 00 0F 00 1A 00 16 00 25 00 0C 00 0D 00 25 00 1F 00 26 00 18 00 1E 00 16 00 1D 40 0E 00 16 00 17 00 13 00 17 00 20 00 02 00 13 00 0E 00 17 C0 2C 00 1A 00 19 00 21 00 1B 00 19 00 10 00 0F 00 19 00 13 00 11 00 0B 40 1E 00 16 00 1B 00 1F 00 16 00 11 00 20 00 19 00 1C 00 17 C2 BD 
2025-10-15 22:31:25.603 | TX | 0E 03 A1 C0 00 40 67 05 
2025-10-15 22:31:25.604 | RX | 0E 03 80 00 0D 00 16 00 1B 00 18 00 1A 00 19 00 13 00 12 00 1C 00 23 00 21 00 11 00 15 00 0D 00 10 00 0C 00 26 00 07 00 12 00 18 00 1D 00 1C 00 12 00 1D 00 1F 00 1A 00 18 00 15 00 0C 00 1B 00 1A 00 1C 00 16 00 15 00 1D 00 28 80 2C C0 21 00 0B 00 1E 00 12 00 17 00 1C 00 1A 00 0E 00 22 00 14 00 1F 00 16 00 1C 00 1A 00 13 00 22 00 18 00 22 00 19 00 0B 00 19 00 0F 00 11 00 1D 00 17 00 12 00 13 A7 AA 
2025-10-15 22:31:25.634 | TX | 0E 03 A2 00 00 40 67 7D 
2025-10-15 22:31:25.635 | RX | 0E 03 80 40 01 40 02 40 01 40 01 40 01 40 01 40 01 40 01 40 01 40 01 40 02 40 02 40 01 40 02 40 00 40 01 40 01 40 02 40 01 40 02 40 02 40 02 40 01 40 00 40 01 40 02 40 00 40 01 40 00 40 01 40 02 40 01 40 02 40 01 40 01 40 02 40 01 40 01 40 01 40 01 40 00 40 01 40 02 40 01 40 01 40 03 40 01 40 01 40 01 40 02 40 01 40 02 40 01 40 01 40 02 40 01 40 01 40 01 40 02 40 01 40 01 40 02 40 02 40 01 2E A5 
2025-10-15 22:31:25.664 | TX | 0E 03 A2 40 00 40 66 A9 
2025-10-15 22:31:25.665 | RX | 0E 03 80 40 02 40 02 40 02 40 01 40 01 40 02 40 02 40 02 40 02 40 02 40 01 40 02 40 02 40 01 40 01 40 01 40 01 40 01 40 01 40 02 40 02 40 02 40 01 40 02 40 02 40 02 40 02 40 00 40 01 40 01 40 01 40 02 40 01 40 02 40 02 40 01 40 01 40 01 40 02 40 02 40 01 40 02 40 01 40 02 40 01 40 01 40 01 40 02 40 01 40 02 40 01 40 02 40 01 40 02 40 01 40 01 40 02 40 02 40 01 40 01 40 02 40 01 40 01 40 02 9E 03 
2025-10-15 22:31:25.696 | TX | 0E 03 A2 80 00 40 66 95 
2025-10-15 22:31:25.696 | RX | 0E 03 80 40 02 40 02 40 01 40 01 40 01 40 02 40 01 40 02 40 00 40 01 40 02 40 01 40 01 40 02 40 02 40 02 40 01 40 03 40 01 40 02 40 01 40 01 40 02 40 00 40 01 40 01 40 02 40 01 40 02 40 01 40 02 40 02 40 01 40 00 40 02 40 02 40 01 40 02 40 01 40 02 40 02 40 02 40 02 40 01 40 02 40 02 40 02 40 02 40 01 40 01 40 01 40 02 40 01 40 01 40 00 40 01 40 02 40 02 40 02 40 02 40 01 40 01 40 02 40 01 A1 06 
2025-10-15 22:31:25.727 | TX | 0E 03 A2 C0 00 40 67 41 
2025-10-15 22:31:25.727 | RX | 0E 03 80 40 02 40 01 40 01 40 02 40 01 40 02 40 02 40 01 40 01 40 02 40 01 40 02 40 02 40 02 40 01 40 02 40 01 40 01 40 01 40 01 40 02 40 01 40 01 40 01 40 02 40 02 40 02 40 01 40 01 40 02 40 01 40 03 40 01 40 02 40 01 40 01 40 02 40 02 40 02 40 01 40 02 40 01 40 01 40 02 40 02 40 02 40 02 40 02 40 02 40 01 40 02 40 01 40 03 40 03 40 01 40 02 40 01 40 01 40 01 40 01 40 01 40 01 40 01 40 01 BA 47 
2025-10-15 22:31:25.758 | TX | 0E 03 A3 00 00 40 66 81 
2025-10-15 22:31:25.758 | RX | 0E 03 80 40 01 40 01 40 01 40 02 40 01 40 01 40 01 40 02 40 01 40 02 40 02 40 01 40 01 40 01 40 02 40 02 40 01 40 02 40 01 40 02 40 01 40 01 40 01 40 01 40 01 40 01 40 01 40 01 40 01 40 01 40 02 40 01 40 02 40 02 40 02 40 01 40 00 40 01 40 02 40 02 40 02 40 01 40 02 40 01 40 01 40 02 40 02 40 02 40 02 40 02 40 01 40 01 40 01 40 02 40 02 40 01 40 01 40 02 40 02 40 02 40 02 40 01 40 02 40 01 68 42 
2025-10-15 22:31:25.789 | TX | 0E 03 A3 40 00 40 67 55 
2025-10-15 22:31:25.789 | RX | 0E 03 80 40 01 40 00 40 01 40 02 40 02 40 02 40 01 40 02 40 02 40 01 40 02 40 02 40 02 40 02 40 01 40 03 40 01 40 01 40 02 40 02 40 02 40 01 40 02 40 02 40 02 40 01 40 02 40 01 40 01 40 02 40 02 40 01 40 02 40 01 40 01 40 03 40 01 40 02 40 02 40 02 40 01 40 01 40 02 40 01 40 02 40 01 40 01 40 02 40 01 40 01 40 01 40 02 40 02 40 01 40 01 40 01 40 02 40 01 40 01 40 02 40 02 40 01 40 00 40 02 26 DC 
2025-10-15 22:31:25.820 | TX | 0E 03 A3 80 00 40 67 69 
2025-10-15 22:31:25.820 | RX | 0E 03 80 40 01 40 01 40 02 40 02 40 03 40 01 40 01 40 03 40 02 40 01 40 02 40 02 40 01 40 02 40 01 40 02 40 01 40 01 40 01 40 01 40 02 40 01 40 01 40 02 40 02 40 02 40 01 40 02 40 01 40 01 40 01 40 02 40 02 40 02 40 01 40 02 40 01 40 02 40 00 40 01 40 02 40 02 40 02 40 03 40 03 40 01 40 01 40 02 40 02 40 02 40 02 40 02 40 02 40 02 40 02 40 01 40 01 40 01 40 01 40 02 40 01 40 02 40 01 40 02 C1 BD 
2025-10-15 22:31:25.851 | TX | 0E 03 A3 C0 00 40 66 BD 
2025-10-15 22:31:25.851 | RX | 0E 03 80 40 02 40 02 40 02 40 02 40 01 40 01 40 02 40 01 40 01 40 02 40 02 40 02 40 01 40 01 40 01 40 01 40 01 40 02 40 01 40 01 40 01 40 01 40 01 40 02 40 02 40 02 40 01 40 01 40 01 40 01 40 02 40 01 40 01 40 02 40 02 40 03 40 01 40 01 40 01 40 02 40 02 40 01 40 01 40 01 40 01 40 02 40 00 40 01 40 02 40 01 40 02 40 02 40 01 40 02 40 01 40 01 40 02 40 02 40 02 40 01 40 01 40 01 40 01 40 02 EB 6C 
2025-10-15 22:31:25.866 | TX | 0E 10 00 00 00 01 02 00 09 27 A6 
2025-10-15 22:31:25.867 | RX | 0E 10 00 00 00 01 01 36 
2025-10-15 22:31:25.898 | TX | 0E 03 A0 00 00 40 66 C5 
2025-10-15 22:31:25.898 | RX | 0E 03 80 00 1A 00 24 80 1A 40 0A 00 10 00 1B 00 1F 00 1D 00 1A 00 11 00 1C 00 20 00 18 00 1C 00 13 00 12 00 17 00 15 00 06 00 15 00 18 00 22 00 1D 00 14 00 17 00 22 00 1E 00 0C 40 0D 00 19 00 1B 40 1D 00 0C 00 15 00 1B 00 15 00 1F 00 15 00 10 00 16 00 20 00 1B 00 14 00 20 00 0D 00 12 00 20 00 19 00 1A 00 12 00 12 00 19 00 1B 00 21 00 0F 00 1C 00 1C 00 0B C0 11 00 0D 00 11 00 16 00 0A 00 17 C7 96 
2025-10-15 22:31:25.929 | TX | 0E 03 A0 40 00 40 67 11 
2025-10-15 22:31:25.929 | RX | 0E 03 80 00 18 00 21 00 20 00 10 00 11 00 1B 00 1C 00 07 00 11 00 21 00 20 00 11 00 19 00 1F 00 1C 00 16 00 24 00 18 40 20 40 1B 00 1B 00 18 00 1B 00 15 C0 14 00 0D 00 24 00 1F 00 22 00 09 00 1D 00 14 00 18 00 12 00 15 00 14 00 17 00 1F 00 16 00 17 00 1D 00 11 00 20 00 18 00 13 00 1A 00 0B 00 12 00 1E 00 20 00 17 E0 0F 00 13 00 16 00 19 00 1D 80 12 00 19 00 1F 00 2F 00 11 00 10 00 19 00 1A 82 0C 
2025-10-15 22:31:25.960 | TX | 0E 03 A0 80 00 40 67 2D 
2025-10-15 22:31:25.960 | RX | 0E 03 80 00 17 00 16 00 19 00 13 00 24 00 17 00 1A 00 1D 00 10 00 0D 00 10 00 09 00 1D 00 0E 00 0E 00 1F 00 1D 00 13 00 1F 00 18 00 17 00 14 00 27 00 1B 00 12 00 0E 00 1B 00 0D 00 18 C0 04 00 13 00 28 00 28 00 1E 00 17 00 18 00 1F 00 1E 00 25 00 18 00 13 00 0A 00 16 00 09 00 16 00 22 00 15 40 22 00 23 00 23 00 15 00 22 00 17 00 1F 00 16 00 0E 00 1E 00 1E 00 12 00 17 00 1C 00 0C 00 20 00 1C 0B 85 
2025-10-15 22:31:25.991 | TX | 0E 03 A0 C0 00 40 66 F9 
2025-10-15 22:31:25.991 | RX | 0E 03 80 00 1D 00 07 00 07 00 0E 00 22 C0 1D 00 19 00 1D 00 1E 00 1D 00 1F 00 16 00 20 00 20 00 1F 00 17 00 19 00 1A 00 1C 00 18 00 11 00 1B 00 20 00 25 00 1B 00 0C 00 17 00 0F 00 1A 00 1A 00 17 00 09 00 16 00 14 00 1B 00 1F 00 12 00 13 00 14 00 21 00 1B 00 1C 00 17 00 25 00 0F 00 18 40 0A 00 16 00 1B 00 21 00 0C 00 13 00 18 00 1C 00 17 00 17 00 19 00 1E 00 1F 00 0E 00 13 00 1C 00 1A 00 12 4A 53 
2025-10-15 22:31:26.022 | TX | 0E 03 A1 00 00 40 67 39 
2025-10-15 22:31:26.022 | RX | 0E 03 80 00 14 00 1D 00 0F 00 1F 00 1B 00 1C 00 1F 00 17 00 1E 00 23 00 15 00 1E 00 0E 00 1A 00 09 00 15 00 0D 00 0B 00 1C 00 19 00 26 00 17 00 1A 00 1E 00 1C 00 17 00 08 00 07 00 1B 40 19 00 12 00 1B 00 20 00 1B 00 28 00 17 00 11 00 1F 00 25 00 14 00 12 00 0C 00 11 00 12 00 1E 00 1E 00 17 00 26 40 26 00 22 00 10 00 1F 00 15 00 1C 00 1B 00 08 00 1E 00 1C 00 13 00 1C 00 00 00 0F 00 18 00 1B 38 F3 
2025-10-15 22:31:26.053 | TX | 0E 03 A1 40 00 40 66 ED 
2025-10-15 22:31:26.053 | RX | 0E 03 80 E0 0C 00 1B 00 16 00 27 00 22 00 20 00 1A 00 24 00 1E 00 1B 00 2C 00 0A 00 11 00 14 00 16 00 23 00 1A 00 1F 00 1B 00 1B 00 20 00 0D 00 15 00 11 00 20 00 22 00 0F 00 0C 00 11 00 0F 00 17 00 1B 00 14 00 21 00 1A 00 1F 00 19 00 1B 00 25 00 12 00 20 00 1D 00 20 40 1F 00 0A 00 1D 00 15 00 1B 00 20 40 21 00 13 00 1C 00 20 00 25 00 21 00 0F 00 14 00 15 00 18 00 1E 00 0F 00 15 00 13 00 21 8E A8 
2025-10-15 22:31:26.084 | TX | 0E 03 A1 80 00 40 66 D1 
2025-10-15 22:31:26.084 | RX | 0E 03 80 00 19 00 15 00 20 00 1A 00 21 00 0E 00 11 00 10 00 16 00 24 00 18 C0 11 40 0D 00 20 00 1E 40 2B 40 1D 00 1C 00 24 00 19 00 1E 00 12 00 16 40 1E 00 1C 00 0F 00 1E 00 18 00 17 60 1D 40 1C 00 0C 00 28 00 19 00 1E 00 1C 00 06 00 0B 00 18 00 14 00 1F 00 17 00 0A 00 12 00 17 00 14 00 1C 00 1D 00 20 00 1A 00 1D 00 08 00 10 00 1F 00 1C 40 15 E0 18 00 0F 00 1E 00 1E 00 0F 00 14 00 14 80 10 CB CC 
2025-10-15 22:31:26.115 | TX | 0E 03 A1 C0 00 40 67 05 
2025-10-15 22:31:26.116 | RX | 0E 03 80 00 10 00 0D 00 20 00 14 40 15 00 18 00 1E 00 13 00 1E 00 10 00 17 00 11 00 1A 00 22 00 24 00 1A 00 14 00 22 00 18 00 1A 00 22 00 1F 00 14 00 1C 00 19 00 1E 00 17 00 20 00 1D 00 0B 40 1C 00 17 00 1B 00 17 00 22 00 15 00 17 00 1F 00 23 00 1E 00 17 00 15 00 1C 00 21 00 22 00 16 00 27 00 27 00 1D 00 21 00 17 00 13 00 11 00 1D C0 0F 00 1C 00 20 00 21 00 15 00 0D 00 1F 00 15 00 14 00 1D 5A 72 
2025-10-15 22:31:26.145 | TX | 0E 03 A2 00 00 40 67 7D 
2025-10-15 22:31:26.146 | RX | 0E 03 80 40 02 40 02 40 02 40 02 40 02 40 02 40 01 40 01 40 01 40 01 40 01 40 01 40 02 40 02 40 02 40 02 40 02 40 02 40 02 40 02 40 02 40 02 40 02 40 02 40 02 40 02 40 02 40 02 40 01 40 01 40 01 40 01 40 01 40 01 40 01 40 01 40 01 40 01 40 01 40 00 40 00 40 00 40 00 40 00 40 00 40 01 40 01 40 01 40 01 40 01 40 02 40 02 40 02 40 02 40 02 40 02 40 02 40 02 40 02 40 01 40 01 40 02 40 02 40 02 12 56 
2025-10-15 22:31:26.176 | TX | 0E 03 A2 40 00 40 66 A9 
2025-10-15 22:31:26.177 | RX | 0E 03 80 40 02 40 02 40 02 40 02 40 02 40 02 40 02 40 02 40 02 40 02 40 02 40 02 40 02 40 01 40 01 40 01 40 01 40 01 40 01 40 01 40 01 40 01 40 01 40 01 40 01 40 01 40 01 40 01 40 00 40 00 40 01 40 01 40 01 40 02 40 02 40 02 40 02 40 02 40 02 40 02 40 01 40 01 40 01 40 01 40 01 40 01 40 01 40 01 40 01 40 01 40 01 40 01 40 01 40 01 40 02 40 02 40 01 40 01 40 01 40 01 40 01 40 01 40 01 40 01 14 11 
2025-10-15 22:31:26.207 | TX | 0E 03 A2 80 00 40 66 95 
2025-10-15 22:31:26.208 | RX | 0E 03 80 40 01 40 02 40 02 40 02 40 02 40 02 40 02 40 02 40 02 40 02 40 02 40 02 40 01 40 01 40 01 40 01 40 01 40 01 40 01 40 01 40 02 40 02 40 02 40 02 40 02 40 02 40 02 40 02 40 02 40 02 40 02 40 02 40 02 40 02 40 02 40 01 40 01 40 01 40 01 40 01 40 01 40 00 40 00 40 00 40 00 40 01 40 01 40 01 40 01 40 01 40 01 40 01 40 01 40 01 40 01 40 01 40 01 40 01 40 01 40 02 40 02 40 02 40 02 40 02 27 8B 
2025-10-15 22:31:26.239 | TX | 0E 03 A2 C0 00 40 67 41 
2025-10-15 22:31:26.239 | RX | 0E 03 80 40 02 40 02 40 01 40 01 40 01 40 01 40 01 40 01 40 01 40 01 40 01 40 01 40 01 40 01 40 02 40 02 40 02 40 02 40 02 40 02 40 02 40 02 40 02 40 02 40 02 40 02 40 02 40 02 40 02 40 02 40 02 40 02 40 02 40 02 40 02 40 02 40 02 40 02 40 02 40 02 40 02 40 02 40 02 40 02 40 02 40 02 40 01 40 01 40 01 40 01 40 01 40 02 40 02 40 02 40 02 40 02 40 01 40 01 40 01 40 01 40 01 40 01 40 01 40 02 10 E6 
2025-10-15 22:31:26.270 | TX | 0E 03 A3 00 00 40 66 81 
2025-10-15 22:31:26.270 | RX | 0E 03 80 40 02 40 02 40 02 40 02 40 02 40 02 40 02 40 02 40 02 40 02 40 02 40 02 40 02 40 02 40 02 40 02 40 02 40 01 40 01 40 01 40 01 40 01 40 01 40 01 40 01 40 01 40 01 40 01 40 01 40 01 40 01 40 01 40 01 40 01 40 02 40 02 40 02 40 03 40 03 40 03 40 03 40 03 40 03 40 03 40 03 40 02 40 02 40 02 40 02 40 02 40 02 40 02 40 01 40 01 40 01 40 01 40 01 40 01 40 01 40 01 40 01 40 01 40 01 40 01 28 28 
2025-10-15 22:31:26.301 | TX | 0E 03 A3 40 00 40 67 55 
2025-10-15 22:31:26.301 | RX | 0E 03 80 40 01 40 02 40 02 40 02 40 02 40 02 40 02 40 02 40 02 40 02 40 02 40 02 40 02 40 02 40 02 40 02 40 02 40 01 40 01 40 01 40 01 40 01 40 01 40 01 40 01 40 01 40 01 40 01 40 01 40 01 40 01 40 02 40 02 40 02 40 02 40 02 40 02 40 02 40 02 40 01 40 01 40 01 40 01 40 02 40 02 40 02 40 01 40 01 40 01 40 01 40 01 40 01 40 01 40 01 40 01 40 01 40 01 40 01 40 01 40 00 40 00 40 01 40 01 40 01 70 9E 
2025-10-15 22:31:26.331 | TX | 0E 03 A3 80 00 40 67 69 
2025-10-15 22:31:26.332 | RX | 0E 03 80 40 01 40 01 40 01 40 01 40 01 40 02 40 02 40 02 40 02 40 02 40 02 40 02 40 02 40 02 40 02 40 02 40 02 40 02 40 02 40 02 40 02 40 02 40 02 40 02 40 02 40 02 40 02 40 02 40 02 40 02 40 02 40 02 40 02 40 02 40 02 40 01 40 01 40 01 40 02 40 02 40 02 40 02 40 02 40 02 40 02 40 02 40 02 40 02 40 01 40 01 40 01 40 01 40 02 40 02 40 02 40 02 40 02 40 02 40 02 40 02 40 02 40 02 40 02 40 02 6B B9 
2025-10-15 22:31:26.362 | TX | 0E 03 A3 C0 00 40 66 BD 
2025-10-15 22:31:26.363 | RX | 0E 03 80 40 02 40 02 40 02 40 02 40 02 40 02 40 02 40 02 40 02 40 02 40 02 40 02 40 02 40 03 40 03 40 03 40 03 40 04 40 04 40 04 40 04 40 03 40 03 40 03 40 03 40 03 40 02 40 02 40 02 40 02 40 02 40 02 40 02 40 02 40 02 40 02 40 02 40 02 40 02 40 02 40 02 40 02 40 02 40 02 40 01 40 01 40 01 40 01 40 01 40 01 40 01 40 01 40 02 40 02 40 02 40 02 40 02 40 01 40 01 40 01 40 01 40 01 40 01 40 01 E2 1C 
2025-10-15 22:31:26.378 | TX | 0E 10 00 00 00 01 02 00 09 27 A6 
2025-10-15 22:31:26.379 | RX | 0E 10 00 00 00 01 01 36 
2025-10-15 22:31:26.413 | TX | 0E 03 A0 00 00 40 66 C5 
2025-10-15 22:31:26.414 | RX | 0E 03 80 00 1E 00 23 00 1B 00 1A 00 17 00 1B 00 16 40 23 00 1D 00 07 00 1F 00 19 00 1E 00 1C 00 17 00 1A 00 1E 00 11 00 1C 00 0D 00 13 00 17 00 17 00 18 00 15 00 0D 00 0D 00 19 00 18 00 1A 00 22 00 17 00 14 00 1A 00 1B 00 1A C0 0E 00 02 00 22 00 25 00 16 00 0E 00 0B 00 18 00 24 00 1A 00 15 00 16 00 13 00 15 00 14 00 12 00 20 00 1E 60 25 00 04 00 15 00 20 00 21 00 26 00 16 00 0B 00 18 00 22 BB 0E 
2025-10-15 22:31:26.446 | TX | 0E 03 A0 40 00 40 67 11 
2025-10-15 22:31:26.446 | RX | 0E 03 80 40 1A 00 18 00 15 00 17 00 17 00 14 00 19 00 16 00 1D 00 23 00 12 00 16 00 1A 00 16 00 04 00 19 00 1C 00 1F C0 19 00 0D 00 1A 00 21 00 20 40 1C 00 18 00 0C 00 19 00 18 00 1D 00 17 00 1A 00 11 00 13 00 19 00 1F 00 15 00 14 00 0B 00 17 00 1A 00 1F 00 1C 00 10 00 18 00 1B 00 0F 00 15 00 19 00 0D 00 0D 00 1C 00 12 00 18 00 18 00 24 00 14 00 1D 00 1D 00 17 40 0E 00 19 00 23 00 19 C0 06 4F 58 
2025-10-15 22:31:26.478 | TX | 0E 03 A0 80 00 40 67 2D 
2025-10-15 22:31:26.478 | RX | 0E 03 80 00 11 00 18 00 1E 00 20 C0 22 00 0E 00 1E 00 1F 00 17 00 15 00 12 00 22 40 17 00 1D 00 13 00 20 00 23 00 18 00 0E 00 1C 00 19 00 20 00 19 00 15 00 13 00 0E 00 10 00 14 00 18 00 0D 00 10 00 16 00 1D 00 1A 00 20 00 07 00 10 00 28 00 19 00 11 00 10 00 16 00 1C 00 11 40 11 40 13 00 21 40 1D 00 1E 00 1A 00 1F 00 1A 00 19 00 1A 00 17 00 15 00 23 00 17 40 1F 00 0E 00 15 40 24 E0 21 40 1F FF A4 
2025-10-15 22:31:26.509 | TX | 0E 03 A0 C0 00 40 66 F9 
2025-10-15 22:31:26.509 | RX | 0E 03 80 00 1D 00 1A 00 1D 00 1D 00 16 00 0D 00 20 00 1B 00 1D 00 21 40 18 00 1E 00 1E 00 1F 00 1E 00 11 00 1B 00 0D 00 24 00 21 00 1E 00 1E 00 11 00 15 00 18 00 22 00 24 00 14 00 06 00 17 00 18 00 15 00 0A 00 11 00 1C 00 13 00 1B 00 1C 00 1A 00 1A 00 1B 00 16 00 17 00 25 00 1C 00 1B 00 0A 00 0E 00 13 00 10 00 0C C0 06 40 09 00 23 80 23 00 1A 00 08 00 17 00 1A 00 1A 00 24 00 22 40 0D 00 10 94 96 
2025-10-15 22:31:26.539 | TX | 0E 03 A1 00 00 40 67 39 
2025-10-15 22:31:26.540 | RX | 0E 03 80 00 1F 00 19 00 18 00 20 00 10 00 19 00 15 00 1B 00 0C 00 12 00 13 00 22 00 1E 00 16 00 17 00 2A 00 1F 00 18 00 1E 00 19 40 1A 00 12 00 17 00 1B 00 1C 00 23 00 23 00 0F 00 15 00 27 00 23 00 16 00 1D 00 08 00 0C 00 12 00 18 00 18 00 18 00 15 00 11 00 26 00 0B 00 15 00 1F 00 12 00 12 00 19 00 19 00 15 00 14 00 11 00 0C 00 18 00 1C 00 1E 00 1D 00 13 00 1E 00 1A 00 21 00 10 00 16 00 15 BC B6 
2025-10-15 22:31:26.570 | TX | 0E 03 A1 40 00 40 66 ED 
2025-10-15 22:31:26.571 | RX | 0E 03 80 00 24 00 19 00 1B 00 16 00 1F 00 1A 00 19 00 17 00 12 00 09 00 16 00 1A 00 22 00 1A 00 20 00 12 00 0C 00 15 00 1E 00 14 00 0D 00 10 00 17 40 13 00 0C 00 1F 00 1B 00 12 00 1F 00 1C 00 1F 00 22 00 11 00 13 00 15 00 09 00 13 00 19 40 1E 40 15 00 12 E0 20 00 14 00 17 00 18 00 20 00 1C 00 28 00 1E 00 14 00 1C 00 15 00 1C 00 24 00 07 00 22 00 1B 00 18 00 0B 00 19 00 21 00 19 00 17 40 14 2F BE 
2025-10-15 22:31:26.601 | TX | 0E 03 A1 80 00 40 66 D1 
2025-10-15 22:31:26.602 | RX | 0E 03 80 00 25 00 18 00 15 00 1E 00 1C 00 1A 00 11 00 11 00 1A 00 11 00 12 00 13 00 20 00 14 00 1D 80 1F 00 0D 00 16 00 20 00 1B 00 18 00 1A 00 22 00 13 00 1C 00 13 00 1A 00 22 40 1F 00 17 00 10 00 0D 00 1A 00 15 00 22 00 14 00 0B 00 17 00 1C 00 1F 00 18 00 0F 00 1A 00 25 00 1B 00 24 00 18 00 1A 00 0D 00 1D 00 19 00 27 00 0B 00 16 00 14 00 14 C0 0F 00 12 00 19 00 23 00 0D 00 14 00 1F 00 1A C3 B1 
2025-10-15 22:31:26.632 | TX | 0E 03 A1 C0 00 40 67 05 
