2025-10-15 22:25:00.300 | TX | 0E 03 00 00 00 04 44 F6 
2025-10-15 22:25:00.300 | RX | 0E 03 08 00 00 00 01 00 00 2F 54 85 CC 
2025-10-15 22:25:00.316 | TX | 0E 03 00 00 00 04 44 F6 
2025-10-15 22:25:00.316 | RX | 0E 03 08 00 00 00 01 00 00 2F 54 85 CC 
2025-10-15 22:25:01.915 | TX | 0E 03 00 00 00 04 44 F6 
2025-10-15 22:25:01.915 | RX | 0E 03 08 00 00 00 01 00 00 2F 56 04 0D 
2025-10-15 22:25:01.931 | TX | 0E 03 00 00 00 04 44 F6 
2025-10-15 22:25:01.931 | RX | 0E 03 08 00 00 00 01 00 00 2F 56 04 0D 
2025-10-15 22:25:01.947 | TX | 0E 10 00 00 00 02 04 00 01 00 0A 12 7C 
2025-10-15 22:25:01.947 | RX | 0E 10 00 00 00 02 41 37 
2025-10-15 22:25:01.963 | TX | 0E 10 00 00 00 02 04 00 02 00 01 A3 BB 
2025-10-15 22:25:01.963 | RX | 0E 10 00 00 00 02 41 37 
2025-10-15 22:25:01.979 | TX | 0E 03 00 00 00 01 84 F5 
2025-10-15 22:25:01.979 | RX | 0E 03 02 00 00 EC 45 
2025-10-15 22:25:01.995 | TX | 0E 10 00 00 00 01 02 00 09 27 A6 
2025-10-15 22:25:01.995 | RX | 0E 10 00 00 00 01 01 36 
2025-10-15 22:25:02.011 | TX | 0E 03 00 00 00 01 84 F5 
2025-10-15 22:25:02.012 | RX | 0E 03 02 00 00 EC 45 
2025-10-15 22:25:02.027 | RX | 0E 10 00 00 00 01 01 36 
2025-10-15 22:25:02.027 | TX | 0E 10 00 00 00 01 02 00 09 27 A6 
2025-10-15 22:25:02.059 | RX | 0E 03 80 00 21 00 1B 00 18 00 12 00 1A 00 1E 00 17 00 22 00 20 00 15 00 02 00 17 00 19 00 12 00 1F 40 22 40 20 00 09 00 1A 00 21 00 18 00 10 00 0D 00 14 00 1D 00 15 00 1E 00 17 00 12 00 1C 00 1B 00 15 00 1D 00 0B 00 1F 00 15 00 13 00 14 00 10 00 0F 00 0C 00 10 00 07 00 0F 00 0E 00 21 00 22 00 17 00 1A 00 1F 00 13 00 21 00 13 00 11 00 18 00 17 40 14 00 19 00 24 00 19 00 20 00 19 00 19 00 1E 72 7C 
2025-10-15 22:25:02.059 | TX | 0E 03 A0 00 00 40 66 C5 
2025-10-15 22:25:02.092 | TX | 0E 03 A0 40 00 40 67 11 
2025-10-15 22:25:02.092 | RX | 0E 03 80 00 15 00 1B 00 0C 00 1A 00 0C 00 0B 00 15 00 17 00 23 00 1D 00 1D 00 16 00 20 00 0E 00 1D 00 1D 00 1B 00 12 00 17 00 1D 00 0E 40 10 40 10 00 12 00 1D 00 11 00 12 00 24 00 18 00 21 80 25 00 1C 00 1C 00 1A 00 1C 00 11 00 02 40 10 00 0F 00 1E 40 21 00 17 00 1C 00 20 00 12 00 20 00 12 40 21 00 17 00 1A 00 1F 00 1F 00 11 00 1E 00 12 00 13 00 0D 00 19 00 27 00 25 00 1C 00 1B 00 12 00 0C A3 80 
2025-10-15 22:25:02.124 | TX | 0E 03 A0 80 00 40 67 2D 
2025-10-15 22:25:02.125 | RX | 0E 03 80 C0 1C 00 0E 00 1B 00 1D 00 1F 00 1E 00 16 00 1E 00 25 00 18 00 1F 00 12 00 1F 00 18 00 17 00 15 80 1F C0 20 00 15 00 17 00 13 00 17 00 1A 00 21 00 12 00 15 00 17 00 10 00 0C 00 10 00 0A 00 11 00 25 00 1F 00 1E 00 1E 00 14 00 10 00 21 00 18 00 17 00 12 00 09 00 1C 00 12 00 10 00 1F 00 19 00 24 40 1B 00 23 00 24 00 22 00 18 00 13 00 12 00 17 00 16 00 1D 00 0F 00 0E 00 0F 00 1A 00 1E 9C A0 
2025-10-15 22:25:02.156 | TX | 0E 03 A0 C0 00 40 66 F9 
2025-10-15 22:25:02.157 | RX | 0E 03 80 00 16 00 0B 00 09 00 10 00 15 00 14 00 0F 00 11 00 19 00 1E 00 12 00 21 00 17 00 12 00 13 00 1C 00 1A 00 0C 00 0D 00 1B 00 15 00 13 00 11 00 16 40 0D 00 21 00 28 00 1E 00 1F 00 1F 00 1B 00 1F 00 12 00 17 00 23 E0 07 00 13 00 17 00 1B 00 1D 00 1B 00 1B 00 24 00 23 00 1B 00 19 00 1E 00 14 00 0E 00 15 00 0E 00 13 00 1B 00 1C 00 0E 00 1D 00 1E 00 22 00 13 00 16 00 1B 00 0B 00 0B 00 13 0F 5C 
2025-10-15 22:25:02.250 | TX | 0E 03 A1 00 00 40 67 39 
2025-10-15 22:25:02.251 | RX | 0E 03 80 40 19 00 1E 00 24 00 15 00 19 00 17 00 18 00 1B 00 1D 00 18 00 1B 00 13 00 19 00 1E 00 1B 00 12 00 19 00 0F 00 1B 00 20 00 1A 00 13 00 04 00 16 00 18 00 21 00 13 00 0D 00 1C 00 19 00 0F 00 16 00 1B 00 1A 00 15 00 15 00 16 00 21 00 17 40 0F 00 0A 00 10 00 0E 00 19 00 1B 00 1A 00 10 00 11 00 17 00 18 00 22 00 1C 00 0C 00 19 00 18 00 12 00 13 00 11 00 18 00 1A 00 14 00 1C 00 1B 00 19 D0 0A 
2025-10-15 22:25:02.283 | TX | 0E 03 A1 40 00 40 66 ED 
2025-10-15 22:25:02.283 | RX | 0E 03 80 00 11 C0 11 C0 16 00 1F 40 1C 00 25 00 1C 00 20 00 20 00 19 00 17 00 15 00 22 00 1F 00 05 00 17 00 17 00 1A 00 21 40 16 00 18 00 1D 00 1E 00 28 00 16 00 0C 00 12 00 10 00 12 00 1E 00 18 00 0C 00 0D 00 17 00 21 00 1A 00 1C 00 16 00 16 00 1D 00 1C 00 0C 00 11 00 1F 00 1A 00 11 00 15 00 18 00 17 00 18 00 18 00 1B 00 19 00 29 00 19 00 13 00 14 00 11 00 13 00 13 40 12 00 12 00 17 00 19 84 43 
2025-10-15 22:25:02.314 | TX | 0E 03 A1 80 00 40 66 D1 
2025-10-15 22:25:02.314 | RX | 0E 03 80 C0 20 60 12 00 13 00 1A 00 21 00 18 00 22 00 1E 00 22 00 1A 00 16 00 19 00 18 00 1A 00 12 00 17 00 17 00 20 00 1C 00 11 00 12 00 1B 00 13 00 24 00 1C 00 0E 00 12 00 0E 00 11 00 0E 00 19 00 0C 00 15 00 1B 00 1D 00 16 00 1F 00 0E 00 1C 00 19 00 16 00 17 00 0C 00 12 00 10 00 19 00 0D 40 11 00 18 00 23 00 23 40 1B 00 0E 00 1F 00 1D 00 1A 00 21 00 17 00 0B 00 15 00 14 00 1B 00 0E 00 12 C6 1C 
2025-10-15 22:25:02.346 | TX | 0E 03 A1 C0 00 40 67 05 
2025-10-15 22:25:02.346 | RX | 0E 03 80 00 17 00 0E 00 17 00 13 00 11 00 10 00 17 00 1B 40 20 00 16 00 1D 00 1D 00 14 00 17 00 19 00 23 00 15 00 1A 00 10 00 22 00 24 00 12 00 19 00 1B 00 0F 00 07 00 12 00 1A 00 17 00 1E 00 17 00 0D 00 16 00 1E 00 06 00 13 00 0F 00 10 00 13 00 11 00 0E 00 11 00 16 00 22 00 18 00 12 00 10 00 12 00 19 00 0D 00 1E 00 15 00 1C 00 1F 00 17 00 1A 00 1B 00 0A 00 16 40 22 00 15 00 1A 00 1A 00 0C CB 3A 
2025-10-15 22:25:02.378 | TX | 0E 03 A2 00 00 40 67 7D 
2025-10-15 22:25:02.378 | RX | 0E 03 80 40 02 40 01 40 02 40 02 40 01 40 01 40 01 40 02 40 02 40 01 40 02 40 01 40 02 40 02 40 02 40 02 40 01 40 01 40 01 40 02 40 02 40 02 40 01 40 02 40 01 40 02 40 01 40 01 40 01 40 02 40 02 40 01 40 02 40 03 40 01 40 02 40 02 40 02 40 01 40 01 40 02 40 02 40 01 40 02 40 01 40 01 40 02 40 01 40 02 40 02 40 02 40 02 40 01 40 02 40 02 40 02 40 01 40 02 40 01 40 02 40 01 40 02 40 03 40 01 83 F1 
2025-10-15 22:25:02.410 | TX | 0E 03 A2 40 00 40 66 A9 
2025-10-15 22:25:02.410 | RX | 0E 03 80 40 02 40 01 40 02 40 02 40 02 40 01 40 01 40 01 40 03 40 02 40 01 40 03 40 02 40 02 40 01 40 02 40 02 40 01 40 02 40 01 40 01 40 02 40 02 40 01 40 03 40 01 40 01 40 01 40 02 40 02 40 01 40 01 40 01 40 03 40 01 40 01 40 01 40 01 40 01 40 01 40 02 40 02 40 02 40 01 40 02 40 02 40 01 40 01 40 02 40 02 40 01 40 01 40 02 40 02 40 02 40 02 40 02 40 01 40 02 40 02 40 02 40 02 40 01 40 02 C2 79 
2025-10-15 22:25:02.442 | TX | 0E 03 A2 80 00 40 66 95 
2025-10-15 22:25:02.443 | RX | 0E 03 80 40 02 40 01 40 02 40 02 40 01 40 01 40 02 40 02 40 02 40 01 40 01 40 01 40 01 40 02 40 02 40 01 40 02 40 02 40 02 40 02 40 01 40 03 40 01 40 01 40 02 40 02 40 01 40 02 40 01 40 02 40 01 40 01 40 01 40 02 40 01 40 01 40 01 40 02 40 02 40 02 40 02 40 02 40 02 40 01 40 01 40 02 40 02 40 02 40 02 40 03 40 01 40 01 40 01 40 01 40 02 40 02 40 01 40 02 40 02 40 01 40 02 40 02 40 01 40 01 42 5F 
2025-10-15 22:25:02.475 | TX | 0E 03 A2 C0 00 40 67 41 
2025-10-15 22:25:02.476 | RX | 0E 03 80 40 01 40 01 40 02 40 02 40 01 40 02 40 02 40 02 40 01 40 02 40 01 40 01 40 02 40 02 40 01 40 01 40 01 40 01 40 02 40 02 40 01 40 01 40 03 40 01 40 02 40 02 40 02 40 02 40 01 40 03 40 01 40 01 40 02 40 02 40 01 40 02 40 01 40 01 40 02 40 01 40 01 40 00 40 02 40 02 40 02 40 02 40 02 40 02 40 02 40 02 40 01 40 02 40 02 40 02 40 00 40 01 40 01 40 01 40 01 40 02 40 02 40 01 40 01 40 02 34 DC 
2025-10-15 22:25:02.508 | TX | 0E 03 A3 00 00 40 66 81 
2025-10-15 22:25:02.508 | RX | 0E 03 80 40 01 40 01 40 01 40 02 40 01 40 02 40 01 40 03 40 01 40 01 40 03 40 03 40 01 40 02 40 03 40 01 40 01 40 01 40 02 40 01 40 02 40 01 40 02 40 03 40 01 40 02 40 02 40 01 40 02 40 01 40 02 40 01 40 01 40 01 40 01 40 01 40 02 40 02 40 01 40 01 40 02 40 01 40 01 40 01 40 02 40 02 40 02 40 02 40 01 40 02 40 02 40 02 40 01 40 01 40 01 40 02 40 02 40 02 40 01 40 02 40 02 40 02 40 02 40 02 80 09 
2025-10-15 22:25:02.541 | TX | 0E 03 A3 40 00 40 67 55 
2025-10-15 22:25:02.541 | RX | 0E 03 80 40 01 40 02 40 01 40 01 40 01 40 02 40 02 40 01 40 03 40 01 40 02 40 01 40 01 40 02 40 03 40 01 40 02 40 01 40 01 40 01 40 03 40 03 40 01 40 02 40 02 40 03 40 02 40 01 40 02 40 02 40 01 40 01 40 01 40 01 40 01 40 02 40 01 40 01 40 01 40 02 40 02 40 01 40 02 40 01 40 01 40 02 40 01 40 01 40 02 40 00 40 02 40 02 40 01 40 02 40 02 40 02 40 01 40 01 40 02 40 02 40 01 40 02 40 02 40 02 B2 81 
2025-10-15 22:25:02.573 | TX | 0E 03 A3 80 00 40 67 69 
2025-10-15 22:25:02.573 | RX | 0E 03 80 40 01 40 02 40 01 40 02 40 02 40 01 40 02 40 02 40 02 40 01 40 01 40 02 40 01 40 01 40 02 40 01 40 01 40 01 40 01 40 01 40 02 40 03 40 02 40 01 40 01 40 02 40 02 40 03 40 02 40 01 40 01 40 02 40 01 40 02 40 02 40 02 40 01 40 01 40 01 40 02 40 01 40 02 40 02 40 01 40 01 40 02 40 02 40 01 40 02 40 01 40 01 40 02 40 00 40 02 40 01 40 01 40 01 40 02 40 02 40 02 40 01 40 02 40 01 40 01 CD 93 
2025-10-15 22:25:02.605 | TX | 0E 03 A3 C0 00 40 66 BD 
2025-10-15 22:25:02.606 | RX | 0E 03 80 40 02 40 03 40 02 40 01 40 02 40 01 40 02 40 01 40 01 40 01 40 02 40 01 40 01 40 01 40 01 40 02 40 03 40 01 40 01 40 02 40 02 40 02 40 01 40 03 40 01 40 02 40 02 40 01 40 01 40 01 40 02 40 02 40 01 40 01 40 01 40 01 40 02 40 01 40 02 40 01 40 02 40 03 40 01 40 01 40 02 40 02 40 02 40 01 40 02 40 02 40 01 40 01 40 02 40 02 40 01 40 02 40 02 40 02 40 01 40 02 40 02 40 01 40 01 40 02 91 FD 
2025-10-15 22:25:02.637 | TX | 0E 10 00 00 00 01 02 00 09 27 A6 
2025-10-15 22:25:02.638 | RX | 0E 10 00 00 00 01 01 36 
2025-10-15 22:25:02.670 | TX | 0E 03 A0 00 00 40 66 C5 
2025-10-15 22:25:02.671 | RX | 0E 03 80 00 12 00 1D 00 15 00 1A 00 16 00 15 00 13 00 16 00 0A 00 0E 00 10 00 11 00 0E 00 11 00 14 00 22 00 27 00 13 00 1F 00 18 00 20 00 0F 00 0E 00 19 00 23 00 0E 00 17 00 1E 00 1D 80 1A 00 21 00 0F 00 16 00 24 00 23 00 13 00 1D 00 16 00 08 00 16 00 12 00 11 00 1D 00 13 00 16 00 1C 00 16 00 1B 00 16 00 21 40 1C 00 15 00 12 00 1D 00 1C 80 09 C0 0D 00 11 00 21 00 29 40 2A 00 10 00 1A 00 19 83 C6 
2025-10-15 22:25:02.703 | TX | 0E 03 A0 40 00 40 67 11 
2025-10-15 22:25:02.704 | RX | 0E 03 80 00 11 00 17 00 13 00 14 00 21 00 20 00 16 00 16 00 0F 00 12 00 14 00 1A 00 14 00 08 00 1E 00 16 00 19 00 1B 00 1E 00 14 00 1F 00 22 00 16 00 20 00 18 00 24 40 13 00 18 00 11 00 27 00 22 00 23 00 18 00 1A 00 21 00 1B 00 24 00 22 00 15 00 0D 00 19 00 1A 00 0E 00 16 00 0F 00 1A 00 15 00 1A 00 1E 00 12 00 16 00 1C 00 27 00 28 00 1E 00 03 00 12 00 25 00 13 00 1F 00 1B 00 17 00 24 00 1C D3 E3 
2025-10-15 22:25:02.736 | TX | 0E 03 A0 80 00 40 67 2D 
2025-10-15 22:25:02.737 | RX | 0E 03 80 00 13 00 14 00 15 00 17 00 18 00 1A 00 1B 00 1C 00 1C 00 1C 00 1C 00 1B 00 1A 00 19 00 18 00 17 00 16 00 15 00 15 00 14 00 14 00 15 00 15 00 16 00 17 00 19 00 19 00 1A 00 19 00 18 00 17 00 16 00 14 00 13 00 13 00 12 00 12 00 13 00 14 00 15 00 17 00 1A 00 1C 00 1E 00 20 00 21 00 22 00 22 00 21 00 21 00 20 00 20 00 1E 00 1C 00 1A 00 18 00 16 00 15 00 15 00 15 00 16 00 17 00 18 00 1A 3B 66 
2025-10-15 22:25:02.768 | TX | 0E 03 A0 C0 00 40 66 F9 
2025-10-15 22:25:02.768 | RX | 0E 03 80 00 1B 00 1C 00 1D 00 1D 00 1C 00 1C 00 1B 00 19 00 17 00 15 00 14 00 13 00 14 00 15 00 16 00 18 00 1A 00 1C 00 1D 00 1E 00 1E 00 1D 00 1C 00 1A 00 19 00 17 00 16 00 14 00 13 00 12 00 11 00 10 00 0F 00 0E 00 0E 00 0E 00 0F 00 0F 00 10 00 10 00 11 00 13 00 15 00 17 00 19 00 1B 00 1C 00 1D 00 1D 00 1D 00 1D 00 1D 00 1C 00 1D 00 1D 00 1E 00 20 00 21 00 22 00 23 00 24 00 25 00 25 00 25 65 BA 
2025-10-15 22:25:02.800 | TX | 0E 03 A1 00 00 40 67 39 
2025-10-15 22:25:02.800 | RX | 0E 03 80 00 25 00 24 00 23 00 21 00 1F 00 1D 00 1B 00 1A 00 19 00 19 00 19 00 1A 00 1C 00 1D 00 1D 00 1D 00 1D 00 1D 00 1D 00 1D 00 1D 00 1D 00 1E 00 1E 00 1E 00 1D 00 1B 00 19 00 17 00 16 00 14 00 13 00 12 00 12 00 11 00 10 00 10 00 10 00 0F 00 0F 00 0F 00 0F 00 0F 00 10 00 11 00 12 00 13 00 14 00 15 00 15 00 14 00 13 00 11 00 10 00 0F 00 0F 00 0F 00 11 00 13 00 15 00 16 00 18 00 19 00 1A C4 9D 
2025-10-15 22:25:02.833 | TX | 0E 03 A1 40 00 40 66 ED 
2025-10-15 22:25:02.833 | RX | 0E 03 80 00 1B 00 1C 00 1D 00 1E 00 1F 00 1F 00 20 00 21 00 22 00 23 00 24 00 25 00 26 00 26 00 26 00 26 00 25 00 22 00 20 00 1C 00 19 00 16 00 13 00 11 00 11 00 11 00 12 00 13 00 16 00 18 00 1A 00 1B 00 1C 00 1B 00 1A 00 18 00 17 00 17 00 17 00 17 00 18 00 18 00 17 00 16 00 14 00 13 00 11 00 10 00 10 00 11 00 12 00 14 00 15 00 16 00 16 00 16 00 15 00 14 00 12 00 11 00 11 00 11 00 12 00 13 85 72 
2025-10-15 22:25:02.866 | TX | 0E 03 A1 80 00 40 66 D1 
2025-10-15 22:25:02.866 | RX | 0E 03 80 00 15 00 17 00 19 00 1B 00 1D 00 1F 00 21 00 22 00 23 00 23 00 23 00 22 00 21 00 20 00 1F 00 1E 00 1D 00 1D 00 1D 00 1C 00 1C 00 1C 00 1C 00 1B 00 1B 00 1B 00 1B 00 1C 00 1C 00 1D 00 1D 00 1C 00 1A 00 19 00 16 00 14 00 12 00 10 00 0F 00 0F 00 0F 00 11 00 13 00 15 00 17 00 19 00 1B 00 1C 40 1D 40 1D 40 1D 40 1D 40 1C 40 1C 00 1B 00 1A 00 1A 00 19 00 19 00 19 00 18 00 17 00 17 00 16 25 8D 
2025-10-15 22:25:02.898 | TX | 0E 03 A1 C0 00 40 67 05 
2025-10-15 22:25:02.898 | RX | 0E 03 80 00 16 00 15 00 15 00 15 00 14 00 15 00 15 00 15 00 15 00 16 00 16 00 16 00 16 00 16 00 16 00 16 00 17 00 18 00 19 00 1A 00 1A 00 1A 00 1A 00 1A 00 1A 00 1A 00 1A 00 1B 00 1C 00 1D 00 1E 00 1F 00 20 00 21 00 21 00 21 00 22 00 23 00 24 00 25 00 26 00 27 00 27 00 27 00 26 00 25 00 24 00 22 00 20 00 1E 00 1B 00 18 00 14 00 11 00 0E 00 0B 00 0A 40 09 40 09 40 09 40 0A 40 0C 40 0E 40 11 8A 60 
2025-10-15 22:25:02.930 | TX | 0E 03 A2 00 00 40 67 7D 
2025-10-15 22:25:02.930 | RX | 0E 03 80 40 03 40 02 40 02 40 02 40 02 40 02 40 02 40 02 40 02 40 02 40 02 40 01 40 01 40 01 40 01 40 01 40 01 40 01 40 01 40 02 40 02 40 02 40 02 40 01 40 01 40 01 40 02 40 02 40 02 40 02 40 01 40 01 40 01 40 01 40 01 40 01 40 01 40 01 40 01 40 01 40 02 40 02 40 01 40 01 40 01 40 01 40 01 40 01 40 01 40 01 40 02 40 01 40 01 40 01 40 01 40 01 40 01 40 01 40 01 40 01 40 01 40 01 40 01 40 01 7A D1 
2025-10-15 22:25:02.962 | TX | 0E 03 A2 40 00 40 66 A9 
2025-10-15 22:25:02.962 | RX | 0E 03 80 40 01 40 01 40 01 40 02 40 02 40 02 40 01 40 01 40 01 40 01 40 01 40 01 40 02 40 02 40 02 40 03 40 03 40 03 40 03 40 02 40 02 40 02 40 02 40 01 40 01 40 01 40 01 40 01 40 02 40 02 40 03 40 03 40 03 40 02 40 02 40 02 40 02 40 02 40 02 40 02 40 02 40 02 40 02 40 02 40 02 40 02 40 02 40 02 40 02 40 02 40 02 40 02 40 01 40 01 40 01 40 01 40 02 40 02 40 01 40 01 40 01 40 01 40 01 40 01 D5 A6 
2025-10-15 22:25:02.994 | TX | 0E 03 A2 80 00 40 66 95 
2025-10-15 22:25:02.995 | RX | 0E 03 80 40 02 40 02 40 02 40 02 40 02 40 02 40 02 40 02 40 02 40 02 40 02 40 02 40 02 40 02 40 02 40 02 40 02 40 02 40 02 40 02 40 02 40 02 40 02 40 03 40 03 40 02 40 02 40 02 40 02 40 02 40 02 40 02 40 02 40 02 40 02 40 02 40 02 40 02 40 02 40 02 40 02 40 02 40 02 40 02 40 01 40 01 40 01 40 01 40 01 40 01 40 02 40 02 40 02 40 02 40 02 40 02 40 02 40 02 40 02 40 02 40 01 40 01 40 01 40 01 A4 AB 
2025-10-15 22:25:03.025 | TX | 0E 03 A2 C0 00 40 67 41 
2025-10-15 22:25:03.026 | RX | 0E 03 80 40 01 40 01 40 01 40 01 40 01 40 02 40 02 40 02 40 02 40 03 40 03 40 03 40 03 40 03 40 03 40 02 40 02 40 02 40 02 40 02 40 01 40 01 40 01 40 01 40 01 40 01 40 01 40 01 40 01 40 01 40 01 40 01 40 01 40 02 40 02 40 02 40 02 40 02 40 02 40 02 40 02 40 02 40 02 40 02 40 02 40 02 40 02 40 01 40 01 40 01 40 01 40 01 40 01 40 02 40 02 40 02 40 02 40 02 40 02 40 02 40 02 40 02 40 02 40 02 90 81 
2025-10-15 22:25:03.059 | TX | 0E 03 A3 00 00 40 66 81 
2025-10-15 22:25:03.059 | RX | 0E 03 80 40 02 40 02 40 02 40 02 40 02 40 02 40 02 40 03 40 03 40 02 40 02 40 02 40 01 40 01 40 01 40 01 40 01 40 01 40 01 40 01 40 01 40 01 40 01 40 01 40 01 40 01 40 01 40 01 40 01 40 01 40 01 40 01 40 02 40 02 40 02 40 02 40 02 40 01 40 01 40 00 40 00 40 01 40 01 40 02 40 02 40 02 40 02 40 02 40 02 40 02 40 02 40 02 40 02 40 02 40 02 40 02 40 02 40 02 40 01 40 01 40 01 40 01 40 01 40 01 1F 4C 
2025-10-15 22:25:03.092 | TX | 0E 03 A3 40 00 40 67 55 
2025-10-15 22:25:03.093 | RX | 0E 03 80 40 01 40 01 40 01 40 01 40 01 40 02 40 01 40 01 40 01 40 01 40 01 40 01 40 01 40 01 40 01 40 01 40 01 40 01 40 01 40 01 40 01 40 01 40 01 40 01 40 01 40 01 40 01 40 01 40 01 40 01 40 01 40 01 40 02 40 02 40 02 40 02 40 02 40 02 40 02 40 02 40 02 40 02 40 02 40 02 40 02 40 02 40 02 40 02 40 02 40 01 40 01 40 01 40 01 40 02 40 02 40 01 40 01 40 01 40 01 40 01 40 01 40 01 40 01 40 01 37 FB 
2025-10-15 22:25:03.125 | TX | 0E 03 A3 80 00 40 67 69 
2025-10-15 22:25:03.125 | RX | 0E 03 80 40 01 40 01 40 01 40 01 40 01 40 01 40 01 40 01 40 01 40 02 40 02 40 02 40 02 40 02 40 02 40 02 40 02 40 02 40 02 40 02 40 02 40 02 40 02 40 01 40 01 40 01 40 01 40 01 40 01 40 00 40 00 40 01 40 01 40 01 40 02 40 02 40 02 40 02 40 02 40 02 40 02 40 02 40 02 40 02 40 02 40 01 40 01 40 01 40 02 40 02 40 02 40 01 40 01 40 01 40 01 40 01 40 01 40 01 40 02 40 02 40 02 40 02 40 02 40 02 C7 32 
2025-10-15 22:25:03.157 | TX | 0E 03 A3 C0 00 40 66 BD 
2025-10-15 22:25:03.157 | RX | 0E 03 80 40 02 40 02 40 02 40 03 40 03 40 03 40 02 40 02 40 02 40 01 40 01 40 01 40 01 40 02 40 02 40 02 40 02 40 02 40 02 40 02 40 02 40 01 40 01 40 01 40 01 40 01 40 01 40 01 40 01 40 01 40 01 40 01 40 01 40 01 40 01 40 01 40 01 40 01 40 02 40 02 40 02 40 02 40 02 40 01 40 01 40 01 40 01 40 01 40 02 40 02 40 02 40 02 40 02 40 02 40 02 40 02 40 02 40 02 40 02 40 02 40 02 40 02 40 02 40 02 1E DF 
2025-10-15 22:25:03.173 | TX | 0E 10 00 00 00 01 02 00 09 27 A6 
2025-10-15 22:25:03.173 | RX | 0E 10 00 00 00 01 01 36 
2025-10-15 22:25:03.205 | TX | 0E 03 A0 00 00 40 66 C5 
2025-10-15 22:25:03.206 | RX | 0E 03 80 00 12 00 0F 00 12 00 13 00 16 00 0B 00 0C 00 0F 00 21 00 1A 00 1A 00 1D 00 2A 00 24 00 1D 00 18 00 11 00 0E 00 15 00 13 00 1A 00 0E 00 19 00 18 00 0F 00 0B 00 12 00 1B 00 1F 00 13 00 1D 00 0C 00 10 00 13 00 0D 00 16 00 1E 00 0C 00 13 00 22 00 28 00 16 00 14 00 1B 00 1E 00 25 00 1E 00 1E 00 17 00 1A 00 1E 00 1B 00 23 00 11 00 16 00 10 00 16 00 19 00 19 40 20 80 1C C0 1D 00 18 00 22 D9 87 
2025-10-15 22:25:03.237 | TX | 0E 03 A0 40 00 40 67 11 
2025-10-15 22:25:03.238 | RX | 0E 03 80 00 17 00 18 00 1A 00 11 00 08 00 22 00 18 00 1F 00 1B 00 13 00 1B 00 1D 00 28 00 21 00 15 00 08 00 08 00 18 00 1B 00 08 C0 19 40 13 00 22 40 1D 00 15 00 1A 00 18 00 22 00 18 00 22 00 1E 00 27 00 17 00 0C 00 0B 00 12 00 1F 00 1A 00 1A 00 24 00 1F 00 12 00 0F 00 20 00 1F 00 14 00 15 00 0C 00 1B 00 1F 00 12 C0 0A 40 13 00 1A 40 19 00 21 00 2A 00 1F 00 1A 00 17 00 15 00 19 00 28 00 11 A1 CA 
2025-10-15 22:25:03.271 | TX | 0E 03 A0 80 00 40 67 2D 
2025-10-15 22:25:03.271 | RX | 0E 03 80 00 16 00 22 00 2A 00 18 00 15 00 21 00 17 40 17 40 0D 00 22 00 1C 00 1C 00 0C 00 14 00 1B 00 1D 00 1E 80 27 00 12 00 20 00 26 00 12 00 12 00 14 00 23 00 0D 00 1B 00 16 00 29 00 14 00 1E 00 19 00 0E 00 17 00 23 00 1D 00 22 00 0E 00 12 00 11 00 13 00 1A 00 0D 00 13 00 1A 00 1D 00 19 00 1A 00 15 00 22 00 21 00 1E 00 12 00 1A 00 0D 00 11 00 1A 00 16 00 14 00 17 00 16 00 20 00 16 00 20 F6 F4 
2025-10-15 22:25:03.304 | TX | 0E 03 A0 C0 00 40 66 F9 
2025-10-15 22:25:03.305 | RX | 0E 03 80 40 1A 00 14 00 14 40 1E 40 1E 00 15 00 19 00 20 00 14 00 1A 40 1F 40 17 00 13 00 1D 00 1B 00 1D 00 20 00 18 00 0D 00 18 00 21 00 1D 00 1F 00 20 00 13 00 16 00 1A 00 14 00 19 00 14 00 0D 00 18 00 0C 00 19 00 1D 40 07 00 18 00 22 00 1B 00 1E 00 1D 00 0C 00 12 00 1D 00 1F 00 18 C0 12 00 12 00 1F 00 20 40 0F 00 19 00 20 00 23 00 21 00 20 00 1B 00 19 40 1C 00 17 00 16 00 1C 00 10 00 19 81 3D 
2025-10-15 22:25:03.337 | TX | 0E 03 A1 00 00 40 67 39 
2025-10-15 22:25:03.338 | RX | 0E 03 80 00 14 00 06 00 21 00 0C 00 15 00 23 00 0C 00 1B 00 1C 00 1E 00 28 00 1F 00 18 00 1A 00 1A 00 21 00 19 00 1B 00 1B 00 12 00 10 00 19 00 21 00 19 00 22 00 23 00 0C 00 1D 00 0E 00 20 00 1F 00 0F 00 0D 00 1C 00 1C 00 10 00 12 00 22 00 16 00 16 00 20 00 19 00 20 00 0F 00 19 00 1E 00 18 40 0F 00 14 00 1B 00 16 00 1B 00 15 00 15 00 25 00 1B 00 1E 00 16 00 1D 00 1B 00 19 00 0F 00 11 00 23 3E AB 
2025-10-15 22:25:03.370 | TX | 0E 03 A1 40 00 40 66 ED 
2025-10-15 22:25:03.371 | RX | 0E 03 80 00 10 C0 14 00 0D 00 24 00 22 00 1A 00 1A 00 22 00 16 00 20 00 0E 00 12 00 20 C0 29 00 0B 00 0F 00 18 00 1D 00 24 00 19 00 1D 00 14 00 19 00 21 00 23 00 14 00 0B 00 19 00 14 00 1B 00 1B 00 12 00 18 00 0F 00 15 00 1F 00 24 00 12 00 20 00 1A 00 1C 00 11 00 13 00 05 00 19 00 0F 00 14 00 1C 40 11 00 16 00 1F 00 20 00 23 00 1E 00 1E 00 24 00 11 00 24 00 12 00 0C 00 11 00 23 00 22 00 1F 6A 09 
2025-10-15 22:25:03.402 | TX | 0E 03 A1 80 00 40 66 D1 
2025-10-15 22:25:03.403 | RX | 0E 03 80 40 1C 00 1D 00 23 00 1C 00 0D 00 15 00 1E 00 17 00 20 00 17 00 16 00 16 00 1F 00 0D 00 19 00 23 00 1B 00 14 00 1A 00 0D 00 17 00 18 00 1B 00 13 00 1B 00 12 00 1B 00 15 00 19 00 12 00 1E 00 10 00 1A 00 1D 00 23 00 17 00 0F 00 13 00 20 00 13 40 10 00 22 00 13 00 19 00 20 00 11 00 1D 00 21 00 22 00 1F 00 22 40 17 00 10 00 1F 00 10 00 19 00 1D 00 11 00 13 00 26 00 11 00 20 00 1E 00 12 6A 56 
2025-10-15 22:25:03.435 | TX | 0E 03 A1 C0 00 40 67 05 
2025-10-15 22:25:03.436 | RX | 0E 03 80 00 16 00 17 00 1B 00 15 00 16 00 1C 00 21 00 12 00 0E 00 0D 00 17 00 17 00 1E 00 03 00 10 00 1C 00 1F 00 0D 40 15 C0 17 00 23 40 21 80 1A 00 1C 00 19 00 1A 00 14 00 09 00 20 40 23 00 1A 00 05 00 1A 00 14 00 16 00 21 40 1D 00 21 00 1C 00 1B 00 19 00 17 00 1C 00 0F 00 1B 00 11 00 1D 00 12 00 17 00 04 00 1F 00 17 00 1E 00 19 00 16 00 1E 00 26 00 1B 00 0A 00 15 00 1A 00 18 20 17 00 11 73 42 
2025-10-15 22:25:03.467 | TX | 0E 03 A2 00 00 40 67 7D 
2025-10-15 22:25:03.468 | RX | 0E 03 80 40 01 40 01 40 02 40 01 40 03 40 01 40 02 40 02 40 01 40 01 40 02 40 02 40 01 40 02 40 01 40 01 40 02 40 01 40 02 40 02 40 01 40 01 40 02 40 01 40 01 40 02 40 01 40 01 40 01 40 02 40 01 40 01 40 02 40 03 40 02 40 01 40 02 40 02 40 02 40 00 40 02 40 01 40 01 40 01 40 01 40 01 40 01 40 02 40 01 40 01 40 02 40 02 40 02 40 01 40 02 40 02 40 02 40 02 40 01 40 01 40 01 40 02 40 02 40 02 05 6D 
2025-10-15 22:25:03.500 | TX | 0E 03 A2 40 00 40 66 A9 
2025-10-15 22:25:03.514 | RX | 0E 03 80 40 03 40 01 40 01 40 01 40 02 40 02 40 02 40 02 40 02 40 02 40 02 40 02 40 01 40 02 40 01 40 01 40 02 40 01 40 02 40 02 40 03 40 02 40 02 40 01 40 02 40 01 40 01 40 01 40 01 40 02 40 02 40 01 40 02 40 01 40 01 40 02 40 01 40 01 40 01 40 02 40 02 40 02 40 02 40 02 40 01 40 02 40 01 40 02 40 02 40 02 40 02 40 01 40 02 40 01 40 03 40 02 40 00 40 02 40 01 40 02 40 02 40 02 40 01 40 02 5A 2D 
2025-10-15 22:25:03.553 | TX | 0E 03 A2 80 00 40 66 95 
2025-10-15 22:25:03.553 | RX | 0E 03 80 40 02 40 01 40 02 40 02 40 01 40 00 40 01 40 00 40 01 40 01 40 01 40 02 40 02 40 01 40 01 40 02 
2025-10-15 22:25:03.554 | RX | 40 02 40 01 40 01 40 02 40 02 40 01 40 01 40 01 40 00 40 02 40 01 40 02 40 02 40 02 40 01 40 02 40 02 40 02 40 03 40 01 40 02 40 03 40 02 40 01 40 01 40 01 40 01 40 02 40 01 40 01 40 01 40 02 40 01 40 02 40 02 40 02 40 01 40 02 40 01 40 01 40 01 40 01 40 02 40 01 40 01 40 02 40 01 40 01 C1 95 
2025-10-15 22:25:03.586 | TX | 0E 03 A2 C0 00 40 67 41 
2025-10-15 22:25:03.586 | RX | 0E 03 80 40 01 40 02 40 02 40 02 40 02 40 02 40 02 40 02 40 02 40 01 40 01 40 02 40 02 40 02 40 02 40 02 40 02 40 02 40 02 40 02 40 02 40 03 40 03 40 03 40 03 40 02 40 02 40 02 40 02 40 02 40 02 40 02 40 02 40 01 40 01 40 01 40 01 40 01 40 02 40 02 40 02 40 02 40 02 40 02 40 02 40 01 40 01 40 01 40 01 40 01 40 01 40 01 40 01 40 02 40 02 40 02 40 02 40 02 40 02 40 02 40 02 40 02 40 02 40 02 EA CE 
2025-10-15 22:25:03.619 | TX | 0E 03 A3 00 00 40 66 81 
2025-10-15 22:25:03.619 | RX | 0E 03 80 40 02 40 02 40 02 40 02 40 01 40 01 40 01 40 01 40 01 40 02 40 02 40 02 40 02 40 02 40 01 40 01 40 01 40 01 40 01 40 01 40 01 40 02 40 02 40 01 40 01 40 01 40 01 40 01 40 00 40 00 40 01 40 01 40 01 40 01 40 01 40 01 40 01 40 01 40 01 40 01 40 01 40 01 40 01 40 01 40 01 40 01 40 01 40 01 40 02 40 02 40 02 40 02 40 02 40 02 40 01 40 01 40 01 40 01 40 01 40 01 40 01 40 01 40 01 40 01 61 DC 
2025-10-15 22:25:03.653 | TX | 0E 03 A3 40 00 40 67 55 
2025-10-15 22:25:03.653 | RX | 0E 03 80 40 02 40 02 40 02 40 02 40 02 40 02 40 02 40 01 40 01 40 01 40 01 40 01 40 01 40 01 40 01 40 01 40 01 40 01 40 01 40 01 40 01 40 01 40 01 40 02 40 02 40 02 40 02 40 02 40 02 40 02 40 02 40 02 40 02 40 02 40 02 40 02 40 02 40 02 40 02 40 01 40 01 40 01 40 01 40 01 40 01 40 01 40 01 40 01 40 01 40 01 40 01 40 01 40 01 40 02 40 02 40 02 40 02 40 02 40 02 40 02 40 02 40 02 40 02 40 02 55 1B 
2025-10-15 22:25:03.685 | TX | 0E 03 A3 80 00 40 67 69 
2025-10-15 22:25:03.686 | RX | 0E 03 80 40 02 40 02 40 02 40 02 40 02 40 02 40 02 40 02 40 02 40 03 40 03 40 03 40 03 40 03 40 03 40 03 40 03 40 02 40 02 40 02 40 02 40 02 40 02 40 02 40 02 40 02 40 02 40 02 40 02 40 02 40 02 40 02 40 02 40 02 40 02 40 02 40 02 40 01 40 01 40 01 40 01 40 01 40 01 40 01 40 01 40 02 40 02 40 02 40 02 40 02 40 02 40 02 40 02 40 02 40 02 40 02 40 02 40 02 40 01 40 01 40 01 40 01 40 01 40 02 DB D2 
2025-10-15 22:25:03.717 | TX | 0E 03 A3 C0 00 40 66 BD 
2025-10-15 22:25:03.718 | RX | 0E 03 80 40 02 40 01 40 01 40 01 40 01 40 01 40 01 40 01 40 01 40 01 40 01 40 01 40 01 40 02 40 02 40 02 40 02 40 02 40 02 40 02 40 02 40 02 40 02 40 02 40 02 40 02 40 02 40 02 40 01 40 01 40 02 40 02 40 02 40 02 40 02 40 02 40 02 40 02 40 02 40 02 40 01 40 01 40 01 40 01 40 01 40 01 40 01 40 01 40 01 40 02 40 02 40 02 40 02 40 02 40 02 40 01 40 01 40 01 40 01 40 01 40 01 40 01 40 01 40 01 33 55 
2025-10-15 22:25:03.733 | TX | 0E 10 00 00 00 01 02 00 09 27 A6 
2025-10-15 22:25:03.734 | RX | 0E 10 00 00 00 01 01 36 
2025-10-15 22:25:03.765 | TX | 0E 03 A0 00 00 40 66 C5 
2025-10-15 22:25:03.766 | RX | 0E 03 80 C0 1A 00 14 00 08 00 1C 00 20 00 1E 00 17 00 16 00 1B 00 18 00 18 00 15 00 0B 00 18 00 23 00 23 00 1B 00 0D 00 1B 00 1D 00 1A 80 17 00 14 00 11 00 19 00 18 00 12 80 14 40 16 00 19 00 27 C0 1F 40 18 00 1B 00 15 00 1E 00 1C 00 12 00 17 00 0F 00 12 00 19 00 1B 00 1B 00 16 00 1A 00 15 00 1D 00 27 00 21 00 21 00 17 00 19 00 0B 00 10 00 13 00 16 00 15 40 14 00 11 00 19 00 1F 00 17 40 18 F8 81 
2025-10-15 22:25:03.799 | TX | 0E 03 A0 40 00 40 67 11 
2025-10-15 22:25:03.799 | RX | 0E 03 80 00 11 00 1C 00 20 00 21 00 17 00 1F 00 15 00 1E 00 17 00 15 00 13 00 00 00 22 00 13 00 0D 00 16 00 10 60 2A 00 1E 00 14 00 20 00 2C 00 17 00 1B 00 20 00 10 40 0B 00 1D 00 1B 00 0D 00 1E 00 14 00 1C 00 11 00 0F 00 13 00 16 00 0F 00 14 00 1C 00 14 00 14 00 1A 00 1B 00 14 00 19 00 13 00 1C 00 1B 40 0C 40 1B 00 20 00 1A 00 1A 00 1A 00 12 00 1A 00 1E 40 0F 00 0B 00 0E 00 16 00 16 00 18 5E 68 
2025-10-15 22:25:03.832 | TX | 0E 03 A0 80 00 40 67 2D 
2025-10-15 22:25:03.832 | RX | 0E 03 80 00 0C 00 0D 00 18 00 22 00 20 00 18 00 0E 00 24 00 19 00 1B 00 1D 00 15 00 1A 00 1F 00 17 00 0F 00 13 00 17 00 19 00 11 80 0D 40 0C 00 25 00 1E 00 18 00 0F 00 1C 00 1C 00 17 00 18 00 14 00 1B 00 14 00 19 00 12 00 10 00 0F 00 19 00 19 00 1B 00 1F 00 14 00 24 00 22 00 0A 00 1A 00 15 00 19 00 14 00 1A 00 0F 00 12 00 15 00 15 00 1E 00 14 00 1A 00 1B 00 18 C0 16 40 1A 00 14 00 1B 00 1A 0F B0 
2025-10-15 22:25:03.864 | TX | 0E 03 A0 C0 00 40 66 F9 
2025-10-15 22:25:03.864 | RX | 0E 03 80 00 1B 00 1D 00 1F 00 1B 00 17 00 20 00 1D 00 1B C0 12 00 13 00 1C 00 22 00 18 00 1B 40 14 00 1A 00 18 00 1B 00 14 00 11 00 16 00 1D 00 1C 00 0E 00 19 00 1F C0 19 00 11 00 1A 00 26 00 18 00 16 00 13 00 11 00 15 00 18 00 16 00 1D 00 09 00 14 00 16 00 1B 00 20 00 1D 00 11 00 17 00 23 00 17 00 18 00 13 00 0B 00 14 00 1D 00 14 00 10 00 12 00 21 00 26 00 12 40 15 00 1C 00 18 00 15 00 0D 97 68 
2025-10-15 22:25:03.895 | TX | 0E 03 A1 00 00 40 67 39 
2025-10-15 22:25:03.896 | RX | 0E 03 80 00 0D 00 0E 00 21 40 23 40 1C 00 12 00 1D 00 13 00 1B 00 14 00 1B 00 24 00 18 00 11 00 1C 00 19 00 1B 00 1A 00 23 00 15 00 1C 00 1C 00 1B 00 1F 00 12 00 22 00 23 00 19 00 10 60 10 00 18 00 13 00 17 00 1C 00 18 00 1F 00 21 00 1C 00 19 00 19 00 19 00 09 00 14 00 0F 00 22 00 0F 00 1B 00 22 00 19 00 1F 00 1E 00 21 00 0F 00 2B 00 20 00 1E 00 0E 00 12 00 1C 00 11 00 15 40 10 00 20 00 22 1E 83 
2025-10-15 22:25:03.927 | TX | 0E 03 A1 40 00 40 66 ED 
2025-10-15 22:25:03.928 | RX | 0E 03 80 00 13 00 1B 00 1F 00 17 00 1A 00 1C 00 13 00 19 00 21 40 1A 00 09 00 15 00 1C 00 27 40 19 00 0E 00 1B 00 17 00 20 00 1F 00 1B 00 1B 40 17 00 20 00 1E 00 0E 00 18 00 17 00 16 00 13 00 12 00 14 00 1C 00 23 00 1A 00 0C 00 22 00 1D 00 18 00 18 00 13 00 10 00 1C 00 1C 00 18 00 13 00 07 00 10 00 1B 00 12 00 18 00 1A 00 11 00 1F 00 18 00 14 00 15 00 13 00 10 00 1C 00 1B 40 17 00 17 00 18 50 0B 
2025-10-15 22:25:03.959 | TX | 0E 03 A1 80 00 40 66 D1 
2025-10-15 22:25:03.960 | RX | 0E 03 80 00 22 00 1A 00 16 80 0B 00 1B 00 1E 00 1F 00 1F 00 1D 00 1E 00 14 00 0E 00 19 00 1A C0 1E 40 1B 00 13 00 17 00 20 00 23 40 18 40 23 00 07 00 1C 00 25 00 16 00 1A 00 15 00 12 00 16 00 22 00 14 00 1B 00 21 00 19 00 1C 00 1E 00 20 00 22 00 1D 00 07 00 1C 00 08 00 13 00 16 00 17 40 12 00 14 00 1B 00 1E 00 1D 00 1A 00 19 00 1A 00 21 00 1C 00 1B 00 14 00 10 00 17 00 0F 40 19 40 16 00 20 4F 40 
2025-10-15 22:25:03.991 | TX | 0E 03 A1 C0 00 40 67 05 
2025-10-15 22:25:03.992 | RX | 0E 03 80 00 13 00 11 00 14 00 0D 00 09 00 13 00 16 00 11 00 17 00 0D 40 14 00 19 00 15 00 23 00 1A 00 09 00 16 00 14 00 1F 00 07 00 17 00 1C 00 18 00 13 00 0F 00 1E 00 1D 00 1E 00 17 00 23 00 21 00 1F 00 20 00 11 00 11 00 1A 00 16 00 22 00 16 00 16 00 25 00 1C 00 14 00 15 00 12 00 10 00 15 00 20 00 21 00 1A 00 1C 00 13 00 1C 00 24 00 1C 00 12 00 1D 00 13 00 18 00 24 00 10 00 23 00 1C 00 14 58 21 
2025-10-15 22:25:04.024 | TX | 0E 03 A2 00 00 40 67 7D 
2025-10-15 22:25:04.024 | RX | 0E 03 80 40 01 40 01 40 01 40 02 40 01 40 01 40 01 40 01 40 01 40 02 40 01 40 01 40 01 40 02 40 02 40 01 40 01 40 02 40 01 40 03 40 01 40 01 40 01 40 01 40 02 40 01 40 01 40 02 40 01 40 02 40 02 40 01 40 01 40 02 40 02 40 01 40 02 40 01 40 02 40 00 40 03 40 01 40 01 40 02 40 01 40 02 40 02 40 01 40 02 40 01 40 02 40 02 40 02 40 01 40 01 40 02 40 02 40 01 40 02 40 01 40 02 40 01 40 02 40 01 FA 70 
2025-10-15 22:25:04.055 | TX | 0E 03 A2 40 00 40 66 A9 
2025-10-15 22:25:04.056 | RX | 0E 03 80 40 01 40 01 40 01 40 02 40 01 40 01 40 01 40 01 40 01 40 01 40 01 40 01 40 01 40 02 40 02 40 01 40 02 40 02 40 02 40 02 40 02 40 01 40 02 40 02 40 01 40 01 40 02 40 01 40 02 40 01 40 02 40 01 40 01 40 01 40 02 40 02 40 01 40 01 40 01 40 02 40 02 40 02 40 00 40 02 40 01 40 01 40 01 40 02 40 01 40 03 40 02 40 01 40 02 40 01 40 00 40 01 40 02 40 02 40 01 40 01 40 02 40 01 40 03 40 03 11 0B 
2025-10-15 22:25:04.089 | TX | 0E 03 A2 80 00 40 66 95 
2025-10-15 22:25:04.089 | RX | 0E 03 80 40 01 40 00 40 01 40 01 40 02 40 01 40 00 40 01 40 01 40 00 40 01 40 01 40 02 40 01 40 02 40 02 40 02 40 01 40 02 40 01 40 02 40 03 40 02 40 02 40 01 40 03 40 02 40 01 40 01 40 01 40 02 40 02 40 02 40 03 40 02 40 01 40 01 40 02 40 02 40 02 40 04 40 01 40 00 40 02 40 02 40 02 40 02 40 02 40 02 40 02 40 02 40 02 40 01 40 01 40 00 40 01 40 02 40 01 40 03 40 01 40 01 40 02 40 02 40 01 E5 BD 
2025-10-15 22:25:04.122 | TX | 0E 03 A2 C0 00 40 67 41 
2025-10-15 22:25:04.123 | RX | 0E 03 80 40 02 40 02 40 02 40 01 40 02 40 02 40 01 40 02 40 01 40 02 40 01 40 02 40 01 40 02 40 01 40 01 40 02 40 01 40 02 40 01 40 03 40 02 40 02 40 01 40 02 40 02 40 02 40 03 40 01 40 01 40 01 40 02 40 01 40 01 40 01 40 02 40 02 40 02 40 00 40 01 40 02 40 02 40 02 40 02 40 02 40 02 40 03 40 01 40 00 40 01 40 01 40 02 40 02 40 02 40 01 40 01 40 02 40 01 40 02 40 01 40 01 40 02 40 02 40 01 69 13 
2025-10-15 22:25:04.154 | TX | 0E 03 A3 00 00 40 66 81 
2025-10-15 22:25:04.155 | RX | 0E 03 80 40 01 40 00 40 02 40 01 40 01 40 01 40 02 40 02 40 02 40 01 40 01 40 00 40 02 40 01 40 01 40 02 40 01 40 02 40 01 40 02 40 01 40 01 40 01 40 02 40 02 40 02 40 01 40 01 40 01 40 01 40 02 40 01 40 02 40 02 40 02 40 02 40 02 40 03 40 02 40 02 40 01 40 01 40 02 40 02 40 01 40 02 40 00 40 02 40 02 40 01 40 02 40 02 40 03 40 02 40 02 40 01 40 02 40 02 40 01 40 01 40 02 40 01 40 01 40 01 24 37 
2025-10-15 22:25:04.188 | TX | 0E 03 A3 40 00 40 67 55 
2025-10-15 22:25:04.189 | RX | 0E 03 80 40 01 40 02 40 01 40 01 40 01 40 01 40 01 40 01 40 03 40 02 40 01 40 02 40 00 40 01 40 01 40 01 40 01 40 01 40 01 40 02 40 01 40 01 40 02 40 02 40 01 40 01 40 01 40 02 40 03 40 01 40 01 40 01 40 01 40 01 40 01 40 01 40 01 40 01 40 01 40 01 40 01 40 03 40 02 40 02 40 01 40 02 40 02 40 01 40 01 40 01 40 01 40 01 40 01 40 01 40 01 40 01 40 01 40 01 40 01 40 02 40 01 40 01 40 01 40 01 10 A2 
2025-10-15 22:25:04.221 | TX | 0E 03 A3 80 00 40 67 69 
2025-10-15 22:25:04.221 | RX | 0E 03 80 40 01 40 00 40 01 40 01 40 02 40 02 40 02 40 02 40 01 40 03 40 02 40 02 40 02 40 01 40 02 40 02 40 01 40 01 40 00 40 02 40 02 40 02 40 01 40 02 40 01 40 01 40 01 40 02 40 02 40 02 40 02 40 01 40 02 40 01 40 02 40 02 40 01 40 01 40 01 40 01 40 02 40 02 40 02 40 01 40 02 40 01 40 01 40 01 40 01 40 01 40 02 40 01 40 01 40 02 40 02 40 01 40 00 40 01 40 01 40 02 40 02 40 01 40 03 40 02 25 69 
2025-10-15 22:25:04.254 | TX | 0E 03 A3 C0 00 40 66 BD 
2025-10-15 22:25:04.254 | RX | 0E 03 80 40 02 40 02 40 02 40 02 40 01 40 03 40 02 40 01 40 01 40 02 40 01 40 02 40 00 40 01 40 02 40 01 40 02 40 02 40 02 40 00 40 02 40 01 40 02 40 01 40 02 40 02 40 01 40 01 40 01 40 01 40 02 40 02 40 01 40 01 40 01 40 01 40 02 40 01 40 02 40 01 40 03 40 01 40 01 40 02 40 01 40 02 40 02 40 02 40 01 40 02 40 01 40 01 40 01 40 02 40 01 40 01 40 02 40 01 40 00 40 01 40 02 40 01 40 01 40 02 ED BC 
2025-10-15 22:25:04.286 | TX | 0E 10 00 00 00 01 02 00 09 27 A6 
2025-10-15 22:25:04.286 | RX | 0E 10 00 00 00 01 01 36 
2025-10-15 22:25:04.318 | TX | 0E 03 A0 00 00 40 66 C5 
2025-10-15 22:25:04.318 | RX | 0E 03 80 00 1D 00 1A 00 18 00 1D 00 1C 00 27 00 1D 00 0F 00 1A 00 19 00 1D 00 1E 00 0E 00 24 00 1D 00 23 00 1B 00 11 00 08 00 16 00 1D 00 12 00 0A 00 0C 00 1E 00 19 00 10 00 10 00 13 40 1E 00 25 00 13 00 20 00 26 00 18 40 12 00 13 00 11 00 20 00 12 C0 0C 00 09 00 1A 00 14 40 17 40 1D 00 11 00 21 00 13 00 1A 00 0E 00 12 00 1D 00 12 00 07 00 1F 00 18 00 1D 00 22 40 21 00 10 00 14 00 26 00 25 1D 00 
2025-10-15 22:25:04.350 | TX | 0E 03 A0 40 00 40 67 11 
2025-10-15 22:25:04.350 | RX | 0E 03 80 00 1D 00 1E 00 16 00 2D 00 19 00 0F 00 20 00 20 00 15 00 11 00 14 00 17 00 1C 00 12 00 0A 00 21 00 2C 00 18 00 1E 00 19 00 17 00 12 00 16 00 1A 00 13 00 0F 00 1F 00 1B 00 14 40 10 00 18 00 24 00 0D 00 18 00 0F 00 17 00 1A 00 16 00 15 00 0D 00 13 00 16 00 0E E0 13 40 0E 00 1C 00 22 00 1B 00 1E 00 1F 00 18 00 1A 00 1B 00 14 00 17 00 22 00 1A 00 1F 00 1E 00 15 00 18 00 18 00 12 00 18 B6 79 
2025-10-15 22:25:04.381 | TX | 0E 03 A0 80 00 40 67 2D 
2025-10-15 22:25:04.381 | RX | 0E 03 80 00 12 00 24 00 25 00 23 00 14 00 1C 00 26 00 1B 00 18 00 1D 00 1A 00 12 00 26 00 19 00 13 00 20 40 22 00 14 00 1A 00 21 00 21 00 19 00 13 00 07 00 19 00 12 00 1C 00 14 00 0A 00 07 00 1E 00 1A 00 1A 00 15 00 16 00 11 00 21 00 1F E0 10 00 18 00 19 00 1E 00 22 00 12 00 18 00 17 00 17 00 1C 00 19 00 22 00 20 00 14 00 14 00 1D 00 1C 80 2B E0 1C 00 1A 00 18 00 15 00 22 00 12 00 15 00 1A D7 1E 
2025-10-15 22:25:04.414 | TX | 0E 03 A0 C0 00 40 66 F9 
2025-10-15 22:25:04.414 | RX | 0E 03 80 00 14 00 15 00 15 00 14 00 14 00 14 00 14 00 14 00 16 00 17 00 18 00 19 00 1A 00 1A 00 1A 00 19 00 19 00 19 00 18 00 18 00 18 00 18 00 19 00 1A 00 1B 00 1C 00 1C 00 1C 00 1C 00 1C 00 1C 00 1C 00 1C 00 1C 00 1D 00 1D 00 1D 00 1C 00 1C 00 1B 00 1A 00 19 00 19 00 19 00 19 00 1A 00 1B 00 1D 00 1E 00 1F 00 1F 00 1F 00 1F 00 1F 00 1E 00 1D 00 1C 00 1B 00 1A 00 19 00 19 00 19 00 18 00 18 70 7D 
2025-10-15 22:25:04.446 | TX | 0E 03 A1 00 00 40 67 39 
2025-10-15 22:25:04.446 | RX | 0E 03 80 00 17 00 15 00 13 00 10 00 0E 00 0B 00 09 00 08 00 07 00 07 00 08 00 0B 00 0E 00 12 00 17 00 1B 00 1E 00 20 40 21 40 20 40 20 40 1F 40 1F 40 1E 40 1E 40 1E 40 1F 40 1F 40 1F 40 1F 40 1F 40 1F 40 1E 00 1E 00 1D 00 1D 00 1D 00 1C 00 1C 00 1C 00 1D 00 1D 00 1E 00 1E 00 1F 00 1E 00 1D 00 1C 00 1A 00 19 00 18 00 17 00 17 00 18 00 18 00 19 00 1A 00 1B 00 1B 00 1A 00 19 00 18 00 17 00 16 7E 9B 
2025-10-15 22:25:04.478 | TX | 0E 03 A1 40 00 40 66 ED 
2025-10-15 22:25:04.478 | RX | 0E 03 80 00 16 00 16 00 16 00 17 00 17 00 18 00 18 00 17 00 16 00 16 00 16 00 16 00 17 00 17 00 18 00 18 00 18 00 18 00 17 00 15 00 14 00 11 00 0F 00 0D 00 0C 00 0B 00 0B 00 0B 00 0C 00 0E 00 0F 00 11 00 13 00 15 00 17 00 19 00 1B 00 1D 00 1E 00 1F 00 1F 00 1E 00 1C 00 1B 00 1A 00 19 00 19 00 19 00 1B 00 1D 00 1F 00 21 00 22 00 22 00 21 00 20 00 1F 00 1F 00 1E 00 1E 00 1E 00 1E 00 1E 00 1E DC D8 
2025-10-15 22:25:04.510 | TX | 0E 03 A1 80 00 40 66 D1 
2025-10-15 22:25:04.510 | RX | 0E 03 80 00 1E 00 1E 00 1E 00 1D 00 1D 00 1D 00 1C 00 1C 00 1B 00 1B 00 1A 00 19 00 18 00 17 00 16 00 15 00 15 00 15 00 15 00 16 00 18 00 1A 00 1B 00 1C 00 1D 00 1D 00 1C 00 1C 00 1C 00 1B 00 1A 00 19 00 18 00 17 00 17 00 16 00 14 00 12 00 10 00 0F 00 0E 00 0D 00 0E 00 0F 00 11 00 14 00 17 00 1B 00 1F 00 21 00 23 00 23 40 22 40 21 00 1F 00 1D 00 1C 00 1B 00 1B 00 1C 00 1E 00 20 00 22 00 24 A7 D2 
2025-10-15 22:25:04.541 | TX | 0E 03 A1 C0 00 40 67 05 
2025-10-15 22:25:04.541 | RX | 0E 03 80 00 25 00 25 00 25 00 25 00 25 00 24 00 24 00 24 00 23 00 22 00 21 00 1F 00 1E 00 1D 00 1C 00 1B 00 1A 00 19 00 17 00 15 00 13 00 11 00 10 00 0F 00 0F 00 0F 00 0F 00 0F 00 0F 00 10 00 11 00 12 00 14 00 15 00 17 00 18 00 18 00 18 00 18 00 17 00 16 00 16 00 17 00 18 00 1A 00 1C 00 1D 00 1E 00 1D 00 1C 00 19 00 16 00 13 00 11 00 0E 00 0E 00 0E 00 0F 00 10 00 11 00 12 00 12 00 13 00 14 27 84 
2025-10-15 22:25:04.574 | TX | 0E 03 A2 00 00 40 67 7D 
2025-10-15 22:25:04.574 | RX | 0E 03 80 40 01 40 01 40 01 40 01 40 01 40 01 40 01 40 02 40 02 40 02 40 02 40 02 40 02 40 02 40 02 40 02 40 02 40 02 40 02 40 02 40 02 40 02 40 02 40 02 40 02 40 02 40 02 40 02 40 02 40 01 40 01 40 01 40 01 40 01 40 01 40 01 40 01 40 01 40 02 40 02 40 02 40 02 40 02 40 02 40 02 40 02 40 02 40 02 40 02 40 02 40 02 40 02 40 02 40 02 40 02 40 02 40 02 40 02 40 01 40 01 40 01 40 01 40 01 40 01 B8 4D 
2025-10-15 22:25:04.606 | TX | 0E 03 A2 40 00 40 66 A9 
2025-10-15 22:25:04.607 | RX | 0E 03 80 40 01 40 01 40 01 40 01 40 01 40 02 40 02 40 01 40 01 40 01 40 01 40 01 40 01 40 01 40 01 40 01 40 01 40 01 40 01 40 01 40 01 40 02 40 02 40 02 40 02 40 01 40 01 40 01 40 01 40 01 40 01 40 01 40 01 40 01 40 01 40 01 40 01 40 02 40 02 40 02 40 03 40 02 40 02 40 02 40 03 40 03 40 03 40 03 40 03 40 02 40 02 40 02 40 01 40 01 40 01 40 01 40 01 40 02 40 02 40 01 40 01 40 01 40 02 40 02 5D A2 
2025-10-15 22:25:04.639 | TX | 0E 03 A2 80 00 40 66 95 
2025-10-15 22:25:04.639 | RX | 0E 03 80 40 02 40 02 40 02 40 02 40 02 40 02 40 01 40 01 40 01 40 01 40 01 40 01 40 01 40 01 40 01 40 01 40 01 40 01 40 01 40 01 40 01 40 01 40 01 40 01 40 01 40 01 40 01 40 01 40 01 40 01 40 02 40 02 40 02 40 02 40 02 40 02 40 01 40 01 40 01 40 01 40 01 40 01 40 01 40 01 40 02 40 02 40 02 40 02 40 01 40 01 40 01 40 01 40 01 40 01 40 01 40 01 40 02 40 02 40 02 40 03 40 03 40 03 40 03 40 03 11 29 
2025-10-15 22:25:04.671 | TX | 0E 03 A2 C0 00 40 67 41 
2025-10-15 22:25:04.672 | RX | 0E 03 80 40 03 40 03 40 02 40 02 40 02 40 02 40 02 40 02 40 02 40 02 40 02 40 02 40 02 40 02 40 02 40 02 40 02 40 02 40 01 40 01 40 01 40 01 40 01 40 01 40 01 40 01 40 01 40 01 40 01 40 01 40 01 40 01 40 02 40 02 40 02 40 01 40 01 40 01 40 01 40 01 40 01 40 01 40 02 40 02 40 02 40 02 40 02 40 02 40 02 40 02 40 02 40 01 40 01 40 01 40 01 40 01 40 01 40 02 40 02 40 02 40 02 40 02 40 02 40 01 AE 0E 
2025-10-15 22:25:04.704 | TX | 0E 03 A3 00 00 40 66 81 
2025-10-15 22:25:04.705 | RX | 0E 03 80 40 01 40 01 40 01 40 01 40 01 40 01 40 01 40 01 40 02 40 02 40 01 40 01 40 01 40 01 40 01 40 01 40 01 40 01 40 01 40 01 40 01 40 02 40 01 40 01 40 01 40 01 40 01 40 01 40 01 40 01 40 01 40 01 40 01 40 01 40 01 40 01 40 01 40 01 40 01 40 01 40 01 40 01 40 01 40 01 40 01 40 01 40 01 40 01 40 01 40 01 40 01 40 01 40 01 40 01 40 01 40 02 40 02 40 02 40 02 40 02 40 02 40 03 40 03 40 03 0F C4 
2025-10-15 22:25:04.737 | TX | 0E 03 A3 40 00 40 67 55 
2025-10-15 22:25:04.738 | RX | 0E 03 80 40 02 40 02 40 02 40 02 40 02 40 01 40 01 40 01 40 02 40 02 40 02 40 02 40 02 40 02 40 02 40 02 40 02 40 02 40 02 40 02 40 02 40 02 40 02 40 02 40 02 40 02 40 02 40 02 40 02 40 02 40 02 40 02 40 02 40 02 40 02 40 02 40 02 40 02 40 02 40 02 40 02 40 02 40 02 40 02 40 02 40 01 40 01 40 01 40 02 40 02 40 02 40 02 40 02 40 02 40 02 40 02 40 02 40 02 40 02 40 02 40 02 40 02 40 02 40 01 DD 74 
2025-10-15 22:25:04.769 | TX | 0E 03 A3 80 00 40 67 69 
2025-10-15 22:25:04.770 | RX | 0E 03 80 40 01 40 01 40 01 40 01 40 01 40 01 40 01 40 01 40 01 40 01 40 01 40 02 40 02 40 01 40 01 40 01 40 01 40 01 40 01 40 01 40 01 40 01 40 01 40 01 40 01 40 01 40 01 40 01 40 01 40 01 40 01 40 01 40 01 40 01 40 01 40 01 40 01 40 01 40 00 40 00 40 00 40 00 40 00 40 01 40 00 40 00 40 01 40 01 40 01 40 01 40 01 40 01 40 01 40 01 40 01 40 01 40 02 40 02 40 02 40 02 40 01 40 01 40 01 40 01 83 2E 
2025-10-15 22:25:04.801 | TX | 0E 03 A3 C0 00 40 66 BD 
2025-10-15 22:25:04.802 | RX | 0E 03 80 40 01 40 01 40 01 40 01 40 01 40 01 40 01 40 01 40 00 40 00 40 00 40 01 40 01 40 01 40 01 40 01 40 01 40 01 40 01 40 01 40 01 40 00 40 00 40 00 40 01 40 01 40 01 40 01 40 01 40 01 40 01 40 01 40 01 40 01 40 01 40 01 40 02 40 02 40 02 40 02 40 02 40 02 40 02 40 02 40 02 40 02 40 02 40 02 40 02 40 02 40 02 40 02 40 02 40 02 40 02 40 01 40 01 40 01 40 01 40 01 40 01 40 01 40 01 40 02 3F 03 
2025-10-15 22:25:04.833 | TX | 0E 10 00 00 00 01 02 00 09 27 A6 
2025-10-15 22:25:04.834 | RX | 0E 10 00 00 00 01 01 36 
2025-10-15 22:25:04.865 | TX | 0E 03 A0 00 00 40 66 C5 
2025-10-15 22:25:04.865 | RX | 0E 03 80 00 14 00 16 00 1E 00 20 00 09 00 18 00 18 00 1E 00 12 00 13 00 1E 00 10 00 0A C0 10 00 1F 00 25 40 19 00 1C 00 1B 00 18 00 1D 00 1C 00 1B 00 18 00 22 40 16 00 18 00 14 00 11 00 18 C0 26 00 1B 00 20 00 22 00 24 00 20 00 1A 00 15 00 0E 00 0F 00 15 00 11 00 14 00 16 00 18 00 21 00 23 00 19 00 0F 00 13 00 2A 00 19 00 08 00 11 00 13 00 1F 40 12 E0 12 00 11 00 18 00 11 00 19 00 0E 40 0C 15 19 
2025-10-15 22:25:04.897 | TX | 0E 03 A0 40 00 40 67 11 
2025-10-15 22:25:04.897 | RX | 0E 03 80 00 1A 00 0F 00 14 00 1C 00 19 00 13 00 0A 00 20 40 1C 00 1C 00 1E 00 19 00 19 00 1C 00 22 00 12 00 1D 00 18 00 19 00 15 00 1E 00 15 00 19 00 12 00 1C 00 22 00 14 00 25 00 16 00 10 00 1D 00 18 00 16 00 10 00 1E 00 12 00 18 00 0E 00 16 00 13 00 14 00 19 00 1F 00 13 00 17 00 16 00 07 00 1B 00 12 00 12 00 11 00 15 00 13 00 25 00 1D 00 16 00 14 00 1B 00 18 00 10 00 16 00 13 00 18 00 19 0D ED 
2025-10-15 22:25:04.929 | TX | 0E 03 A0 80 00 40 67 2D 
2025-10-15 22:25:04.930 | RX | 0E 03 80 00 17 00 23 00 12 00 12 00 15 00 2E 00 19 00 1D 00 0A 00 23 00 19 00 15 00 14 00 10 00 19 00 13 00 16 00 1E 00 26 00 08 00 1C 00 1D 00 1E 00 1C 00 1B 00 1E 00 10 00 25 00 1F 00 17 00 03 00 14 00 19 C0 28 E0 0C 40 17 00 18 00 1A 00 21 00 1D 40 1E 00 20 00 1B 00 1F 00 23 00 1C 00 18 00 0D 00 1F 00 0D 00 18 00 11 00 1E 00 1C 00 0F 00 15 00 0C 00 14 00 0F 00 1F 00 0F 00 0F 00 12 00 1C B3 95 
2025-10-15 22:25:04.961 | TX | 0E 03 A0 C0 00 40 66 F9 
2025-10-15 22:25:04.962 | RX | 0E 03 80 C0 14 00 13 00 15 00 1A 00 20 00 1A 40 12 00 1E 00 19 00 1F 00 18 00 1F 00 22 00 12 00 1B 00 18 00 22 00 1D 00 13 00 14 00 1F 00 17 00 19 00 17 00 1C 00 1D 00 14 00 10 00 09 00 23 00 1B 00 06 00 1B 00 1E 00 1D 00 0D 00 1F 00 28 00 1A 00 1D 00 19 00 08 00 1B 00 1C 00 13 00 10 00 10 00 16 00 19 C0 1C 00 11 00 1A 00 15 00 1F 00 1B 00 21 00 17 00 1A 00 14 00 1C 00 0C 00 15 00 0E 00 16 07 B4 
2025-10-15 22:25:04.993 | TX | 0E 03 A1 00 00 40 67 39 
2025-10-15 22:25:04.994 | RX | 0E 03 80 00 1B 00 1F 00 1F 00 1F 00 24 00 1E 40 11 40 1B 00 0F 00 1E 00 16 00 17 00 17 00 19 00 1A 00 1F 00 1C 00 12 00 16 00 13 00 03 40 15 00 21 00 1B 00 1B 00 21 00 09 00 1E 00 19 00 15 00 19 00 1B 00 1B 00 19 00 12 00 16 00 1E 00 1F 00 1D 00 15 00 11 00 0B 00 25 00 20 00 0F 00 22 00 15 00 1C 00 19 00 1D 00 16 00 1C 00 18 00 15 00 12 00 0B 00 25 E0 24 C0 13 00 14 00 24 00 1B 00 1D 00 1D 71 DD 
2025-10-15 22:25:05.025 | TX | 0E 03 A1 40 00 40 66 ED 
2025-10-15 22:25:05.026 | RX | 0E 03 80 00 1F 00 24 00 1A 00 14 00 1E 00 18 00 14 00 27 00 1A 00 10 00 15 00 12 00 19 00 18 00 1E 00 12 00 16 00 1F 00 1D 00 11 00 08 00 0B 00 19 00 16 00 1D 00 16 00 14 00 17 00 21 00 21 80 0A 00 17 00 25 00 1B 00 13 00 1A 00 1C 00 24 00 17 00 11 00 1F 00 19 40 1B 00 1D 00 14 00 13 00 15 00 1D 00 1B 00 1F 00 21 00 08 00 13 00 12 00 0E 40 18 00 17 00 1B 00 17 00 10 00 1B 00 15 00 19 00 23 A4 51 
2025-10-15 22:25:05.057 | TX | 0E 03 A1 80 00 40 66 D1 
2025-10-15 22:25:05.057 | RX | 0E 03 80 00 10 00 1F 00 23 00 1F 40 13 00 14 00 0F 00 14 00 0C 40 0E 40 0C 00 16 00 1F 00 1E 00 18 00 14 00 20 00 20 00 21 00 21 00 0A 00 16 00 18 00 1C 00 21 00 13 00 12 00 0E 00 11 00 1F 00 16 00 1D 00 14 00 17 00 19 00 18 00 0C 00 13 00 13 00 20 40 14 00 17 00 13 00 20 00 19 00 0F 00 1F 00 17 00 0E 00 21 00 14 00 1C 00 22 00 10 00 07 40 17 00 1E 00 23 00 27 C0 21 00 18 00 21 1F 1F 00 1D 3E C8 
2025-10-15 22:25:05.090 | TX | 0E 03 A1 C0 00 40 67 05 
2025-10-15 22:25:05.090 | RX | 0E 03 80 00 14 00 19 00 1A 00 2B 00 18 00 13 00 16 00 0E 00 21 00 24 00 18 00 0F 00 12 00 1D 00 25 00 19 00 1A 00 11 00 18 00 1F 00 12 00 08 00 16 00 1E 40 1D 00 10 00 1A 00 1F 00 19 00 14 00 18 00 13 00 1B 00 1B 00 10 00 11 00 11 00 0C 00 21 C0 05 60 10 00 21 00 1D 00 22 00 25 00 20 00 18 00 1C 00 15 00 17 00 1E 00 1D 00 10 00 10 00 22 00 1D 00 14 00 27 00 1A 00 1E 00 18 00 22 00 1D 00 19 68 3A 
2025-10-15 22:25:05.122 | TX | 0E 03 A2 00 00 40 67 7D 
2025-10-15 22:25:05.122 | RX | 0E 03 80 40 02 40 02 40 02 40 03 40 02 40 02 40 01 40 01 40 03 40 03 40 02 40 02 40 01 40 01 40 02 40 02 40 01 40 02 40 01 40 02 40 01 40 01 40 02 40 01 40 02 40 02 40 01 40 02 40 01 40 02 40 01 40 01 40 01 40 02 40 00 40 02 40 00 40 01 40 01 40 01 40 01 40 04 40 02 40 01 40 03 40 01 40 01 40 02 40 02 40 01 40 02 40 01 40 01 40 03 40 02 40 02 40 02 40 01 40 01 40 01 40 01 40 01 40 01 40 02 5B A5 
2025-10-15 22:25:05.154 | TX | 0E 03 A2 40 00 40 66 A9 
2025-10-15 22:25:05.155 | RX | 0E 03 80 40 00 40 01 40 00 40 01 40 01 40 02 40 03 40 02 40 02 40 02 40 01 40 02 40 01 40 02 40 01 40 02 40 01 40 01 40 01 40 01 40 01 40 01 40 02 40 01 40 01 40 02 40 01 40 01 40 02 40 01 40 01 40 01 40 01 40 02 40 02 40 01 40 01 40 01 40 01 40 02 40 01 40 01 40 01 40 02 40 01 40 02 40 01 40 02 40 02 40 02 40 01 40 01 40 02 40 03 40 02 40 02 40 02 40 02 40 02 40 02 40 02 40 01 40 02 40 02 D5 8A 
2025-10-15 22:25:05.187 | TX | 0E 03 A2 80 00 40 66 95 
2025-10-15 22:25:05.187 | RX | 0E 03 80 40 01 40 01 40 02 40 02 40 01 40 02 40 02 40 02 40 01 40 01 40 02 40 02 40 01 40 01 40 02 40 01 40 02 40 01 40 01 40 02 40 01 40 01 40 02 40 01 40 02 40 03 40 01 40 03 40 02 40 03 40 02 40 01 40 01 40 01 40 02 40 01 40 02 40 03 40 02 40 02 40 01 40 02 40 01 40 01 40 01 40 02 40 02 40 02 40 01 40 01 40 01 40 01 40 01 40 02 40 02 40 01 40 02 40 01 40 01 40 02 40 01 40 02 40 03 40 02 1B 5B 
2025-10-15 22:25:05.220 | TX | 0E 03 A2 C0 00 40 67 41 
2025-10-15 22:25:05.220 | RX | 0E 03 80 40 02 40 02 40 01 40 01 40 01 40 02 40 01 40 02 40 02 40 01 40 01 40 02 40 02 40 02 40 01 40 01 40 01 40 02 40 01 40 00 40 01 40 01 40 02 40 02 40 02 40 02 40 03 40 01 40 01 40 01 40 02 40 01 40 02 40 02 40 01 40 02 40 02 40 02 40 01 40 02 40 02 40 02 40 01 40 01 40 02 40 01 40 01 40 01 40 03 40 01 40 02 40 02 40 02 40 02 40 01 40 01 40 02 40 02 40 02 40 02 40 03 40 01 40 02 40 02 C7 40 
2025-10-15 22:25:05.253 | TX | 0E 03 A3 00 00 40 66 81 
2025-10-15 22:25:05.253 | RX | 0E 03 80 40 01 40 01 40 01 40 01 40 02 40 02 40 02 40 02 40 02 40 02 40 02 40 02 40 02 40 01 40 01 40 01 40 01 40 01 40 01 40 01 40 01 40 02 40 02 40 02 40 02 40 02 40 02 40 02 40 02 40 02 40 02 40 02 40 02 40 02 40 02 40 02 40 02 40 02 40 02 40 02 40 02 40 02 40 02 40 01 40 01 40 01 40 01 40 01 40 02 40 02 40 02 40 02 40 02 40 02 40 02 40 02 40 02 40 02 40 02 40 02 40 01 40 01 40 01 40 01 C4 E6 
2025-10-15 22:25:05.286 | TX | 0E 03 A3 40 00 40 67 55 
2025-10-15 22:25:05.286 | RX | 0E 03 80 40 02 40 02 40 02 40 02 40 01 40 01 40 02 40 02 40 02 40 02 40 02 40 02 40 02 40 02 40 02 40 02 40 02 40 02 40 02 40 02 40 02 40 02 40 02 40 02 40 02 40 02 40 02 40 02 40 02 40 02 40 02 40 02 40 02 40 02 40 02 40 02 40 02 40 02 40 02 40 02 40 02 40 02 40 03 40 03 40 03 40 03 40 03 40 03 40 03 40 02 40 02 40 01 40 01 40 01 40 01 40 01 40 01 40 02 40 02 40 02 40 01 40 01 40 01 40 02 47 4A 
2025-10-15 22:25:05.319 | TX | 0E 03 A3 80 00 40 67 69 
2025-10-15 22:25:05.319 | RX | 0E 03 80 40 02 40 02 40 02 40 02 40 01 40 01 40 01 40 01 40 01 40 01 40 01 40 02 40 02 40 02 40 02 40 02 40 02 40 02 40 02 40 03 40 03 40 02 40 02 40 01 40 01 40 01 40 01 40 02 40 02 40 02 40 02 40 02 40 02 40 02 40 02 40 02 40 02 40 02 40 02 40 02 40 02 40 02 40 02 40 02 40 02 40 03 40 03 40 03 40 03 40 03 40 02 40 02 40 02 40 02 40 02 40 02 40 02 40 02 40 02 40 02 40 02 40 02 40 02 40 02 0A EA 
2025-10-15 22:25:05.352 | TX | 0E 03 A3 C0 00 40 66 BD 
2025-10-15 22:25:05.352 | RX | 0E 03 80 40 02 40 02 40 02 40 02 40 02 40 02 40 01 40 01 40 01 40 00 40 00 40 00 40 00 40 00 40 00 40 00 40 00 40 00 40 00 40 01 40 01 40 01 40 01 40 01 40 01 40 01 40 01 40 01 40 01 40 01 40 01 40 01 40 01 40 01 40 01 40 02 40 02 40 02 40 02 40 02 40 02 40 02 40 02 40 02 40 02 40 02 40 02 40 02 40 02 40 02 40 02 40 02 40 02 40 01 40 01 40 01 40 01 40 02 40 02 40 02 40 02 40 02 40 02 40 02 55 CF 
2025-10-15 22:25:05.384 | TX | 0E 10 00 00 00 01 02 00 09 27 A6 
2025-10-15 22:25:05.385 | RX | 0E 10 00 00 00 01 01 36 
2025-10-15 22:25:05.416 | TX | 0E 03 A0 00 00 40 66 C5 
2025-10-15 22:25:05.416 | RX | 0E 03 80 00 19 00 15 00 22 00 12 00 0F 00 04 00 16 00 1C E0 19 00 17 00 17 00 1D 00 1B 00 1D 00 13 00 16 00 0D 00 13 00 1F 00 1D 00 10 00 11 00 1F 00 15 00 0A 00 1D 00 1B 00 0E 00 17 00 1F 00 1D 00 0E 00 15 00 10 00 1F 40 0E 00 0A 00 12 00 0F 00 1D 00 16 00 1C 00 1D 00 13 00 1A 00 1B 00 16 00 20 00 1D 00 0E C0 05 00 16 00 1B 00 1D 40 18 C0 10 00 15 00 17 00 1E 00 1A 00 19 00 1E 00 1E 00 17 E3 E3 
2025-10-15 22:25:05.449 | TX | 0E 03 A0 40 00 40 67 11 
2025-10-15 22:25:05.450 | RX | 0E 03 80 00 12 00 17 00 1A 00 14 00 18 00 21 00 1C 00 16 00 21 00 1C 00 1E 00 17 00 12 00 1A 00 1C 00 03 40 16 00 15 00 13 00 1B 00 0F 00 0D 00 0C 00 21 00 1F 00 14 00 15 00 16 00 1F 00 16 00 1D 00 12 00 22 00 16 00 17 00 1B 00 06 00 12 00 16 40 17 C0 2A 00 16 00 27 00 19 00 25 00 15 00 1A 00 09 00 10 00 19 00 1C 00 1A 00 1F 00 1C 00 14 00 16 00 1A 00 16 00 1E 00 1C 00 11 00 1A 00 0B 00 1F 19 CD 
2025-10-15 22:25:05.496 | TX | 0E 03 A0 80 00 40 67 2D 
2025-10-15 22:25:05.503 | RX | 0E 03 80 00 17 00 19 40 24 00 1E 00 0A 00 1B 00 1C 00 22 00 17 00 1C 00 19 00 1B 00 1E 00 1D 00 1F 00 0A 00 0E 00 1C 00 1D 00 19 00 10 00 0D 00 10 00 17 00 1E 00 10 00 08 00 17 00 10 00 13 00 16 00 14 00 1A 00 1D 00 1D 00 18 00 18 00 18 00 1C 00 15 00 1D 00 1A 00 17 00 24 00 19 00 13 00 1E 00 25 00 1E 40 08 40 08 40 16 00 2A 00 18 00 1E 00 12 00 07 00 19 00 1D 00 0B 00 19 00 12 00 12 00 17 58 90 
2025-10-15 22:25:05.535 | TX | 0E 03 A0 C0 00 40 66 F9 
2025-10-15 22:25:05.536 | RX | 0E 03 80 00 15 00 19 00 1A 00 20 00 17 00 1A 00 13 00 21 00 1F 00 1F 00 0A 00 08 00 1C 40 1E 40 14 00 13 00 1B 00 1C 00 26 00 16 00 1A 00 17 00 1B 00 20 00 
2025-10-15 22:25:05.536 | RX | 0A 00 1A 00 1D 00 1A 40 09 00 0F 00 1E 00 2C 60 1D E0 27 00 19 00 17 00 16 00 16 00 16 00 16 00 10 00 12 00 19 00 1C 00 14 00 11 00 11 00 1F 00 1F 00 1A 00 25 00 11 00 08 00 19 00 15 00 12 00 0F 00 17 00 12 00 19 C0 0C 00 15 00 19 40 14 70 FE 
2025-10-15 22:25:05.568 | TX | 0E 03 A1 00 00 40 67 39 
2025-10-15 22:25:05.568 | RX | 0E 03 80 00 18 00 24 00 20 00 1E 00 1A 00 0F 00 23 00 15 40 12 00 07 00 21 00 1F 00 1C 00 1D 00 17 00 1A 00 1E 00 25 C0 1E 00 17 00 08 00 1D 00 15 00 18 00 20 00 10 00 17 00 13 00 1A 00 13 00 13 00 16 00 23 00 18 00 19 00 19 00 19 00 22 00 24 40 0F E0 0C 00 15 00 16 00 2A 00 13 00 13 00 1C 00 1B 00 18 00 22 00 17 00 21 00 13 00 16 00 0C 00 1F 00 25 00 23 60 16 00 14 00 1E 00 16 00 22 00 24 62 2A 
2025-10-15 22:25:05.601 | TX | 0E 03 A1 40 00 40 66 ED 
2025-10-15 22:25:05.601 | RX | 0E 03 80 00 0A 00 07 00 0C 00 1D 00 16 00 08 00 0D 00 1A 00 13 00 1A 00 13 00 0C 00 16 00 16 00 1E 00 1D 00 18 00 1A 00 1C 00 1B 40 1E 00 1F 00 1C 00 15 00 1F 00 1C 00 14 00 0B 00 1B 00 0F 00 20 00 1C 00 1B 00 15 00 12 40 16 00 0B 00 1A 00 19 00 20 00 11 00 13 00 1A 00 17 00 17 00 1C 00 13 00 19 00 1D 00 11 00 18 00 12 00 18 00 1A 00 1F 00 10 40 18 00 10 00 15 00 13 00 17 00 16 00 17 00 23 54 79 
2025-10-15 22:25:05.634 | TX | 0E 03 A1 80 00 40 66 D1 
2025-10-15 22:25:05.634 | RX | 0E 03 80 00 1B 00 1C 00 21 00 10 00 1A 00 16 00 16 00 22 40 19 C0 11 00 1E 00 17 00 1B 00 1D 80 1E 00 15 00 1C 00 20 00 1E 00 13 00 12 00 11 00 07 00 09 00 1E 00 1B 00 14 00 0D 00 1B 00 1F 00 16 00 1A 00 18 00 1A 00 19 00 1C 00 15 00 0D 00 0F 00 1A 00 10 00 13 00 1E 00 1B 00 19 00 1A 00 1F 00 1A 00 1A 00 20 00 10 00 0F 00 19 00 1A 00 11 40 0E 00 14 00 23 40 28 00 1C 00 14 00 10 00 20 00 13 4A 1C 
2025-10-15 22:25:05.667 | TX | 0E 03 A1 C0 00 40 67 05 
2025-10-15 22:25:05.667 | RX | 0E 03 80 00 0B 00 17 00 1C 00 24 00 1A 00 13 00 16 00 0F 00 1E 00 22 00 1B 00 12 00 23 00 10 00 1B 00 06 00 09 00 0F 00 1B 40 18 00 1C 00 11 00 17 00 19 00 0C 40 17 40 0F 00 23 00 1E 00 16 00 0E 00 18 00 0F 00 0D 00 13 00 1C 00 1F 40 16 00 14 00 14 00 23 00 23 00 21 40 1C 00 13 00 0F 00 21 00 1C 00 20 00 10 00 0E 00 15 00 17 00 20 00 14 00 10 00 16 00 2C 00 22 00 15 00 0C 00 18 00 15 00 20 08 AD 
2025-10-15 22:25:05.700 | TX | 0E 03 A2 00 00 40 67 7D 
2025-10-15 22:25:05.700 | RX | 0E 03 80 40 01 40 01 40 02 40 02 40 01 40 01 40 02 40 03 40 01 40 01 40 02 40 02 40 02 40 02 40 02 40 02 40 02 40 01 40 01 40 02 40 01 40 01 40 01 40 01 40 02 40 01 40 01 40 00 40 02 40 02 40 02 40 02 40 01 40 02 40 01 40 01 40 01 40 01 40 02 40 02 40 01 40 01 40 02 40 02 40 01 40 01 40 02 40 02 40 01 40 02 40 01 40 01 40 02 40 02 40 01 40 02 40 02 40 01 40 02 40 02 40 02 40 01 40 01 40 01 3B AB 
2025-10-15 22:25:05.732 | TX | 0E 03 A2 40 00 40 66 A9 
2025-10-15 22:25:05.732 | RX | 0E 03 80 40 02 40 02 40 01 40 01 40 02 40 01 40 02 40 01 40 02 40 02 40 01 40 01 40 01 40 02 40 02 40 01 40 02 40 01 40 01 40 01 40 01 40 01 40 02 40 03 40 02 40 01 40 01 40 01 40 01 40 02 40 02 40 02 40 01 40 01 40 02 40 02 40 01 40 02 40 02 40 02 40 02 40 02 40 01 40 01 40 01 40 02 40 01 40 01 40 01 40 01 40 02 40 02 40 01 40 01 40 01 40 01 40 01 40 02 40 01 40 02 40 00 40 01 40 01 40 02 D7 A6 
2025-10-15 22:25:05.764 | TX | 0E 03 A2 80 00 40 66 95 
2025-10-15 22:25:05.765 | RX | 0E 03 80 40 02 40 02 40 01 40 02 40 01 40 02 40 02 40 01 40 01 40 01 40 02 40 01 40 02 40 01 40 02 40 02 40 02 40 01 40 02 40 02 40 02 40 02 40 03 40 00 40 02 40 01 40 03 40 01 40 02 40 01 40 03 40 01 40 01 40 01 40 01 40 02 40 01 40 02 40 01 40 01 40 01 40 02 40 01 40 02 40 01 40 01 40 01 40 01 40 01 40 02 40 01 40 01 40 01 40 01 40 01 40 02 40 01 40 03 40 02 40 02 40 02 40 01 40 02 40 02 CD 35 
2025-10-15 22:25:05.797 | TX | 0E 03 A2 C0 00 40 67 41 
2025-10-15 22:25:05.798 | RX | 0E 03 80 40 03 40 01 40 02 40 02 40 02 40 01 40 02 40 02 40 02 40 01 40 01 40 02 40 02 40 02 40 01 40 01 40 02 40 02 40 01 40 02 40 01 40 01 40 01 40 01 40 02 40 02 40 02 40 02 40 03 40 01 40 02 40 01 40 02 40 02 40 01 40 02 40 02 40 01 40 02 40 02 40 02 40 02 40 02 40 02 40 00 40 01 40 02 40 02 40 01 40 02 40 01 40 02 40 02 40 01 40 02 40 02 40 01 40 01 40 01 40 01 40 02 40 02 40 02 40 02 16 F5 
2025-10-15 22:25:05.829 | TX | 0E 03 A3 00 00 40 66 81 
2025-10-15 22:25:05.830 | RX | 0E 03 80 40 01 40 03 40 02 40 02 40 01 40 02 40 01 40 02 40 02 40 01 40 01 40 02 40 01 40 01 40 02 40 02 40 01 40 01 40 03 40 02 40 00 40 01 40 02 40 00 40 00 40 02 40 02 40 02 40 01 40 01 40 02 40 02 40 01 40 03 40 02 40 01 40 01 40 01 40 02 40 01 40 00 40 01 40 01 40 01 40 02 40 02 40 01 40 02 40 01 40 02 40 02 40 02 40 02 40 02 40 02 40 02 40 02 40 02 40 01 40 01 40 01 40 02 40 02 40 02 6D 35 
2025-10-15 22:25:05.862 | TX | 0E 03 A3 40 00 40 67 55 
2025-10-15 22:25:05.862 | RX | 0E 03 80 40 01 40 02 40 02 40 03 40 02 40 02 40 01 40 02 40 02 40 02 40 01 40 02 40 02 40 02 40 03 40 01 40 02 40 02 40 02 40 02 40 02 40 01 40 02 40 01 40 01 40 01 40 01 40 02 40 02 40 02 40 02 40 01 40 02 40 01 40 02 40 02 40 02 40 02 40 02 40 01 40 02 40 02 40 01 40 02 40 01 40 01 40 02 40 01 40 01 40 02 40 02 40 01 40 01 40 02 40 01 40 02 40 02 40 01 40 02 40 01 40 02 40 01 40 02 40 02 1E 4D 
2025-10-15 22:25:05.894 | TX | 0E 03 A3 80 00 40 67 69 
2025-10-15 22:25:05.894 | RX | 0E 03 80 40 03 40 01 40 01 40 02 40 02 40 01 40 02 40 01 40 01 40 01 40 00 40 01 40 01 40 03 40 02 40 02 40 01 40 02 40 00 40 01 40 02 40 01 40 02 40 01 40 02 40 01 40 01 40 03 40 02 40 02 40 01 40 01 40 02 40 02 40 01 40 02 40 02 40 01 40 02 40 01 40 01 40 01 40 01 40 02 40 01 40 02 40 01 40 02 40 02 40 02 40 02 40 02 40 02 40 01 40 02 40 01 40 02 40 02 40 02 40 01 40 01 40 02 40 01 40 02 E1 2F 
2025-10-15 22:25:05.926 | TX | 0E 03 A3 C0 00 40 66 BD 
2025-10-15 22:25:05.926 | RX | 0E 03 80 40 02 40 01 40 02 40 02 40 01 40 01 40 01 40 02 40 01 40 01 40 01 40 01 40 02 40 02 40 02 40 01 40 01 40 01 40 02 40 01 40 01 40 02 40 02 40 01 40 02 40 01 40 01 40 02 40 02 40 01 40 01 40 03 40 02 40 02 40 01 40 02 40 01 40 02 40 01 40 01 40 02 40 02 40 02 40 02 40 02 40 02 40 02 40 02 40 01 40 01 40 01 40 01 40 02 40 02 40 02 40 01 40 02 40 02 40 02 40 02 40 02 40 02 40 01 40 02 20 F6 
2025-10-15 22:25:05.958 | TX | 0E 10 00 00 00 01 02 00 09 27 A6 
2025-10-15 22:25:05.958 | RX | 0E 10 00 00 00 01 01 36 
2025-10-15 22:25:05.990 | TX | 0E 03 A0 00 00 40 66 C5 
2025-10-15 22:25:05.991 | RX | 0E 03 80 00 21 00 1B 00 20 00 24 00 1A 00 0D 00 0A 00 18 00 20 40 20 E0 10 00 11 00 23 00 26 00 1D 00 16 00 22 00 0F 00 22 00 15 00 1C 00 23 00 1A 00 07 00 27 00 1C 00 14 00 21 00 16 00 15 00 0F 00 1D 00 18 00 1D 00 1A 00 17 00 14 00 0E 00 0C 00 1A 00 06 00 14 00 15 00 1B 00 20 00 1D 00 21 00 1A 40 1A 00 1D 00 16 00 1D 00 19 00 12 00 1A 40 18 40 17 00 1C 00 1E 40 24 80 26 00 13 00 16 00 29 4C 09 
2025-10-15 22:25:06.022 | TX | 0E 03 A0 40 00 40 67 11 
2025-10-15 22:25:06.023 | RX | 0E 03 80 00 15 00 19 00 1F 00 2B 00 1C 00 10 00 13 00 17 00 20 00 1A 00 12 00 18 00 24 00 16 00 13 00 15 00 1F 00 0C 00 1F 00 20 00 21 00 27 00 19 00 0E 00 15 00 1B 00 19 00 27 00 0E 00 16 00 19 00 11 00 13 00 15 00 FD 00 22 00 21 00 0E 00 14 00 1E 00 1F 00 0C 00 15 00 13 00 16 00 0F 00 18 00 16 00 1B 40 12 C0 10 00 1B 00 1C 00 20 00 1E 00 1A 00 16 00 1E 00 24 00 19 00 22 00 1D 00 11 00 17 0D F3 
2025-10-15 22:25:06.055 | TX | 0E 03 A0 80 00 40 67 2D 
2025-10-15 22:25:06.055 | RX | 0E 03 80 00 14 00 19 00 1F 00 11 00 0D 00 1D 00 0E 00 12 00 16 00 19 00 1A 00 17 00 19 00 21 00 16 00 19 00 1D 00 1A 00 1B 00 1D 00 21 00 10 00 1C 00 0D 00 15 00 16 00 18 00 0D 00 07 00 1A 00 24 00 19 00 20 00 17 00 16 00 16 00 1C 00 1A 00 16 00 1A 00 18 00 15 00 1B 00 1F 00 18 00 1C 00 16 00 1C 00 11 00 1E 00 10 00 0C 40 0E 00 1F 00 1F 00 10 00 21 00 12 00 16 00 1E 00 28 40 23 00 2A 00 11 80 CE 
2025-10-15 22:25:06.088 | TX | 0E 03 A0 C0 00 40 66 F9 
2025-10-15 22:25:06.088 | RX | 0E 03 80 00 12 00 12 00 13 00 15 00 16 00 17 00 17 00 18 00 18 00 19 00 19 00 1A 00 1B 00 1A 00 19 00 17 00 14 00 10 00 0D 00 0B 00 0B 00 0D 00 10 00 14 00 18 00 1B 00 1D 00 1E 00 1D 00 1C 00 1B 00 1A 00 1A 00 1B 00 1C 00 1F 00 22 00 24 00 27 00 28 00 28 00 28 00 26 00 23 00 21 00 1F 00 1D 00 1B 00 1B 00 1B 00 1B 00 1A 00 1A 00 19 00 18 00 17 00 16 00 15 00 14 00 14 00 13 00 13 00 12 00 12 09 01 
2025-10-15 22:25:06.121 | TX | 0E 03 A1 00 00 40 67 39 
2025-10-15 22:25:06.121 | RX | 0E 03 80 00 12 00 12 00 13 00 13 00 14 00 14 00 14 00 15 00 14 00 14 00 14 00 13 00 12 00 11 00 0F 00 0E 00 0E 00 0E 00 0F 00 11 00 14 00 16 00 19 00 1B 00 1C 00 1C 00 1B 00 19 00 17 00 15 00 12 00 0F 00 0C 00 09 00 08 00 07 00 07 00 08 00 09 00 0B 00 0E 00 10 00 13 00 16 00 19 40 1B 40 1D 40 1E 40 1F 40 1F 00 1E 00 1D 00 1C 00 1B 00 1B 00 1B 00 1B 00 1B 00 1A 00 19 00 18 00 16 00 13 00 11 DC 8B 
2025-10-15 22:25:06.154 | TX | 0E 03 A1 40 00 40 66 ED 
2025-10-15 22:25:06.154 | RX | 0E 03 80 00 0E 00 0D 00 0C 00 0C 00 0C 00 0E 00 0F 00 10 00 12 00 12 00 12 00 12 00 11 00 10 00 0E 00 0C 00 0B 00 09 00 08 00 08 00 09 00 0A 00 0C 00 0F 00 11 00 14 00 16 00 18 00 19 00 1A 00 1A 00 1A 00 1A 00 1A 00 1A 00 1A 00 19 00 1A 00 1A 00 1B 00 1B 00 1B 00 1B 00 19 00 17 00 15 00 13 00 11 00 10 00 0F 00 10 00 11 00 12 00 14 00 16 00 18 00 19 00 1A 00 1C 00 1C 00 1D 00 1D 00 1D 00 1D 7F DB 
2025-10-15 22:25:06.187 | TX | 0E 03 A1 80 00 40 66 D1 
2025-10-15 22:25:06.187 | RX | 0E 03 80 00 1D 00 1C 00 1C 00 1B 00 1B 00 1A 00 1A 00 19 00 19 00 19 00 18 00 18 00 17 00 17 00 16 00 16 00 16 00 16 00 15 00 15 00 14 00 13 00 12 00 11 00 10 00 0F 00 0E 00 0E 00 0E 00 0E 00 0E 00 0F 00 10 00 10 00 11 00 11 00 11 00 12 00 12 00 14 00 15 00 17 00 19 00 1A 00 1B 00 1B 00 1B 00 1B 00 1A 00 1A 00 1A 00 1A 00 1A 00 1B 00 1D 00 1E 00 1E 00 1E 00 1C 00 1A 00 17 00 14 00 10 00 0D 83 57 
2025-10-15 22:25:06.220 | TX | 0E 03 A1 C0 00 40 67 05 
2025-10-15 22:25:06.220 | RX | 0E 03 80 00 0B 00 09 00 08 00 07 40 08 40 09 40 0B 40 0D 40 10 40 11 C0 13 C0 14 C0 14 80 15 80 16 80 18 00 19 00 1B 00 1C 00 1D 00 1E 00 1E 00 1E 00 1F 00 1F 00 1F 00 1F 00 1F 00 1E 00 1D 00 1B 00 1A 00 18 00 16 00 15 00 15 00 14 00 14 00 13 00 13 00 12 00 12 00 12 00 13 00 13 00 14 00 15 00 15 00 15 00 14 00 13 00 11 00 10 00 0E 00 0C 00 0C 00 0C 00 0E 00 11 00 15 00 19 00 1D 00 21 00 24 EE 89 
2025-10-15 22:25:06.253 | TX | 0E 03 A2 00 00 40 67 7D 
2025-10-15 22:25:06.254 | RX | 0E 03 80 40 02 40 02 40 02 40 02 40 02 40 02 40 02 40 02 40 02 40 02 40 01 40 01 40 02 40 02 40 02 40 02 40 01 40 01 40 01 40 01 40 02 40 02 40 02 40 02 40 02 40 02 40 02 40 02 40 02 40 01 40 01 40 01 40 01 40 01 40 01 40 01 40 01 40 01 40 01 40 01 40 01 40 01 40 01 40 01 40 01 40 01 40 02 40 02 40 02 40 02 40 01 40 01 40 01 40 01 40 01 40 01 40 01 40 01 40 01 40 01 40 01 40 01 40 01 40 01 8D 18 
2025-10-15 22:25:06.286 | TX | 0E 03 A2 40 00 40 66 A9 
2025-10-15 22:25:06.286 | RX | 0E 03 80 40 01 40 01 40 01 40 01 40 01 40 01 40 01 40 01 40 01 40 01 40 01 40 01 40 01 40 01 40 01 40 02 40 02 40 02 40 02 40 02 40 02 40 02 40 02 40 02 40 02 40 02 40 02 40 02 40 02 40 01 40 01 40 01 40 01 40 01 40 01 40 01 40 01 40 01 40 01 40 01 40 01 40 01 40 01 40 02 40 02 40 02 40 02 40 02 40 02 40 01 40 01 40 01 40 01 40 01 40 02 40 02 40 02 40 02 40 02 40 02 40 02 40 02 40 02 40 02 42 FC 
2025-10-15 22:25:06.319 | TX | 0E 03 A2 80 00 40 66 95 
2025-10-15 22:25:06.319 | RX | 0E 03 80 40 01 40 01 40 01 40 01 40 01 40 01 40 02 40 02 40 02 40 02 40 02 40 02 40 02 40 02 40 02 40 02 40 02 40 02 40 02 40 02 40 02 40 02 40 02 40 02 40 01 40 01 40 01 40 01 40 01 40 01 40 01 40 01 40 01 40 01 40 01 40 01 40 01 40 01 40 01 40 02 40 02 40 02 40 02 40 01 40 01 40 01 40 01 40 01 40 01 40 01 40 02 40 02 40 02 40 02 40 02 40 02 40 02 40 02 40 02 40 02 40 02 40 01 40 01 40 01 91 31 
2025-10-15 22:25:06.352 | TX | 0E 03 A2 C0 00 40 67 41 
2025-10-15 22:25:06.353 | RX | 0E 03 80 40 01 40 01 40 01 40 01 40 01 40 01 40 01 40 01 40 01 40 01 40 01 40 01 40 01 40 01 40 01 40 01 40 01 40 02 40 02 40 02 40 02 40 01 40 01 40 01 40 01 40 02 40 02 40 02 40 02 40 02 40 01 40 01 40 01 40 01 40 01 40 01 40 01 40 01 40 01 40 01 40 01 40 01 40 01 40 01 40 00 40 00 40 00 40 00 40 00 40 00 40 00 40 01 40 01 40 01 40 01 40 01 40 01 40 01 40 01 40 01 40 01 40 01 40 01 40 01 B5 C0 
2025-10-15 22:25:06.384 | TX | 0E 03 A3 00 00 40 66 81 
2025-10-15 22:25:06.384 | RX | 0E 03 80 40 01 40 01 40 01 40 01 40 01 40 01 40 01 40 01 40 01 40 01 40 01 40 01 40 01 40 01 40 01 40 01 40 01 40 01 40 01 40 01 40 01 40 01 40 01 40 01 40 01 40 01 40 01 40 02 40 02 40 02 40 02 40 02 40 01 40 01 40 01 40 02 40 02 40 02 40 02 40 02 40 02 40 02 40 02 40 02 40 03 40 03 40 03 40 03 40 03 40 03 40 03 40 03 40 03 40 03 40 03 40 03 40 03 40 03 40 03 40 02 40 02 40 02 40 02 40 02 D9 FA 
2025-10-15 22:25:06.417 | TX | 0E 03 A3 40 00 40 67 55 
2025-10-15 22:25:06.418 | RX | 0E 03 80 40 02 40 02 40 02 40 02 40 02 40 02 40 02 40 02 40 02 40 02 40 01 40 01 40 01 40 01 40 01 40 01 40 01 40 01 40 01 40 01 40 01 40 01 40 01 40 01 40 01 40 02 40 02 40 02 40 02 40 02 40 02 40 02 40 01 40 01 40 01 40 01 40 01 40 01 40 01 40 02 40 02 40 02 40 02 40 02 40 02 40 02 40 01 40 01 40 01 40 01 40 01 40 01 40 01 40 01 40 01 40 01 40 01 40 01 40 01 40 02 40 02 40 02 40 02 40 02 AC 2B 
2025-10-15 22:25:06.449 | TX | 0E 03 A3 80 00 40 67 69 
2025-10-15 22:25:06.450 | RX | 0E 03 80 40 02 40 01 40 01 40 01 40 01 40 01 40 01 40 01 40 01 40 01 40 01 40 02 40 02 40 02 40 01 40 01 40 01 40 01 40 01 40 01 40 01 40 01 40 01 40 01 40 01 40 01 40 01 40 02 40 02 40 02 40 02 40 01 40 01 40 01 40 02 40 02 40 02 40 01 40 01 40 01 40 01 40 01 40 01 40 01 40 01 40 01 40 01 40 01 40 01 40 01 40 01 40 01 40 00 40 00 40 00 40 01 40 01 40 01 40 01 40 01 40 01 40 01 40 01 40 01 F6 34 
2025-10-15 22:25:06.482 | TX | 0E 03 A3 C0 00 40 66 BD 
2025-10-15 22:25:06.483 | RX | 0E 03 80 40 01 40 01 40 01 40 01 40 01 40 01 40 01 40 02 40 02 40 01 40 02 40 02 40 02 40 02 40 02 40 01 40 01 40 01 40 01 40 01 40 01 40 01 40 01 40 01 40 01 40 01 40 01 40 01 40 01 40 01 40 00 40 00 40 01 40 01 40 01 40 01 40 01 40 01 40 01 40 01 40 01 40 01 40 01 40 01 40 01 40 01 40 01 40 01 40 01 40 01 40 01 40 02 40 02 40 02 40 02 40 02 40 02 40 02 40 02 40 02 40 02 40 02 40 02 40 02 D2 D8 
2025-10-15 22:25:06.514 | TX | 0E 10 00 00 00 01 02 00 09 27 A6 
2025-10-15 22:25:06.515 | RX | 0E 10 00 00 00 01 01 36 
2025-10-15 22:25:06.547 | TX | 0E 03 A0 00 00 40 66 C5 
2025-10-15 22:25:06.547 | RX | 0E 03 80 00 17 00 14 00 21 00 0F 00 0E 00 17 00 22 00 1D 00 16 00 1D 00 15 00 17 00 1D 00 20 00 1A 00 14 00 13 00 18 00 16 00 0E 00 12 00 23 00 1F 00 1E 00 09 00 09 00 12 00 18 00 1D 00 24 00 13 00 0D 00 21 00 08 40 0C 00 13 00 13 00 21 C0 23 00 28 00 15 00 17 00 19 00 1A 00 14 00 1D 00 12 00 1A 00 1B 00 19 00 1A 00 22 00 20 00 1E 00 14 00 12 00 1D 00 24 00 1F 00 12 00 21 00 1C 40 10 40 16 03 44 
2025-10-15 22:25:06.579 | TX | 0E 03 A0 40 00 40 67 11 
2025-10-15 22:25:06.579 | RX | 0E 03 80 00 19 00 18 00 15 00 14 00 16 00 21 00 10 40 0E 00 10 00 1C 00 1D 00 0E 00 1B 00 1F 00 1F 00 1D 00 1C 00 1F 00 17 00 22 00 1F 00 18 00 14 00 12 40 0F 00 16 00 10 00 1B 00 20 00 1A 00 14 00 13 00 18 00 1E 00 1B 00 1B 00 11 00 15 00 19 00 0E 00 16 00 17 00 10 00 11 00 1B 00 1A 00 1C 00 0B 00 11 00 17 00 1B 00 16 00 0C 00 1B 00 11 00 14 00 10 00 06 00 14 00 1C 00 1B 00 15 00 1B 00 18 F9 6A 
2025-10-15 22:25:06.611 | TX | 0E 03 A0 80 00 40 67 2D 
2025-10-15 22:25:06.611 | RX | 0E 03 80 40 07 40 15 00 1C 40 27 00 20 00 1C 00 19 00 1A 00 1B 00 07 00 1D 00 18 00 1F 00 0F 00 0E 00 17 00 12 00 1D 40 1E 00 0E 00 16 00 19 00 1A 00 22 00 25 00 20 00 1A 00 0E 00 20 00 1B 40 14 00 12 00 19 00 1E 00 0B 40 16 00 15 00 15 00 1E 00 16 80 1B 00 28 00 18 00 26 00 16 00 12 00 15 00 26 00 12 00 1E 00 1F 00 1B 00 23 00 18 00 1F 00 19 00 27 00 1B 00 16 00 0F 00 14 00 19 00 12 00 15 29 50 
2025-10-15 22:25:06.643 | TX | 0E 03 A0 C0 00 40 66 F9 
2025-10-15 22:25:06.643 | RX | 0E 03 80 00 1F 00 1D C0 13 00 13 00 0D 00 10 00 22 00 1A 00 16 00 10 00 19 00 23 00 14 00 1F 00 14 00 0B 00 17 00 1E 00 1E 00 09 00 0D 00 15 00 15 00 18 00 13 00 18 00 1D 00 17 00 25 00 19 00 17 00 17 00 11 00 15 00 1B 00 12 00 11 00 0F 40 11 00 16 00 21 00 21 80 27 C0 14 00 14 00 18 00 1B 00 16 00 09 00 14 00 18 00 23 00 16 00 1C 00 11 00 18 00 1F 00 1D 00 14 00 10 00 26 00 0F 00 1E 00 0D 1B 27 
2025-10-15 22:25:06.675 | TX | 0E 03 A1 00 00 40 67 39 
2025-10-15 22:25:06.675 | RX | 0E 03 80 00 19 00 0F 00 12 00 18 00 26 80 17 00 1C 00 1C 00 1A 00 1D 00 1F 00 17 00 15 00 1C 00 15 00 10 00 1A 00 12 00 1F 00 16 00 20 00 29 00 26 00 18 00 0F 00 21 00 10 00 16 00 0B 00 14 00 0E 40 16 00 1A 00 23 00 1F 00 1F 00 18 00 15 00 1E 00 1A 00 22 00 18 00 13 00 1A 00 17 00 17 40 0B 00 17 00 20 40 1A 00 22 00 0B 00 12 00 1E 00 18 00 10 00 1A 40 15 00 20 00 19 00 17 00 18 00 16 00 15 84 97 
2025-10-15 22:25:06.708 | TX | 0E 03 A1 40 00 40 66 ED 
2025-10-15 22:25:06.708 | RX | 0E 03 80 00 1F 00 1D 00 23 00 1A 00 16 00 07 00 08 00 13 00 17 00 18 00 18 00 1C 00 20 00 1E 00 1E 00 15 00 1E 00 10 00 1C 00 1F 00 16 00 13 00 16 00 17 00 15 00 0E 40 19 00 1A 00 22 00 1C 00 11 00 1F 00 19 00 10 00 1D 00 1E 40 1C 00 12 00 11 00 21 00 15 00 1F 40 1D 40 1F 00 1B 00 1A 00 27 00 18 00 26 00 10 00 1A 00 1A 00 26 00 19 00 17 00 0D 00 1C 00 1A 00 22 00 18 00 15 00 18 00 16 00 11 3F 50 
2025-10-15 22:25:06.739 | TX | 0E 03 A1 80 00 40 66 D1 
2025-10-15 22:25:06.739 | RX | 0E 03 80 00 1C 00 13 00 1D 00 0E 00 19 00 1D 40 1E 00 1E 00 1A 00 11 00 1F 00 16 00 16 00 20 00 21 00 17 00 1F 00 14 00 17 00 19 00 09 00 16 00 12 00 08 00 14 00 1E 00 17 00 0F 00 1D 00 16 00 1A 00 1D 00 1B 00 15 00 14 00 0F 00 12 00 1F 80 12 40 0A 00 11 00 1B 00 21 00 22 00 1D 40 22 00 1F 00 1C 00 20 00 14 00 1A 00 12 00 05 00 16 00 0C 00 1B 00 16 40 20 00 0C 00 15 00 17 00 21 00 20 00 1C CA E4 
2025-10-15 22:25:06.772 | TX | 0E 03 A1 C0 00 40 67 05 
2025-10-15 22:25:06.772 | RX | 0E 03 80 00 25 00 16 00 1C 00 19 00 21 00 1C 00 1C 40 20 00 14 00 20 00 1D 00 16 00 1C 00 22 00 1D 00 1B 00 1E 00 21 00 1E 00 1C 00 13 00 10 00 1B 00 1F 00 1E 00 19 00 05 00 19 00 17 00 13 00 24 00 1B 00 1A 00 15 00 17 00 27 00 1D 00 19 00 14 00 11 00 1C 00 1B 40 06 00 1D 00 20 00 25 C0 1C 00 0F 00 1B 00 27 00 1E 00 19 00 1D 00 1B 00 1A 00 19 00 1C 00 17 00 12 00 0D 00 15 00 19 00 19 00 24 AF C3 
2025-10-15 22:25:06.805 | TX | 0E 03 A2 00 00 40 67 7D 
2025-10-15 22:25:06.805 | RX | 0E 03 80 40 02 40 02 40 02 40 01 40 02 40 01 40 02 40 01 40 02 40 01 40 01 40 01 40 01 40 02 40 01 40 01 40 01 40 01 40 02 40 01 40 01 40 01 40 02 40 01 40 01 40 01 40 01 40 03 40 01 40 01 40 02 40 02 40 01 40 02 40 03 40 01 40 01 40 02 40 02 40 01 40 02 40 02 40 02 40 01 40 01 40 01 40 02 40 03 40 02 40 01 40 01 40 02 40 01 40 02 40 01 40 01 40 02 40 02 40 01 40 02 40 02 40 01 40 01 40 02 62 6C 
2025-10-15 22:25:06.838 | TX | 0E 03 A2 40 00 40 66 A9 
2025-10-15 22:25:06.838 | RX | 0E 03 80 40 01 40 01 40 02 40 01 40 03 40 01 40 00 40 01 40 01 40 03 40 02 40 02 40 02 40 01 40 01 40 01 40 02 40 01 40 02 40 02 40 01 40 02 40 02 40 01 40 02 40 01 40 02 40 01 40 01 40 02 40 01 40 02 40 01 40 02 40 02 40 01 40 01 40 01 40 01 40 01 40 02 40 01 40 01 40 02 40 02 40 01 40 00 40 01 40 01 40 01 40 02 40 02 40 02 40 01 40 01 40 03 40 02 40 01 40 02 40 02 40 02 40 01 40 02 40 01 97 B4 
2025-10-15 22:25:06.871 | TX | 0E 03 A2 80 00 40 66 95 
2025-10-15 22:25:06.871 | RX | 0E 03 80 40 02 40 01 40 01 40 02 40 02 40 02 40 01 40 02 40 02 40 01 40 02 40 01 40 02 40 01 40 02 40 01 40 01 40 02 40 02 40 02 40 02 40 01 40 01 40 02 40 01 40 01 40 02 40 02 40 01 40 02 40 02 40 01 40 02 40 02 40 01 40 02 40 02 40 01 40 01 40 03 40 01 40 02 40 02 40 01 40 01 40 01 40 01 40 02 40 02 40 01 40 02 40 01 40 02 40 01 40 01 40 01 40 01 40 01 40 02 40 00 40 02 40 02 40 01 40 02 DF 76 
2025-10-15 22:25:06.904 | TX | 0E 03 A2 C0 00 40 67 41 
2025-10-15 22:25:06.904 | RX | 0E 03 80 40 01 40 02 40 02 40 01 40 02 40 01 40 02 40 01 40 01 40 01 40 01 40 01 40 01 40 01 40 01 40 02 40 01 40 01 40 02 40 02 40 01 40 01 40 01 40 02 40 02 40 02 40 02 40 01 40 01 40 01 40 01 40 02 40 01 40 02 40 02 40 02 40 01 40 01 40 01 40 02 40 02 40 02 40 01 40 01 40 01 40 01 40 02 40 02 40 02 40 01 40 01 40 03 40 01 40 02 40 02 40 02 40 02 40 02 40 01 40 02 40 01 40 01 40 00 40 01 7E AA 
2025-10-15 22:25:06.936 | TX | 0E 03 A3 00 00 40 66 81 
2025-10-15 22:25:06.937 | RX | 0E 03 80 40 01 40 01 40 01 40 01 40 01 40 01 40 01 40 01 40 01 40 01 40 01 40 01 40 00 40 00 40 00 40 01 40 01 40 00 40 00 40 00 40 00 40 00 40 00 40 00 40 00 40 00 40 00 40 01 40 01 40 01 40 01 40 01 40 01 40 01 40 01 40 01 40 01 40 01 40 01 40 01 40 01 40 01 40 01 40 01 40 01 40 01 40 01 40 01 40 01 40 01 40 01 40 01 40 01 40 02 40 02 40 02 40 01 40 01 40 01 40 01 40 01 40 02 40 02 40 02 13 22 
2025-10-15 22:25:06.970 | TX | 0E 03 A3 40 00 40 67 55 
2025-10-15 22:25:06.970 | RX | 0E 03 80 40 01 40 01 40 01 40 01 40 02 40 02 40 02 40 01 40 01 40 01 40 01 40 01 40 01 40 01 40 01 40 01 40 01 40 01 40 01 40 01 40 01 40 01 40 02 40 02 40 02 40 01 40 01 40 01 40 01 40 01 40 02 40 01 40 01 40 01 40 01 40 01 40 01 40 01 40 01 40 01 40 00 40 00 40 00 40 00 40 00 40 00 40 01 40 01 40 01 40 01 40 01 40 01 40 01 40 01 40 01 40 01 40 01 40 01 40 01 40 01 40 01 40 01 40 01 40 01 D2 82 
2025-10-15 22:25:07.003 | TX | 0E 03 A3 80 00 40 67 69 
2025-10-15 22:25:07.003 | RX | 0E 03 80 40 01 40 01 40 01 40 01 40 01 40 02 40 02 40 02 40 02 40 02 40 02 40 02 40 02 40 02 40 02 40 01 40 01 40 01 40 01 40 01 40 01 40 01 40 01 40 01 40 01 40 01 40 01 40 01 40 01 40 01 40 01 40 01 40 01 40 01 40 02 40 02 40 02 40 02 40 02 40 02 40 01 40 01 40 01 40 01 40 01 40 01 40 01 40 02 40 02 40 02 40 02 40 02 40 02 40 02 40 01 40 01 40 01 40 01 40 01 40 01 40 01 40 01 40 01 40 01 FE 64 
2025-10-15 22:25:07.035 | TX | 0E 03 A3 C0 00 40 66 BD 
2025-10-15 22:25:07.036 | RX | 0E 03 80 40 02 40 02 40 02 40 02 40 02 40 02 40 02 40 02 40 01 40 01 40 01 40 01 40 01 40 01 40 01 40 00 40 00 40 00 40 00 40 00 40 01 40 01 40 01 40 01 40 01 40 01 40 01 40 01 40 02 40 02 40 02 40 02 40 02 40 02 40 02 40 02 40 02 40 02 40 02 40 02 40 02 40 02 40 01 40 01 40 01 40 01 40 01 40 01 40 00 40 00 40 00 40 01 40 01 40 01 40 02 40 02 40 02 40 01 40 01 40 01 40 01 40 01 40 01 40 01 38 38 
2025-10-15 22:25:07.068 | TX | 0E 10 00 00 00 01 02 00 09 27 A6 
2025-10-15 22:25:07.068 | RX | 0E 10 
2025-10-15 22:25:07.068 | RX | 00 00 00 01 01 36 
2025-10-15 22:25:07.099 | TX | 0E 03 A0 00 00 40 66 C5 
2025-10-15 22:25:07.099 | RX | 0E 03 80 00 18 00 18 00 13 00 10 00 08 00 0F 00 1B C0 23 00 12 00 15 00 1D 00 1D 00 12 00 18 40 0B 00 13 00 15 00 17 00 18 00 11 00 10 00 15 60 1F 00 20 00 1B 00 1E 00 21 00 24 00 21 00 1A 00 20 00 14 00 14 00 0A 00 0C 00 17 00 1C 00 12 00 23 C0 1D 00 1A 00 20 00 17 00 11 00 11 00 09 00 12 00 15 E0 09 00 16 00 19 00 24 00 28 00 1C 00 18 00 1C 00 20 00 19 00 21 00 12 00 0E 00 15 00 1A 00 08 A2 0A 
2025-10-15 22:25:07.131 | TX | 0E 03 A0 40 00 40 67 11 
2025-10-15 22:25:07.132 | RX | 0E 03 80 00 24 00 19 00 18 00 0C 00 22 00 1E 00 13 00 28 00 0D 00 13 00 20 00 20 00 1C 00 06 00 12 00 1F 00 1C 00 15 00 1E 00 0F 00 1E 00 23 00 1D 00 10 00 18 00 0E 00 13 00 13 00 19 00 1A 00 22 00 18 00 10 00 1A 00 1E 40 18 00 15 00 0C 00 10 00 0E 00 1F 40 13 00 16 00 23 00 26 E0 20 00 1F 00 0C 00 20 00 25 00 27 00 15 00 0C 00 0B 00 15 00 1B 00 22 00 09 00 0D 00 10 00 22 00 1A 00 1C 00 11 7A EE 
2025-10-15 22:25:07.164 | TX | 0E 03 A0 80 00 40 67 2D 
2025-10-15 22:25:07.164 | RX | 0E 03 80 00 12 00 1C 00 16 00 21 40 14 80 13 40 15 00 21 00 1E 00 12 00 1D 00 13 00 15 00 13 00 19 00 14 40 22 00 0F 00 13 00 17 00 16 00 27 00 19 00 1A 00 0C 00 15 00 17 00 1D 00 14 40 0A 00 1B 00 19 00 16 00 1C 00 10 00 0C 00 16 00 13 00 23 00 16 00 18 00 12 00 22 00 18 40 11 40 13 00 20 00 1D 00 17 00 06 00 10 00 15 00 1D 00 29 00 1A 00 1C 00 06 00 16 00 1F 00 1B 00 07 00 18 00 21 00 20 C4 DB 
2025-10-15 22:25:07.196 | TX | 0E 03 A0 C0 00 40 66 F9 
2025-10-15 22:25:07.196 | RX | 0E 03 80 00 13 00 14 80 14 00 1D 00 1A 00 11 00 1C 00 17 00 1C 00 1F 00 10 00 1C 00 21 00 1D 00 16 00 1B 00 12 00 22 00 1E 00 15 00 27 00 0F 00 27 00 0A 40 05 00 11 40 24 40 1D 00 12 00 1F 00 1E 00 15 00 1F 00 0E 00 19 00 19 00 11 00 17 00 1A 00 1A 00 19 C0 1D 40 16 00 1D 00 1C 00 23 00 26 00 1D 00 0E 00 1E 00 15 00 16 00 16 00 0E 00 16 00 13 00 0D 00 21 00 13 00 10 00 15 00 1E 00 16 00 1E 4D 7F 
2025-10-15 22:25:07.227 | TX | 0E 03 A1 00 00 40 67 39 
2025-10-15 22:25:07.227 | RX | 0E 03 80 00 17 00 1D 00 0D 00 22 00 0D 00 0A 00 19 00 09 00 15 00 1D 00 22 00 22 00 19 00 0E 00 1C 00 1A 00 1B 00 1D 00 13 00 11 00 18 00 1E 80 0E 00 0E 00 1A 00 23 00 1E 00 1E 00 15 00 24 00 15 00 15 00 1E C0 1F 00 22 00 12 00 19 00 1A 00 1E 00 1C 00 17 40 13 00 1C 00 1A 00 24 00 22 00 19 00 0D 00 15 00 1D 00 18 00 1D 00 0D 00 10 00 1A 00 0F 00 1D 00 23 00 0B 00 17 00 1A 00 0E 00 0E 00 0D 12 CB 
2025-10-15 22:25:07.259 | TX | 0E 03 A1 40 00 40 66 ED 
2025-10-15 22:25:07.259 | RX | 0E 03 80 00 16 40 20 00 0E 00 16 00 19 00 18 00 12 00 1D 00 29 40 22 00 14 00 23 00 14 00 18 00 1A 00 10 00 10 00 1D 00 1E 40 23 C0 15 00 1D 00 26 00 1F 00 1D 00 26 00 1E 40 1C 00 0A 00 0E 00 23 00 18 00 1A 00 1A 00 1C 00 1D 00 27 00 26 00 1F 00 14 00 11 00 18 00 1C 00 0E 00 11 00 0A 00 1C 00 16 00 16 00 19 00 1C 00 1A 00 1E 00 16 00 1F 00 15 00 1F 00 14 00 1B 00 19 00 19 00 14 00 14 00 14 F7 1D 
2025-10-15 22:25:07.292 | TX | 0E 03 A1 80 00 40 66 D1 
2025-10-15 22:25:07.293 | RX | 0E 03 80 00 10 00 29 00 1E 00 1E 00 0A 00 08 00 0E 00 18 00 1C 00 14 00 10 00 1D 00 1B 00 1E 00 10 00 19 00 15 00 1A 00 16 00 13 00 1C 00 18 00 1D 80 0C 40 18 00 19 00 18 00 1E 00 1E 00 1A 00 20 00 1F 00 1A 00 19 00 21 00 22 00 14 00 0F 00 15 00 13 00 20 00 20 C0 16 00 18 00 0F 00 1E 00 1C 00 1C 00 11 00 0A 00 18 00 1A 00 16 00 18 00 14 00 00 00 0E 00 15 00 1E 00 14 00 12 00 1E 00 20 00 19 EE 50 
2025-10-15 22:25:07.325 | TX | 0E 03 A1 C0 00 40 67 05 
2025-10-15 22:25:07.325 | RX | 0E 03 80 00 1C 00 20 00 13 00 19 00 25 00 12 00 1D 00 10 00 1B 00 21 00 23 00 14 00 15 40 0B 00 1D 00 24 00 24 C0 0A 00 16 00 18 00 18 00 18 00 1D 00 18 00 1B 00 1B 00 1B 00 1B 00 19 00 1B 00 10 00 23 00 1C 00 1F 00 18 00 22 00 11 00 1B 00 14 00 1A 00 15 00 17 00 1C 00 1A 00 14 00 12 00 0C 00 0D 00 0F 00 1C 00 10 00 19 00 1A 00 11 00 21 00 21 40 15 20 0E 00 0B 00 18 00 21 40 13 00 12 C0 1B EA 9D 
2025-10-15 22:25:07.357 | TX | 0E 03 A2 00 00 40 67 7D 
2025-10-15 22:25:07.358 | RX | 0E 03 80 40 03 40 02 40 02 40 02 40 02 40 02 40 03 40 02 40 01 40 02 40 03 40 03 40 02 40 02 40 02 40 02 40 02 40 02 40 02 40 03 40 02 40 01 40 03 40 02 40 02 40 03 40 02 40 03 40 01 40 03 40 03 40 03 40 04 40 03 40 02 40 02 40 02 40 03 40 01 40 03 40 03 40 02 40 01 40 02 40 03 40 02 40 01 40 01 40 01 40 01 40 02 40 02 40 01 40 00 40 01 40 02 40 01 40 02 40 01 40 00 40 01 40 02 40 01 40 01 6F DE 
2025-10-15 22:25:07.390 | TX | 0E 03 A2 40 00 40 66 A9 
2025-10-15 22:25:07.391 | RX | 0E 03 80 40 02 40 03 40 03 40 02 40 02 40 02 40 02 40 02 40 02 40 02 40 03 40 03 40 02 40 02 40 03 40 03 40 02 40 02 40 03 40 02 40 02 40 02 40 03 40 02 40 03 40 01 40 02 40 03 40 03 40 03 40 02 40 02 40 03 40 02 40 02 40 03 40 02 40 02 40 03 40 02 40 02 40 03 40 02 40 03 40 02 40 03 40 02 40 03 40 03 40 02 40 03 40 01 40 01 40 02 40 03 40 01 40 03 40 02 40 03 40 03 40 03 40 02 40 02 40 02 DE 3A 
2025-10-15 22:25:07.423 | TX | 0E 03 A2 80 00 40 66 95 
2025-10-15 22:25:07.423 | RX | 0E 03 80 40 02 40 02 40 01 40 01 40 02 40 01 40 00 40 01 40 01 40 02 40 01 40 02 40 02 40 01 40 01 40 01 40 01 40 01 40 02 40 02 40 02 40 02 40 01 40 02 40 02 40 02 40 02 40 01 40 01 40 00 40 01 40 01 40 01 40 02 40 00 40 01 40 00 40 02 40 01 40 01 40 01 40 02 40 02 40 01 40 00 40 01 40 01 40 01 40 01 40 01 40 02 40 01 40 02 40 02 40 01 40 03 40 01 40 01 40 01 40 01 40 01 40 02 40 00 40 02 30 E3 
2025-10-15 22:25:07.456 | TX | 0E 03 A2 C0 00 40 67 41 
2025-10-15 22:25:07.456 | RX | 0E 03 80 40 02 40 01 40 02 40 02 40 01 40 01 40 01 40 01 40 01 40 01 40 02 40 01 40 02 40 02 40 02 40 01 40 01 40 01 40 02 40 00 40 02 40 02 40 01 40 02 40 00 40 02 40 01 40 00 40 01 40 01 40 01 40 02 40 01 40 02 40 01 40 01 40 00 40 01 40 02 40 01 40 02 40 01 40 01 40 01 40 01 40 02 40 01 40 01 40 01 40 02 40 02 40 01 40 01 40 01 40 01 40 01 40 01 40 01 40 02 40 02 40 00 40 01 40 01 40 01 A4 C5 
2025-10-15 22:25:07.489 | TX | 0E 03 A3 00 00 40 66 81 
2025-10-15 22:25:07.489 | RX | 0E 03 80 40 01 40 02 40 01 40 02 40 01 40 01 40 01 40 01 40 01 40 01 40 02 40 01 40 01 40 01 40 00 40 01 40 02 40 01 40 01 40 01 40 01 40 01 40 01 40 02 40 01 40 01 40 02 40 01 40 01 40 01 40 00 40 02 40 01 40 00 40 01 40 01 40 01 40 03 40 01 40 00 40 02 40 01 40 01 40 04 40 01 40 01 40 02 40 01 40 02 40 01 40 02 40 01 40 01 40 02 40 01 40 01 40 01 40 02 40 02 40 01 40 01 40 02 40 01 40 01 2D 98 
2025-10-15 22:25:07.522 | TX | 0E 03 A3 40 00 40 67 55 
2025-10-15 22:25:07.522 | RX | 0E 03 80 40 01 40 02 40 03 40 01 40 00 40 02 40 02 40 01 40 01 40 01 40 00 40 01 40 02 40 01 40 01 40 01 40 02 40 01 40 03 40 01 40 01 40 01 40 01 40 02 40 01 40 00 40 02 40 02 40 02 40 01 40 02 40 02 40 02 40 01 40 01 40 02 40 01 40 00 40 02 40 01 40 02 40 01 40 01 40 01 40 02 40 02 40 02 40 01 40 01 40 02 40 01 40 01 40 01 40 01 40 02 40 01 40 02 40 01 40 01 40 01 40 01 40 02 40 01 40 01 08 E5 
2025-10-15 22:25:07.554 | TX | 0E 03 A3 80 00 40 67 69 
2025-10-15 22:25:07.554 | RX | 0E 03 80 40 01 40 01 40 02 40 01 40 01 40 01 40 00 40 02 40 01 40 01 40 02 40 01 40 01 40 01 40 01 40 01 40 02 40 01 40 01 40 01 40 01 40 00 40 00 40 01 40 02 40 01 40 01 40 01 40 01 40 01 40 01 40 02 40 01 40 00 40 01 40 01 40 01 40 00 40 00 40 01 40 01 40 01 40 01 40 01 40 02 40 00 40 01 40 01 40 02 40 01 40 03 40 02 40 01 40 02 40 01 40 01 40 01 40 02 40 02 40 01 40 01 40 01 40 01 40 01 B2 0A 
2025-10-15 22:25:07.587 | TX | 0E 03 A3 C0 00 40 66 BD 
2025-10-15 22:25:07.588 | RX | 0E 03 80 40 01 40 02 40 02 40 01 40 02 40 02 40 01 40 01 40 02 40 01 40 02 40 02 40 01 40 00 40 01 40 01 40 02 40 02 40 01 40 01 40 01 40 01 40 02 40 01 40 02 40 02 40 02 40 00 40 01 40 01 40 01 40 01 40 02 40 01 40 01 40 00 40 02 40 02 40 01 40 01 40 02 40 01 40 01 40 03 40 02 40 00 40 01 40 02 40 01 40 01 40 01 40 01 40 01 40 00 40 02 40 02 40 02 40 01 40 01 40 02 40 01 40 03 40 02 40 01 16 95 
2025-10-15 22:25:07.619 | TX | 0E 10 00 00 00 01 02 00 09 27 A6 
2025-10-15 22:25:07.619 | RX | 0E 10 00 00 00 01 01 36 
2025-10-15 22:25:07.651 | TX | 0E 03 A0 00 00 40 66 C5 
2025-10-15 22:25:07.652 | RX | 0E 03 80 00 16 00 1E 00 12 00 1E 00 21 00 15 00 08 00 1A 00 18 00 1F 40 0E 40 21 00 11 00 1D 00 1A 00 0E 00 1A 00 0F 00 1C 00 25 00 18 00 10 00 1C 00 10 00 21 00 0B 40 19 00 1B 00 26 00 11 00 1B 00 0C 00 14 00 0A 00 1D 00 14 00 1C 00 12 00 16 00 1E 00 13 00 0F 00 13 00 22 00 1B 00 18 00 1D 00 0E 00 1D 00 26 00 1D 00 18 00 1C 00 17 00 22 00 0A 40 0F 40 1C 00 1F C0 27 00 19 00 24 00 21 00 11 32 A7 
2025-10-15 22:25:07.684 | TX | 0E 03 A0 40 00 40 67 11 
2025-10-15 22:25:07.685 | RX | 0E 03 80 00 15 00 14 00 1A 00 1D 00 19 00 21 00 1B 00 1F 00 18 00 12 00 1A 40 1A 00 1D 00 13 00 1B 00 17 00 13 40 2A 00 1D 00 10 00 1E 00 10 00 19 00 13 00 17 00 20 C0 1E 00 17 00 16 00 15 00 1C 00 1B 00 18 80 05 00 0D 40 22 00 14 00 24 00 17 00 1A 40 17 00 1D 00 1B 00 1D 00 0F 40 21 00 18 00 08 00 1B 00 14 00 1B 00 1D 00 21 60 10 00 1A 00 21 00 18 00 17 00 1D 00 0F 00 20 00 15 00 0D 00 20 97 E9 
2025-10-15 22:25:07.717 | TX | 0E 03 A0 80 00 40 67 2D 
2025-10-15 22:25:07.718 | RX | 0E 03 80 00 10 00 12 00 15 00 1A 00 21 00 19 00 1E 00 24 00 17 00 16 00 0E 00 10 00 11 40 0F 00 12 00 14 00 1A 00 20 00 1A 40 14 00 18 00 24 00 23 00 22 00 1F 00 10 00 11 00 16 00 17 00 1F 00 21 00 0E 00 14 00 20 00 24 00 1E 00 1D 00 18 00 1B 00 20 00 10 00 04 00 15 00 13 00 1B 00 12 00 1D 00 12 00 1F 00 1B 00 17 00 1A 00 23 00 1E 00 18 00 12 00 0E 00 1B 40 18 40 06 40 13 00 1E 00 28 40 26 ED 5C 
2025-10-15 22:25:07.749 | TX | 0E 03 A0 C0 00 40 66 F9 
2025-10-15 22:25:07.750 | RX | 0E 03 80 00 13 00 1A 00 21 00 14 00 1F 00 12 00 15 00 19 00 17 00 0D 00 0D 00 18 00 21 00 04 00 23 00 1B 00 23 00 17 00 1E 00 15 00 16 C0 12 00 22 00 12 00 12 00 10 00 11 00 16 00 18 00 14 00 20 00 1F E0 1E 00 11 00 02 00 1A 00 26 00 18 00 1A 00 17 00 12 00 0A 00 22 00 15 00 0A 00 12 00 20 00 1A 00 1D 00 22 00 0F 00 0C 00 1A 00 0F 00 0A 00 13 00 18 00 17 00 19 00 0F 00 1D 00 1A 00 1C 00 14 33 DA 
2025-10-15 22:25:07.781 | TX | 0E 03 A1 00 00 40 67 39 
2025-10-15 22:25:07.782 | RX | 0E 03 80 00 1A 00 1B 00 1B 00 1B 00 19 00 17 00 14 00 10 00 0D 00 0A 00 08 00 08 00 09 00 0B 00 0E 40 12 40 16 C0 19 C0 1D C0 1F C0 21 C0 22 C0 23 C0 23 C0 23 C0 22 C0 22 C0 21 C0 20 C0 1F C0 1D C0 1B 40 1A 00 19 00 19 00 19 00 1A 00 1A 00 1B 00 1C 00 1C 00 1B 00 1A 00 19 00 17 00 15 00 14 00 13 00 13 00 13 00 14 00 16 00 17 00 19 00 1C 00 1E 00 20 00 22 00 23 00 23 00 22 00 20 00 1E 00 1C DD B3 
2025-10-15 22:25:07.813 | TX | 0E 03 A1 40 00 40 66 ED 
2025-10-15 22:25:07.814 | RX | 0E 03 80 00 1B 00 1A 00 19 00 18 00 17 00 16 00 15 00 15 00 14 00 14 00 15 00 15 00 17 00 18 00 1A 00 1B 00 1D 00 1F 00 20 00 21 00 22 00 21 00 20 00 1E 00 1B 00 18 00 13 00 0E 00 0A 00 06 00 03 00 02 00 02 00 02 00 03 40 05 C0 06 C0 09 C0 0C C0 0F C0 13 C0 18 80 1C 80 20 80 23 80 24 80 25 80 24 00 23 00 21 00 1F 00 1D 00 1C 00 1A 00 1A 00 19 00 19 00 1A 00 1B 00 1B 00 1C 00 1D 00 1D 00 1C C3 B8 
2025-10-15 22:25:07.845 | TX | 0E 03 A1 80 00 40 66 D1 
2025-10-15 22:25:07.846 | RX | 0E 03 80 00 1B 00 19 00 17 00 15 00 14 00 12 00 10 00 0E 00 0C 00 0A 00 09 00 08 00 07 00 08 00 09 00 0A 00 0C 00 0E 00 0F 00 10 00 10 00 10 00 10 00 10 00 11 00 12 00 13 00 15 00 16 00 17 00 18 00 18 00 19 00 1A 00 1A 00 1B 00 1B 00 1B 00 1B 00 1B 00 1B 00 1A 00 1A 00 19 00 17 00 14 00 11 00 0D 00 0A 00 07 00 06 00 06 00 06 00 08 00 0B 00 0E 00 12 00 16 00 1A 80 1D 80 20 80 22 80 22 80 21 D3 95 
2025-10-15 22:25:07.877 | TX | 0E 03 A1 C0 00 40 67 05 
2025-10-15 22:25:07.878 | RX | 0E 03 80 80 1F 80 1D 80 1A 80 16 C0 14 C0 12 C0 11 C0 11 C0 12 00 14 00 16 00 18 00 19 00 1A 00 1B 00 1B 00 1B 00 1A 00 1A 00 19 00 18 00 17 00 16 00 16 00 15 00 15 00 15 00 15 00 16 00 17 00 18 00 18 00 18 00 17 00 14 00 11 00 0E 00 0B 00 09 00 08 00 08 00 08 00 0A 00 0B 00 0D 00 0F 00 11 00 12 00 13 00 14 00 14 00 15 00 16 00 16 00 17 00 19 00 1A 00 1C 00 1D 00 1F 00 20 00 21 00 22 00 22 40 D0 
2025-10-15 22:25:07.909 | TX | 0E 03 A2 00 00 40 67 7D 
2025-10-15 22:25:07.910 | RX | 0E 03 80 40 02 40 02 40 01 40 02 40 02 40 02 40 02 40 02 40 02 40 02 40 02 40 01 40 01 40 01 40 01 40 01 40 01 40 01 40 01 40 01 40 01 40 01 40 01 40 01 40 01 40 02 40 02 40 02 40 02 40 02 40 02 40 02 40 02 40 01 40 01 40 01 40 01 40 01 40 01 40 01 40 01 40 01 40 01 40 01 40 01 40 01 40 01 40 01 40 01 40 01 40 01 40 01 40 01 40 01 40 01 40 01 40 01 40 02 40 02 40 02 40 02 40 01 40 01 40 01 BD B8 
2025-10-15 22:25:07.941 | TX | 0E 03 A2 40 00 40 66 A9 
2025-10-15 22:25:07.942 | RX | 0E 03 80 40 01 40 01 40 01 40 01 40 01 40 01 40 01 40 01 40 01 40 01 40 01 40 01 40 01 40 01 40 01 40 01 40 01 40 01 40 01 40 01 40 01 40 01 40 01 40 01 40 01 40 02 40 02 40 02 40 02 40 02 40 02 40 02 40 01 40 01 40 01 40 01 40 01 40 01 40 01 40 01 40 02 40 01 40 01 40 01 40 01 40 01 40 01 40 01 40 02 40 02 40 02 40 02 40 02 40 02 40 02 40 02 40 02 40 02 40 02 40 02 40 02 40 02 40 02 40 02 C1 10 
2025-10-15 22:25:07.975 | TX | 0E 03 A2 80 00 40 66 95 
2025-10-15 22:25:07.975 | RX | 0E 03 80 40 02 40 02 40 02 40 02 40 01 40 01 40 02 40 02 40 02 40 02 40 01 40 01 40 01 40 01 40 01 40 01 40 01 40 01 40 01 40 02 40 02 40 02 40 02 40 02 40 02 40 02 40 02 40 02 40 02 40 02 40 02 40 02 40 02 40 02 40 01 40 01 40 01 40 01 40 01 40 01 40 01 40 01 40 01 40 01 40 02 40 02 40 02 40 02 40 02 40 02 40 02 40 01 40 01 40 01 40 01 40 01 40 01 40 01 40 01 40 02 40 02 40 02 40 02 40 01 20 29 
2025-10-15 22:25:08.006 | TX | 0E 03 A2 C0 00 40 67 41 
2025-10-15 22:25:08.006 | RX | 0E 03 80 40 01 40 01 40 01 40 01 40 01 40 01 40 01 40 01 40 01 40 01 40 01 40 01 40 01 40 01 40 02 40 02 40 02 40 02 40 02 40 02 40 02 40 02 40 02 40 02 40 01 40 01 40 01 40 01 40 01 40 01 40 01 40 02 40 02 40 02 40 02 40 02 40 02 40 02 40 01 40 01 40 01 40 01 40 01 40 01 40 01 40 02 40 02 40 02 40 02 40 01 40 01 40 01 40 00 40 00 40 00 40 00 40 00 40 00 40 00 40 00 40 00 40 00 40 01 40 01 68 F2 
2025-10-15 22:25:08.039 | TX | 0E 03 A3 00 00 40 66 81 
2025-10-15 22:25:08.040 | RX | 0E 03 80 40 01 40 01 40 01 40 01 40 01 40 01 40 01 40 01 40 01 40 01 40 01 40 01 40 01 40 01 40 01 40 01 40 01 40 01 40 01 40 01 40 01 40 01 40 01 40 01 40 01 40 01 40 01 40 01 40 00 40 00 40 00 40 00 40 01 40 01 40 01 40 01 40 01 40 01 40 01 40 01 40 01 40 01 40 01 40 01 40 01 40 01 40 01 40 01 40 01 40 00 40 00 40 00 40 01 40 01 40 01 40 01 40 01 40 01 40 01 40 01 40 01 40 02 40 02 40 01 02 B2 
2025-10-15 22:25:08.072 | TX | 0E 03 A3 40 00 40 67 55 
2025-10-15 22:25:08.073 | RX | 0E 03 80 40 01 40 01 40 01 40 01 40 01 40 01 40 01 40 02 40 02 40 02 40 01 40 01 40 01 40 01 40 01 40 01 40 01 40 01 40 01 40 01 40 01 40 01 40 01 40 01 40 01 40 01 40 01 40 01 40 01 40 01 40 01 40 01 40 01 40 01 40 01 40 01 40 01 40 01 40 01 40 01 40 01 40 01 40 02 40 02 40 02 40 02 40 02 40 02 40 02 40 02 40 02 40 02 40 02 40 02 40 01 40 01 40 01 40 01 40 01 40 02 40 02 40 02 40 02 40 02 94 08 
2025-10-15 22:25:08.106 | TX | 0E 03 A3 80 00 40 67 69 
2025-10-15 22:25:08.106 | RX | 0E 03 80 40 02 40 02 40 02 40 02 40 02 40 02 40 02 40 02 40 01 40 01 40 01 40 01 40 01 40 01 40 01 40 01 40 01 40 01 40 01 40 02 40 02 40 02 40 01 40 01 40 01 40 01 40 01 40 01 40 01 40 01 40 01 40 01 40 00 40 00 40 00 40 00 40 00 40 01 40 01 40 01 40 01 40 01 40 01 40 01 40 01 40 01 40 01 40 01 40 01 40 01 40 01 40 02 40 02 40 02 40 02 40 02 40 01 40 02 40 02 40 02 40 02 40 02 40 02 40 02 4C 36 
2025-10-15 22:25:08.138 | TX | 0E 03 A3 C0 00 40 66 BD 
2025-10-15 22:25:08.138 | RX | 0E 03 80 40 01 40 01 40 00 40 00 40 00 40 00 40 00 40 00 40 00 40 01 40 01 40 01 40 01 40 02 40 02 40 02 40 02 40 01 40 01 40 01 40 01 40 01 40 01 40 01 40 01 40 01 40 01 40 01 40 01 40 01 40 01 40 01 40 01 40 02 40 02 40 02 40 02 40 02 40 02 40 02 40 02 40 02 40 02 40 03 40 02 40 02 40 02 40 02 40 02 40 02 40 01 40 01 40 01 40 01 40 01 40 01 40 01 40 01 40 01 40 01 40 01 40 01 40 01 40 01 45 B0 
2025-10-15 22:25:08.169 | TX | 0E 10 00 00 00 01 02 00 09 27 A6 
2025-10-15 22:25:08.170 | RX | 0E 10 00 00 00 01 01 36 
2025-10-15 22:25:08.202 | TX | 0E 03 A0 00 00 40 66 C5 
2025-10-15 22:25:08.202 | RX | 0E 03 80 00 1E 00 1C 00 0F 00 1C 00 1C 00 19 00 1A 00 21 00 26 00 12 00 21 00 26 00 2B 00 13 00 0F 00 18 00 1C 00 06 00 1C 00 12 00 17 00 1A 00 13 00 16 00 1C 00 13 00 20 00 16 00 1E 00 1A 00 0C 00 0D 00 18 00 14 00 0F 00 18 00 1B 00 1E 00 1E 00 22 00 20 00 1B 00 1B 00 1B 00 1A 00 21 00 17 00 14 00 14 00 12 00 12 00 16 00 16 00 11 00 1D 00 19 00 10 00 25 00 21 00 12 00 0C 00 04 00 1E 00 13 B1 DB 
2025-10-15 22:25:08.235 | TX | 0E 03 A0 40 00 40 67 11 
2025-10-15 22:25:08.235 | RX | 0E 03 80 00 20 00 1F 00 19 00 14 00 1A 00 13 00 12 00 0E 00 1D 00 11 00 1C 00 0A 00 14 00 17 00 1B 00 11 00 21 00 13 00 16 00 1E 00 19 40 0D 00 09 00 12 40 21 00 21 C0 03 00 1B 00 1F 00 18 00 19 00 0D 00 15 40 17 40 2C 00 1C 00 1A 00 15 00 0C 00 17 00 0F 00 1E 00 14 00 20 00 1E 00 23 00 1B 00 17 00 19 00 13 00 23 00 21 00 11 00 13 00 15 00 1E 00 0C 00 18 00 15 00 1E 00 1B 00 1A 00 1D 00 1B BC 10 
2025-10-15 22:25:08.268 | TX | 0E 03 A0 80 00 40 67 2D 
2025-10-15 22:25:08.268 | RX | 0E 03 80 00 0E 00 0F 00 07 00 22 00 26 00 1E 00 1D 00 1F 00 11 00 12 00 1E 00 12 00 1D 00 1E 00 14 00 12 00 16 00 25 00 20 80 0C 40 0C 00 18 00 20 00 16 00 20 00 23 00 20 00 18 00 1E 00 19 00 20 40 11 00 0D 00 1D 00 19 00 1F 00 23 00 13 00 0F 00 15 00 18 00 11 00 1C 00 0F 00 13 00 1F 00 1C 00 0A 00 1C 00 10 00 0D 00 1B 00 20 00 21 00 1E 00 0F 00 15 00 20 00 23 00 19 00 14 00 0F 00 12 00 15 D6 C1 
2025-10-15 22:25:08.301 | TX | 0E 03 A0 C0 00 40 66 F9 
2025-10-15 22:25:08.301 | RX | 0E 03 80 00 1B 00 1B 00 14 00 08 00 19 00 16 00 18 00 10 00 17 00 1A 00 16 00 0D 00 1C 80 24 00 19 00 17 00 11 00 18 00 16 00 0A 00 0E 00 1B 00 1B 40 17 00 13 00 19 00 14 00 18 00 21 00 20 00 0F 00 14 00 1C 00 15 00 1E 00 22 00 0E 00 15 00 1A 00 18 00 1F 00 22 00 17 00 1B 00 14 00 15 00 1F 00 16 00 0D 00 1A 00 24 00 1C 00 1D 00 1B 00 12 00 13 00 15 00 1E 00 16 00 1B 00 19 00 16 00 20 00 21 20 29 
2025-10-15 22:25:08.334 | TX | 0E 03 A1 00 00 40 67 39 
2025-10-15 22:25:08.335 | RX | 0E 03 80 00 06 00 1B 00 1A 00 1C 00 13 00 1F 00 0F 00 15 00 18 00 16 00 1D 00 05 00 11 00 12 00 15 00 1D C0 0A 00 18 00 1E 00 24 00 1F 00 1C 00 11 00 22 00 17 00 1F 40 1F 00 11 00 10 00 10 00 18 00 1C 00 11 40 13 40 16 00 16 00 26 00 1E 00 18 00 18 00 19 00 11 00 1D 00 11 00 20 00 19 00 0E 00 10 00 1D 00 20 00 19 00 1C 00 16 00 0B 00 16 00 17 00 10 00 1D 00 11 00 1E 00 16 00 0E 00 17 00 1C 94 E5 
2025-10-15 22:25:08.367 | TX | 0E 03 A1 40 00 40 66 ED 
2025-10-15 22:25:08.368 | RX | 0E 03 80 00 0E 00 15 00 25 00 24 00 11 00 13 00 0D 00 19 00 22 00 1D 00 17 00 1B 00 1A 00 1E 00 19 40 17 00 10 00 1A 00 0D 00 13 00 10 00 18 00 1E 40 1D 00 16 00 21 00 19 00 19 40 25 00 1F 00 12 00 1D 00 21 00 1D 00 17 00 15 00 0A 00 12 00 23 00 1D 00 26 00 13 00 16 00 17 00 15 00 18 00 12 00 20 00 19 00 0F 00 0A 00 1A 00 1C 00 16 00 1A 40 0B 00 18 00 19 00 1D 00 0E 00 10 00 11 00 1F 00 26 D7 30 
2025-10-15 22:25:08.400 | TX | 0E 03 A1 80 00 40 66 D1 
2025-10-15 22:25:08.400 | RX | 0E 03 80 00 24 00 16 00 10 00 1C 00 29 00 15 00 1D 00 0C 00 1A 00 1C E0 16 40 14 00 19 00 13 00 0F 00 20 00 10 00 14 00 1B 00 1D 00 1B 00 0F 00 08 00 1C 00 1C 00 0F 00 1D 00 1B 00 14 00 06 00 12 00 16 00 18 40 0F C0 1E 00 1E 00 1E 00 1D 00 18 00 19 00 1C 00 19 00 19 00 1B 00 1A 40 19 00 21 00 1C 00 0E 00 19 00 22 00 18 00 1F 00 17 00 26 00 16 00 23 00 1E 00 15 00 14 00 1D 00 08 00 0A 00 06 DA 56 
2025-10-15 22:25:08.433 | TX | 0E 03 A1 C0 00 40 67 05 
2025-10-15 22:25:08.434 | RX | 0E 03 80 00 19 00 17 00 1B 00 18 00 23 00 10 00 15 00 0D 00 1A 00 1D 00 1D 00 18 00 10 00 24 00 15 00 14 00 12 00 0C 00 13 00 20 00 21 00 1E 00 15 00 0C 00 15 00 10 00 18 40 10 00 17 00 18 00 1C 00 1B 80 11 00 07 00 1D 00 15 00 1C 00 1F 00 1A 00 19 00 1A 40 13 00 12 00 24 00 16 00 21 00 0E 00 14 00 28 00 1A 00 17 00 19 00 19 00 17 00 15 00 15 00 1C 00 1F 00 18 00 15 00 1D 00 21 00 26 00 1D 97 59 
2025-10-15 22:25:08.466 | TX | 0E 03 A2 00 00 40 67 7D 
2025-10-15 22:25:08.467 | RX | 0E 03 80 40 02 40 00 40 01 40 02 40 02 40 01 40 02 40 01 40 01 40 01 40 01 40 01 40 01 40 02 40 02 40 02 40 02 40 02 40 02 40 02 40 01 40 01 40 01 40 02 40 01 40 01 40 00 40 01 40 01 40 02 40 02 40 02 40 01 40 02 40 01 40 02 40 01 40 01 40 02 40 02 40 02 40 01 40 02 40 01 40 01 40 03 40 01 40 01 40 02 40 01 40 02 40 00 40 02 40 01 40 01 40 02 40 01 40 01 40 02 40 01 40 02 40 01 40 01 40 01 BD 5A 
2025-10-15 22:25:08.499 | TX | 0E 03 A2 40 00 40 66 A9 
2025-10-15 22:25:08.499 | RX | 0E 03 80 40 01 40 01 40 03 40 01 40 01 40 01 40 01 40 01 40 01 40 01 40 01 40 02 40 01 40 01 40 02 40 01 40 02 40 01 40 01 40 01 40 01 40 02 40 00 40 01 40 01 40 01 40 01 40 02 40 02 40 02 40 02 40 02 40 01 40 01 40 02 40 02 40 01 40 01 40 01 40 01 40 01 40 01 40 02 40 02 40 01 40 01 40 02 40 01 40 01 40 02 40 01 40 02 40 02 40 02 40 01 40 02 40 01 40 01 40 01 40 01 40 02 40 03 40 01 40 01 CD FF 
2025-10-15 22:25:08.532 | TX | 0E 03 A2 80 00 40 66 95 
2025-10-15 22:25:08.532 | RX | 0E 03 80 40 01 40 01 40 00 40 01 40 01 40 02 40 01 40 01 40 02 40 01 40 01 40 02 40 01 40 02 40 01 40 02 40 01 40 01 40 02 40 01 40 01 40 02 40 01 40 02 40 02 40 02 40 01 40 01 40 01 40 01 40 02 40 01 40 01 40 01 40 01 40 00 40 00 40 01 40 01 40 02 40 01 40 01 40 02 40 01 40 01 40 02 40 01 40 00 40 01 40 01 40 02 40 01 40 01 40 01 40 02 40 02 40 01 40 02 40 01 40 02 40 01 40 00 40 01 40 01 C7 47 
2025-10-15 22:25:08.565 | TX | 0E 03 A2 C0 00 40 67 41 
2025-10-15 22:25:08.565 | RX | 0E 03 80 40 01 40 01 40 01 40 02 40 03 40 01 40 01 40 02 40 01 40 01 40 03 40 02 40 02 40 02 40 02 40 01 40 01 40 01 40 02 40 02 40 01 40 01 40 02 40 01 40 01 40 02 40 01 40 01 40 02 40 01 40 01 40 01 40 01 40 01 40 03 40 02 40 01 40 02 40 02 40 01 40 02 40 01 40 02 40 03 40 02 40 01 40 01 40 01 40 01 40 02 40 02 40 01 40 01 40 02 40 02 40 01 40 02 40 02 40 01 40 01 40 02 40 01 40 02 40 01 8C 32 
2025-10-15 22:25:08.598 | TX | 0E 03 A3 00 00 40 66 81 
2025-10-15 22:25:08.599 | RX | 0E 03 80 40 01 40 00 40 01 40 01 40 02 40 01 40 02 40 01 40 02 40 01 40 01 40 02 40 02 40 02 40 01 40 01 40 01 40 02 40 01 40 02 40 01 40 02 40 01 40 02 40 02 40 01 40 00 40 01 40 02 40 02 40 01 40 01 40 02 40 01 40 01 40 01 40 02 40 02 40 01 40 02 40 02 40 01 40 01 40 01 40 01 40 01 40 01 40 01 40 02 40 01 40 01 40 01 40 01 40 02 40 02 40 01 40 02 40 02 40 01 40 02 40 02 40 01 40 02 40 00 41 D5 
2025-10-15 22:25:08.631 | TX | 0E 03 A3 40 00 40 67 55 
2025-10-15 22:25:08.632 | RX | 0E 03 80 40 01 40 01 40 01 40 01 40 01 40 01 40 01 40 01 40 01 40 01 40 01 40 01 40 01 40 01 40 01 40 01 40 01 40 01 40 01 40 01 40 01 40 01 40 01 40 01 40 01 40 01 40 01 40 02 40 01 40 01 40 01 40 01 40 01 40 00 40 00 40 00 40 01 40 01 40 01 40 01 40 01 40 01 40 01 40 01 40 01 40 01 40 01 40 01 40 01 40 01 40 01 40 01 40 01 40 01 40 01 40 01 40 01 40 01 40 01 40 01 40 01 40 01 40 01 40 01 55 F8 
2025-10-15 22:25:08.664 | TX | 0E 03 A3 80 00 40 67 69 
2025-10-15 22:25:08.665 | RX | 0E 03 80 40 01 40 01 40 01 40 01 40 01 40 01 40 01 40 01 40 01 40 00 40 00 40 00 40 00 40 00 40 00 40 00 40 01 40 01 40 01 40 01 40 01 40 01 40 01 40 01 40 01 40 01 40 01 40 01 40 01 40 01 40 01 40 01 40 01 40 01 40 01 40 01 40 01 40 02 40 02 40 02 40 02 40 02 40 02 40 02 40 02 40 02 40 01 40 01 40 01 40 01 40 01 40 01 40 01 40 01 40 01 40 01 40 01 40 01 40 01 40 01 40 01 40 01 40 01 40 01 AF D6 
2025-10-15 22:25:08.696 | TX | 0E 03 A3 C0 00 40 66 BD 
2025-10-15 22:25:08.697 | RX | 0E 03 80 40 01 40 01 40 01 40 01 40 01 40 01 40 01 40 01 40 01 40 01 40 01 40 01 40 02 40 02 40 02 40 02 40 01 40 01 40 01 40 01 40 01 40 01 40 01 40 01 40 02 40 02 40 02 40 02 40 02 40 02 40 02 40 01 40 01 40 01 40 01 40 01 40 01 40 01 40 01 40 01 40 01 40 02 40 02 40 02 40 02 40 01 40 01 40 01 40 01 40 01 40 01 40 02 40 02 40 02 40 02 40 02 40 02 40 02 40 02 40 02 40 02 40 02 40 02 40 02 1B 30 
2025-10-15 22:25:08.729 | TX | 0E 10 00 00 00 01 02 00 09 27 A6 
2025-10-15 22:25:08.729 | RX | 0E 10 00 00 00 01 01 
2025-10-15 22:25:08.730 | RX | 36 
2025-10-15 22:25:08.762 | TX | 0E 03 A0 00 00 40 66 C5 
2025-10-15 22:25:08.762 | RX | 0E 03 80 00 1B 00 18 00 23 00 1B 00 24 00 16 00 1F 00 13 00 1E 00 12 00 1A 00 1D 00 10 00 17 00 13 00 19 00 18 00 17 00 26 00 1C 00 19 00 18 00 15 00 1E 00 07 00 10 00 16 40 14 00 14 00 1C 00 1A 00 1C 00 17 00 1E 00 1B 00 19 00 1E 00 1A 00 10 00 19 00 1F 00 15 00 1E 00 15 00 1B 00 0F 00 1B 00 19 00 1C 00 1C 00 12 00 1F 00 21 00 0C 00 0F 00 1C 00 22 00 14 00 11 00 20 00 25 00 1F 00 0E 00 25 EC 23 
2025-10-15 22:25:08.795 | TX | 0E 03 A0 40 00 40 67 11 
2025-10-15 22:25:08.795 | RX | 0E 03 80 00 21 00 0D 00 0E 00 1A 40 1C 00 10 00 14 00 1A 00 23 80 1C 40 24 00 16 00 1C 00 23 00 19 00 1B 00 0D 00 05 00 1F 00 0A 00 17 00 1A 00 13 00 14 00 17 00 1C 00 20 00 13 00 14 00 1C 00 1D 00 17 00 17 00 10 00 1C 00 18 00 13 00 15 00 0D 00 1F 00 20 00 14 00 1D 00 14 00 1E 00 20 00 20 00 0F 00 1E 00 19 00 15 00 22 00 1F 00 1F 40 15 00 18 00 23 00 1B 00 23 00 20 00 10 00 16 00 20 00 0E 65 C2 
2025-10-15 22:25:08.828 | TX | 0E 03 A0 80 00 40 67 2D 
2025-10-15 22:25:08.829 | RX | 0E 03 80 00 19 00 14 00 0C 00 17 00 1C 00 1B 00 0F 00 0D 00 13 00 23 00 14 00 1B 00 25 00 23 00 19 00 0E 00 10 00 24 00 20 40 0E E0 11 00 21 00 18 00 23 00 19 00 1A 00 1D 00 17 00 1D 00 1F 00 13 00 08 00 1B 00 0A 00 1D 00 0F 00 14 00 10 00 1A 00 1D 00 12 00 18 00 05 00 1E 00 17 00 1E 00 0F 00 04 00 1A 00 16 00 0F 00 10 40 19 00 1C 00 23 00 1D 00 11 00 16 40 17 00 1D 00 0E 00 1D 00 26 00 16 B9 06 
2025-10-15 22:25:08.861 | TX | 0E 03 A0 C0 00 40 66 F9 
2025-10-15 22:25:08.861 | RX | 0E 03 80 C0 18 40 10 00 1D 00 0E 40 1A 00 21 00 1E 00 0F 00 28 00 26 00 24 00 15 00 20 00 1C 00 13 00 0D 00 15 00 22 40 25 00 1E 00 19 00 1A 00 0E 00 14 00 16 00 1C 00 10 00 10 00 1D 00 0C 00 13 00 1B 00 12 00 1F 00 16 00 22 00 2B 00 1F 00 17 00 12 00 1F 00 14 00 12 00 1A 00 1B 00 23 00 1E 00 07 00 18 00 18 00 16 00 16 00 10 00 1A 00 1E 00 1A 00 16 00 06 00 14 00 21 00 1D 00 11 00 18 40 21 1C 1A 
2025-10-15 22:25:08.894 | TX | 0E 03 A1 00 00 40 67 39 
2025-10-15 22:25:08.894 | RX | 0E 03 80 00 17 00 1F 00 17 00 13 00 1D 00 16 00 19 00 19 00 10 00 0E 00 14 00 18 00 1B 00 1C 00 06 00 11 00 12 00 1D 00 13 00 17 00 19 00 11 00 1C 00 15 40 0E 00 12 00 1D 00 21 80 20 00 17 00 1E 00 25 00 24 00 1C 00 0F 00 0E 00 1B 00 14 00 1A 00 0C 00 0A 00 0F 00 1D 00 1B 00 22 00 18 00 17 00 1C 00 21 00 09 00 0C 00 0D 00 1B 00 1D 00 1B 00 14 00 19 00 1A 00 13 00 0F 00 1C 00 18 00 16 00 19 FB D9 
2025-10-15 22:25:08.927 | TX | 0E 03 A1 40 00 40 66 ED 
2025-10-15 22:25:08.927 | RX | 0E 03 80 00 0B 00 1D 40 11 00 11 00 0B 00 1E 00 23 00 1C 00 14 00 1A 00 1C 00 1F 00 20 00 13 00 1C 00 1D 00 14 00 07 00 19 00 1D 40 21 00 1A 00 1A 00 1B 00 1C 00 25 00 22 C0 22 40 0F 00 0A 00 1D 00 1B 00 21 00 11 00 0E 00 20 00 17 00 18 00 1A 00 15 00 18 00 19 00 1F 00 19 00 0A 00 10 00 12 00 18 00 10 00 11 00 1C 00 1A 00 18 00 14 00 16 00 16 00 1F 00 18 00 28 40 18 00 25 1F 20 00 18 00 18 F8 55 
2025-10-15 22:25:08.960 | TX | 0E 03 A1 80 00 40 66 D1 
2025-10-15 22:25:08.961 | RX | 0E 03 80 00 13 00 19 00 11 00 0C 00 11 00 1A 00 21 00 17 00 21 00 18 00 1E 00 19 00 1C 00 0F 00 0D 00 12 00 18 00 13 80 06 40 10 00 15 00 0C E0 20 00 10 00 09 00 19 00 20 00 1E 00 21 00 17 00 1B 00 18 00 1F 00 16 00 1F 00 14 00 16 00 17 00 11 00 18 00 1E 00 19 00 15 00 1D 00 17 00 1A 00 1E 00 1D 00 17 00 0F 00 0B 00 11 00 1E 00 1D 40 14 00 15 00 11 00 1F 00 1B 00 14 00 0E 00 1D 00 1B 00 25 C1 F9 
2025-10-15 22:25:08.993 | TX | 0E 03 A1 C0 00 40 67 05 
