2025-10-15 20:48:27.816 | TX | 0E 03 00 00 00 04 44 F6 
2025-10-15 20:48:27.816 | RX | 0E 03 08 00 00 00 00 00 00 18 B4 AF B4 
2025-10-15 20:48:27.832 | TX | 0E 03 00 00 00 04 44 F6 
2025-10-15 20:48:27.832 | RX | 0E 03 08 00 00 00 00 00 00 18 B4 AF B4 
2025-10-15 20:48:29.014 | TX | 0E 03 00 00 00 04 44 F6 
2025-10-15 20:48:29.015 | RX | 0E 03 08 00 00 00 00 00 00 18 B5 6E 74 
2025-10-15 20:48:29.030 | TX | 0E 03 00 00 00 04 44 F6 
2025-10-15 20:48:29.031 | RX | 0E 03 08 00 00 00 00 00 00 18 B5 6E 74 
2025-10-15 20:48:29.046 | TX | 0E 10 00 00 00 02 04 00 01 00 0A 12 7C 
2025-10-15 20:48:29.046 | RX | 0E 10 00 00 00 02 41 37 
2025-10-15 20:48:29.062 | TX | 0E 10 00 00 00 02 04 00 02 00 01 A3 BB 
2025-10-15 20:48:29.062 | RX | 0E 10 00 00 00 02 41 37 
2025-10-15 20:48:29.078 | TX | 0E 03 00 00 00 01 84 F5 
2025-10-15 20:48:29.079 | RX | 0E 03 02 00 00 EC 45 
2025-10-15 20:48:29.095 | TX | 0E 10 00 00 00 01 02 00 09 27 A6 
2025-10-15 20:48:29.095 | RX | 0E 10 00 00 00 01 01 36 
2025-10-15 20:48:29.111 | TX | 0E 03 00 00 00 01 84 F5 
2025-10-15 20:48:29.111 | RX | 0E 03 02 00 00 EC 45 
2025-10-15 20:48:29.126 | TX | 0E 10 00 00 00 01 02 00 09 27 A6 
2025-10-15 20:48:29.126 | RX | 0E 10 00 00 00 01 01 36 
2025-10-15 20:48:29.158 | TX | 0E 03 A0 00 00 40 66 C5 
2025-10-15 20:48:29.158 | RX | 0E 03 80 00 17 00 14 00 15 00 0D 00 23 00 21 00 16 00 04 00 1B 00 13 00 0D 00 0C 00 15 00 24 00 1C 00 1F 00 17 00 15 00 1F 00 1E 1F 20 00 15 00 11 00 0D 00 0A 00 11 40 21 00 12 00 0C 00 15 00 08 00 18 00 13 00 12 00 22 00 1E 00 14 00 15 00 0A 00 1A 00 18 00 19 00 10 00 1C 00 25 00 15 00 16 00 15 00 10 00 11 00 21 00 13 00 2A 00 16 00 16 00 21 00 1B 00 1F 00 19 00 12 00 0B 00 1B 00 13 00 0D FB 5A 
2025-10-15 20:48:29.189 | TX | 0E 03 A0 40 00 40 67 11 
2025-10-15 20:48:29.189 | RX | 0E 03 80 00 1B 00 11 00 13 00 13 00 1C 00 0E 00 15 00 18 00 1B 00 10 00 10 00 17 00 0D C0 10 40 16 00 28 00 19 00 1A 00 20 00 13 00 20 00 21 00 28 00 20 00 0D 00 12 00 18 00 11 00 0A 00 09 00 14 00 12 00 16 00 0D 00 13 00 12 00 17 40 11 00 1C 00 25 00 14 00 24 00 11 00 13 00 18 00 11 00 05 00 23 00 1C 00 14 00 10 00 15 00 15 00 14 00 18 00 18 00 1C 00 11 00 17 00 17 00 13 00 12 00 18 00 1C 7D BC 
2025-10-15 20:48:29.220 | TX | 0E 03 A0 80 00 40 67 2D 
2025-10-15 20:48:29.220 | RX | 0E 03 80 00 0D 00 19 00 1E 00 1D 00 1B 00 19 00 16 00 16 00 1E 00 14 00 16 00 17 00 15 40 0E 00 17 00 15 00 16 00 13 00 0C 00 1A 00 1F 00 21 00 13 00 1C 00 17 00 1A 00 0E 00 19 00 1C 00 20 00 0D 00 16 00 22 00 1A 00 10 C0 0F 00 19 00 13 00 1B 40 1B 00 19 00 17 00 27 00 1B 00 10 00 1C 00 1D 00 1C 00 10 00 22 00 14 40 10 00 13 00 1B 00 1F 00 23 00 1E 00 16 00 17 00 14 00 24 00 1B 00 17 00 1A 52 A8 
2025-10-15 20:48:29.250 | TX | 0E 03 A0 C0 00 40 66 F9 
2025-10-15 20:48:29.251 | RX | 0E 03 80 00 16 00 21 00 1C 00 11 00 19 00 1C 00 1B 00 0B 00 11 00 0A 00 1D 00 1C 00 1D 00 1F 00 12 80 22 00 1A 00 13 00 1C 00 09 00 23 00 1B 00 11 00 0C 00 15 00 12 00 18 00 1A 00 18 00 1A 00 16 00 17 40 23 C0 21 00 18 00 1E 00 19 00 1F 00 11 00 11 00 12 00 10 00 0A 00 16 00 07 00 03 00 19 00 18 00 1E 40 27 00 FF 00 1F 00 1A 00 22 00 1B 00 1C 00 15 00 12 00 22 00 1E 00 13 00 16 00 15 00 12 15 A2 
2025-10-15 20:48:29.281 | TX | 0E 03 A1 00 00 40 67 39 
2025-10-15 20:48:29.281 | RX | 0E 03 80 00 21 00 0D 00 1B 00 1E 40 0D 00 08 00 18 00 1B 00 18 00 0B 00 16 00 23 00 1A 00 17 00 1A 00 10 00 19 40 1C 00 1C 00 1F 00 19 00 1F 00 20 00 0D 00 0C 00 1E 00 1D 00 14 00 17 00 0F 00 1D 00 21 00 13 00 10 00 29 00 17 00 24 00 19 00 1F 00 25 00 0E 00 1A 00 0F 00 0F 00 17 40 08 00 0B 00 14 00 18 40 1D 00 0C 00 0B 00 27 00 13 00 16 00 20 00 1D 00 15 00 1C 00 1E 00 1C 00 19 40 12 00 1A D0 69 
2025-10-15 20:48:29.312 | TX | 0E 03 A1 40 00 40 66 ED 
2025-10-15 20:48:29.312 | RX | 0E 03 80 00 11 00 1A 00 15 00 1D 00 25 00 18 00 1C 00 26 00 1E 00 16 00 17 00 13 00 19 00 1F 00 09 00 1F 00 1B 00 15 00 16 00 19 00 20 00 1B 00 20 00 10 00 18 00 19 00 18 00 12 00 0E 00 0E 00 21 00 23 20 01 00 0E 00 0D 00 23 40 1C 00 1D 00 18 00 1C 00 1E 80 28 00 1E 00 17 00 1D 00 1F 00 1D 00 1B 00 23 00 0F 00 12 00 14 00 18 00 19 80 02 00 13 00 16 40 1D 40 1D 00 1D 00 1D 00 21 00 21 00 22 95 E8 
2025-10-15 20:48:29.343 | TX | 0E 03 A1 80 00 40 66 D1 
2025-10-15 20:48:29.343 | RX | 0E 03 80 00 12 00 24 00 14 00 11 00 1A 00 17 00 19 00 11 00 1D 00 15 80 0F C0 1C 00 23 00 25 80 13 00 1D 00 20 00 1D 00 15 00 21 00 1A 00 10 00 10 00 1B 00 23 00 11 00 17 00 0D 00 19 00 1C 00 1A 00 12 00 19 00 16 00 20 00 20 00 1A 00 1F 00 26 00 18 00 1B 00 1D 00 1D 00 1D 00 1D 00 19 00 14 00 10 00 11 00 0F 00 1F 00 20 00 25 00 1A 00 1C 00 1F 00 1C 00 17 00 12 00 18 00 20 00 17 00 09 00 13 45 A9 
2025-10-15 20:48:29.374 | TX | 0E 03 A1 C0 00 40 67 05 
2025-10-15 20:48:29.374 | RX | 0E 03 80 00 10 00 17 00 1E 00 17 00 08 00 15 00 20 00 15 00 05 00 19 00 26 00 14 C0 11 40 09 00 19 00 24 00 15 00 0A 40 0E 00 1C 00 13 00 13 C0 21 00 18 00 21 00 1A 00 1B 00 19 00 16 00 12 00 1A 00 13 00 1B 00 0D 00 0E 00 16 00 26 00 1E 00 1A 00 18 00 1B 00 1B 40 1A 00 19 00 18 00 20 00 23 00 19 00 11 00 18 00 24 00 0E 00 18 00 16 00 1A 00 17 00 0B 00 1A 00 1C 00 1C 00 24 00 1C 00 17 00 1E 6A 9B 
2025-10-15 20:48:29.405 | TX | 0E 03 A2 00 00 40 67 7D 
2025-10-15 20:48:29.406 | RX | 0E 03 80 40 03 40 02 40 02 40 01 40 02 40 01 40 02 40 01 40 01 40 01 40 01 40 01 40 02 40 02 40 02 40 01 40 02 40 01 40 01 40 01 40 01 40 01 40 02 40 02 40 02 40 03 40 02 40 02 40 01 40 01 40 02 40 01 40 02 40 01 40 01 40 01 40 02 40 01 40 01 40 01 40 01 40 02 40 01 40 00 40 02 40 02 40 03 40 03 40 02 40 02 40 03 40 02 40 02 40 03 40 03 40 02 40 02 40 02 40 02 40 01 40 02 40 01 40 03 40 03 CC 4B 
2025-10-15 20:48:29.436 | TX | 0E 03 A2 40 00 40 66 A9 
2025-10-15 20:48:29.437 | RX | 0E 03 80 40 01 40 01 40 02 40 01 40 02 40 02 40 02 40 02 40 00 40 01 40 00 40 01 40 02 40 01 40 02 40 01 40 02 40 02 40 00 40 01 40 01 40 00 40 01 40 01 40 02 40 01 40 01 40 01 40 01 40 02 40 03 40 02 40 02 40 01 40 02 40 01 40 01 40 01 40 00 40 01 40 01 40 01 40 01 40 01 40 02 40 02 40 01 40 02 40 01 40 01 40 00 40 02 40 02 40 01 40 01 40 01 40 01 40 01 40 02 40 02 40 02 40 01 40 02 40 02 32 0C 
2025-10-15 20:48:29.467 | TX | 0E 03 A2 80 00 40 66 95 
2025-10-15 20:48:29.468 | RX | 0E 03 80 40 01 40 00 40 02 40 02 40 01 40 02 40 01 40 01 40 02 40 02 40 02 40 02 40 01 40 01 40 01 40 01 40 01 40 02 40 02 40 02 40 01 40 02 40 00 40 01 40 01 40 01 40 02 40 01 40 01 40 02 40 02 40 02 40 01 40 02 40 01 40 01 40 01 40 01 40 01 40 01 40 01 40 01 40 02 40 02 40 02 40 01 40 01 40 02 40 02 40 01 40 00 5F 03 40 02 40 03 40 02 40 01 40 02 40 01 40 01 40 01 40 01 40 01 40 02 40 03 54 C5 
2025-10-15 20:48:29.498 | TX | 0E 03 A2 C0 00 40 67 41 
2025-10-15 20:48:29.499 | RX | 0E 03 80 40 02 40 02 40 02 40 01 40 02 40 02 40 01 40 01 40 01 40 02 40 01 40 01 40 01 40 02 40 01 40 02 40 01 40 01 40 02 40 03 40 02 40 03 40 03 40 03 40 02 40 02 40 02 40 02 40 02 40 03 40 02 40 03 40 03 40 02 40 02 40 02 40 03 40 03 40 02 40 01 40 01 40 02 40 02 40 01 40 01 40 03 40 02 40 02 40 01 40 01 40 03 40 02 40 03 40 01 40 02 40 01 40 01 40 01 40 01 40 01 40 02 40 01 40 02 40 01 23 13 
2025-10-15 20:48:29.530 | TX | 0E 03 A3 00 00 40 66 81 
2025-10-15 20:48:29.530 | RX | 0E 03 80 40 03 40 02 40 02 40 03 40 03 40 02 40 01 40 02 40 03 40 02 40 02 40 02 40 02 40 02 40 01 40 01 40 02 40 02 40 02 40 02 40 01 40 02 40 03 40 02 40 01 40 03 40 02 40 02 40 02 40 03 40 01 40 01 40 02 40 02 40 01 40 01 40 02 40 01 40 02 40 03 40 02 40 02 40 02 40 04 40 01 40 02 40 02 40 03 40 02 40 02 40 02 40 02 40 03 40 03 40 02 40 02 40 02 40 02 40 02 40 02 40 02 40 03 40 03 40 02 8B E3 
2025-10-15 20:48:29.561 | TX | 0E 03 A3 40 00 40 67 55 
2025-10-15 20:48:29.561 | RX | 0E 03 80 40 02 40 01 40 01 40 01 40 02 40 01 40 02 40 01 40 02 40 02 40 01 40 01 40 01 40 01 40 02 40 01 40 01 40 02 40 01 40 01 40 02 40 02 40 00 40 01 40 02 40 00 40 01 40 02 40 01 40 02 40 01 40 02 40 01 40 02 40 01 40 01 40 02 40 02 40 02 40 01 40 02 40 02 40 01 40 01 40 02 40 01 40 01 40 01 40 01 40 01 40 02 40 02 40 02 40 01 40 02 40 02 40 01 40 01 40 01 40 02 40 01 40 01 40 01 40 01 0C 69 
2025-10-15 20:48:29.592 | TX | 0E 03 A3 80 00 40 67 69 
2025-10-15 20:48:29.593 | RX | 0E 03 80 40 02 40 03 40 02 40 03 40 02 40 02 40 02 40 03 40 01 40 02 40 02 40 02 40 03 40 02 40 03 40 02 40 02 40 02 40 02 40 02 40 02 40 02 40 03 40 02 40 02 40 02 40 02 40 01 40 02 40 03 40 02 40 02 40 03 40 02 40 02 40 03 40 02 40 02 40 03 40 02 40 03 40 01 40 02 40 02 40 01 40 02 40 03 40 02 40 02 40 03 40 02 40 02 40 02 40 01 40 03 40 01 40 01 40 02 40 03 40 02 40 02 40 02 40 03 40 02 DA D0 
2025-10-15 20:48:29.623 | TX | 0E 03 A3 C0 00 40 66 BD 
2025-10-15 20:48:29.624 | RX | 0E 03 80 40 03 40 02 40 03 40 02 40 03 40 02 40 02 40 03 40 02 40 02 40 01 40 02 40 02 40 02 40 03 40 03 40 02 40 02 40 02 40 02 40 01 40 01 40 02 40 02 40 03 40 03 40 02 40 02 40 02 40 02 40 02 40 03 40 02 40 03 40 02 40 02 40 02 40 03 40 02 40 02 40 02 40 02 40 02 40 03 40 03 40 02 40 02 40 03 40 02 40 02 40 04 40 02 40 02 40 02 40 01 40 02 40 02 40 03 40 02 40 02 40 03 40 02 40 04 40 02 D7 9C 
2025-10-15 20:48:29.640 | TX | 0E 10 00 00 00 01 02 00 09 27 A6 
2025-10-15 20:48:29.641 | RX | 0E 10 00 00 00 01 01 36 
2025-10-15 20:48:29.672 | TX | 0E 03 A0 00 00 40 66 C5 
2025-10-15 20:48:29.673 | RX | 0E 03 80 00 1C 00 20 C0 24 00 07 00 1A 00 18 00 18 00 17 00 1B 00 1B 00 1A 00 1A 00 16 00 0F E0 14 00 14 00 1B 00 21 00 0E 40 17 00 19 00 1A 00 24 00 1E 00 0D 00 1C 00 22 00 1E 00 11 00 14 00 1D 00 1A 00 17 00 1E 00 20 00 14 00 10 00 12 00 18 00 1A 80 0A C0 14 00 24 00 20 C0 1B 00 1C 00 0C 00 23 00 23 00 20 00 01 00 1B 00 19 00 0E 00 0F 00 1B 00 12 00 18 00 12 00 13 00 20 00 21 C0 07 00 10 4A B7 
2025-10-15 20:48:29.703 | TX | 0E 03 A0 40 00 40 67 11 
2025-10-15 20:48:29.704 | RX | 0E 03 80 00 20 00 19 00 17 00 12 00 12 00 18 00 11 40 1A 00 13 00 0F 00 19 00 12 00 1A 00 11 00 21 00 14 00 1E 00 1B 00 20 00 18 00 20 00 19 00 18 00 0B 00 12 00 18 00 1D 00 1C 00 15 00 16 00 13 00 0A 40 11 40 13 00 11 00 1D 00 18 00 16 00 1D 00 20 00 19 00 18 00 28 00 12 00 0B 00 07 00 06 00 14 40 10 00 12 00 1A 00 1C 00 1A 00 1B 00 1F 00 1F 00 16 00 2B 00 24 00 19 00 17 00 25 00 1C 00 23 4E A2 
2025-10-15 20:48:29.734 | TX | 0E 03 A0 80 00 40 67 2D 
2025-10-15 20:48:29.734 | RX | 0E 03 80 00 13 00 14 00 20 00 14 00 0B 00 20 00 19 00 19 C0 0F 00 0E 00 1B 00 1E 40 0E 40 1C 00 1A 00 25 00 1B 00 1E 00 0B 00 23 00 1E 00 21 00 18 00 20 00 18 00 10 00 10 00 0E 40 14 00 1C 00 18 00 13 00 1C 00 28 00 0F 80 16 40 11 00 20 00 1F 00 1F 00 0D 00 0A 00 28 00 1E 00 21 00 11 00 12 00 12 00 12 00 18 00 0A 00 26 00 10 00 1A 00 1C 00 18 00 1B 00 20 40 19 00 13 00 1D 00 1A 00 12 00 10 DC 7F 
2025-10-15 20:48:29.765 | TX | 0E 03 A0 C0 00 40 66 F9 
2025-10-15 20:48:29.765 | RX | 0E 03 80 00 0B 00 17 00 13 00 26 00 21 80 28 00 1D 00 1A 00 20 00 24 00 0D 00 10 00 09 00 1D 00 1B 00 0F 00 18 00 12 00 17 00 0B 00 1D 00 11 40 12 00 17 00 1C 00 23 00 1D 80 1F 00 16 00 19 00 1D 00 22 C0 1C 00 0C 00 1A 00 1D 00 21 00 0A 00 10 00 1C 00 19 00 1B 00 1E 00 0F 00 10 00 19 00 20 00 27 00 18 00 25 00 1E 00 19 00 16 
2025-10-15 20:48:29.766 | RX | 00 19 C0 2A 00 12 00 0F 00 14 00 15 00 0B 00 0D 00 11 00 24 00 15 D3 FF 
2025-10-15 20:48:29.797 | TX | 0E 03 A1 00 00 40 67 39 
2025-10-15 20:48:29.798 | RX | 0E 03 80 00 1F 00 20 00 25 00 0A 00 15 00 1D 00 1D 00 10 00 1D 00 11 00 19 00 18 00 1E 00 22 40 06 00 1A 00 1E 00 17 00 19 00 18 00 17 00 1C 00 18 00 1A 00 0F 00 11 00 17 00 18 00 14 00 1A 00 06 00 22 00 14 00 22 00 1D 00 15 00 1F 00 1C 00 16 00 1F 00 1D 00 14 00 22 00 18 00 14 00 12 00 1E 00 1C 00 0C 00 17 00 19 00 12 00 0D 00 12 00 16 00 1E 00 22 00 12 00 1C 00 17 00 1C 00 1D 00 16 00 22 3A 03 
2025-10-15 20:48:29.828 | TX | 0E 03 A1 40 00 40 66 ED 
2025-10-15 20:48:29.829 | RX | 0E 03 80 00 15 00 19 00 14 00 1B 00 1A 00 1C 00 1F 00 0C 40 17 00 18 00 15 00 16 00 1D 00 1D 00 10 00 19 00 23 00 1A 00 12 00 1B 00 1C 00 14 00 1E 00 04 00 16 00 19 00 1D 00 1A 00 16 00 1B 00 20 00 16 00 11 00 16 00 16 00 10 00 1A 00 20 00 11 00 14 00 15 00 18 00 0B 00 1B 00 13 00 19 00 11 00 1F 00 21 00 22 00 22 00 12 00 29 00 26 00 12 40 13 00 1B 40 21 00 08 00 18 00 1C 00 13 00 0F 00 10 9B 96 
2025-10-15 20:48:29.859 | TX | 0E 03 A1 80 00 40 66 D1 
2025-10-15 20:48:29.860 | RX | 0E 03 80 00 1C 00 20 00 21 00 1D 00 16 00 11 00 0E 00 07 00 1F 00 1D 00 1C 00 18 C0 0E 00 1B 00 28 00 1B 00 17 00 1C 00 17 00 14 00 18 00 17 00 11 00 15 00 21 00 27 00 11 00 02 00 1C 00 15 00 15 00 13 00 1C 00 22 00 15 00 16 00 1F 00 1A 00 18 00 18 00 21 00 14 00 15 00 15 00 12 00 1C 00 15 00 11 00 20 00 1E 00 14 00 1E 00 1C 00 1A 00 29 00 1A 00 22 40 13 00 04 00 0B 00 18 00 1A 00 04 20 0A 8E 1B 
2025-10-15 20:48:29.890 | TX | 0E 03 A1 C0 00 40 67 05 
2025-10-15 20:48:29.890 | RX | 0E 03 80 00 15 00 13 00 11 00 11 00 11 00 11 00 12 20 13 60 14 60 15 E0 17 C0 19 C0 1B C0 1D C0 1E C0 20 C0 22 C0 24 C0 26 80 28 80 29 00 29 00 29 00 27 00 25 00 23 00 20 00 1D 00 1B 00 19 00 17 00 17 00 17 00 18 00 19 00 1A 00 1A 00 19 00 17 00 15 00 13 00 11 00 10 00 0F 00 0F 00 10 00 11 00 12 00 13 00 14 00 14 00 15 00 15 00 15 00 14 00 13 00 12 00 11 00 10 00 0F 00 0E 00 0C 00 0B 00 0A 6C BE 
2025-10-15 20:48:29.921 | TX | 0E 03 A2 00 00 40 67 7D 
2025-10-15 20:48:29.921 | RX | 0E 03 80 40 02 40 02 40 02 40 02 40 02 40 02 40 02 40 02 40 02 40 02 40 02 40 02 40 02 40 02 40 02 40 02 40 01 40 01 40 01 40 02 40 02 40 02 40 02 40 02 40 02 40 02 40 02 40 02 40 02 40 02 40 02 40 02 40 02 40 02 40 02 40 02 40 02 40 02 40 02 40 02 40 02 40 02 40 02 40 02 40 02 40 01 40 01 40 01 40 02 40 02 40 01 40 01 40 01 40 00 40 01 40 01 40 01 40 01 40 01 40 01 40 01 40 01 40 01 40 01 A3 58 
2025-10-15 20:48:29.952 | TX | 0E 03 A2 40 00 40 66 A9 
2025-10-15 20:48:29.953 | RX | 0E 03 80 40 01 40 01 40 01 40 01 40 01 40 01 40 01 40 01 40 01 40 01 40 01 40 01 40 01 40 02 40 02 40 02 40 01 40 01 40 01 40 01 40 01 40 01 40 01 40 01 40 01 40 01 40 02 40 02 40 02 40 01 40 01 40 01 40 01 40 01 40 01 40 01 40 02 40 01 40 01 40 01 40 01 40 01 40 01 40 01 40 01 40 01 40 01 40 01 40 01 40 01 40 00 40 00 40 00 40 00 40 00 40 00 40 00 40 00 40 00 40 01 40 01 40 01 40 01 40 01 67 A6 
2025-10-15 20:48:29.983 | TX | 0E 03 A2 80 00 40 66 95 
2025-10-15 20:48:29.983 | RX | 0E 03 80 40 01 40 01 40 01 40 01 40 01 40 01 40 01 40 01 40 01 40 01 40 01 40 01 40 01 40 01 40 01 40 02 40 02 40 02 40 02 40 01 40 01 40 01 40 01 40 01 40 01 40 01 40 01 40 01 40 02 40 02 40 02 40 02 40 02 40 02 40 02 40 02 40 02 40 02 40 01 40 01 40 01 40 01 40 01 40 01 40 01 40 01 40 01 40 01 40 01 40 01 40 01 40 01 40 01 40 01 
2025-10-15 20:48:29.984 | RX | 40 01 40 01 40 01 40 01 40 01 40 01 40 01 40 01 40 01 40 01 35 5C 
2025-10-15 20:48:30.015 | TX | 0E 03 A2 C0 00 40 67 41 
2025-10-15 20:48:30.015 | RX | 0E 03 80 40 01 40 01 40 01 40 01 40 01 40 01 40 01 40 00 40 00 40 00 40 01 40 01 40 01 40 01 40 02 40 02 40 02 40 02 40 02 40 02 40 01 40 01 40 01 40 01 40 01 40 01 40 01 40 01 40 01 40 02 40 02 40 02 40 02 40 02 40 02 40 01 40 01 40 01 40 01 40 01 40 00 40 00 40 00 40 00 40 00 40 01 40 01 40 01 40 02 40 02 40 02 40 02 40 02 40 02 40 02 40 02 40 02 40 01 40 01 40 01 40 01 40 01 40 01 40 00 CF 52 
2025-10-15 20:48:30.047 | TX | 0E 03 A3 00 00 40 66 81 
2025-10-15 20:48:30.048 | RX | 0E 03 80 40 00 40 00 40 01 40 01 40 01 40 02 40 02 40 02 40 02 40 02 40 01 40 01 40 01 40 01 40 01 40 02 40 01 40 01 40 01 40 01 40 00 40 00 40 00 40 00 40 00 40 00 40 01 40 01 40 01 40 01 40 01 40 01 40 01 40 01 40 01 40 01 40 01 40 01 40 01 40 01 40 01 40 01 40 01 40 01 40 01 40 01 40 01 40 01 40 01 40 01 40 01 40 01 40 01 40 01 40 02 40 02 40 02 40 02 40 02 40 02 40 02 40 02 40 02 40 02 06 72 
2025-10-15 20:48:30.078 | TX | 0E 03 A3 40 00 40 67 55 
2025-10-15 20:48:30.078 | RX | 0E 03 80 40 02 40 02 40 02 40 02 40 02 40 02 40 01 40 01 40 01 40 01 40 01 40 01 40 01 40 01 40 01 40 01 40 01 40 01 40 01 40 01 40 01 40 01 40 01 40 01 40 01 40 01 40 01 40 01 40 01 40 01 40 01 40 01 40 01 40 01 40 01 40 01 40 01 40 01 40 01 40 01 40 01 40 02 40 02 40 02 40 02 40 02 40 02 40 02 40 02 40 02 40 02 40 02 40 02 40 02 40 02 40 02 40 02 40 02 40 02 40 02 40 02 40 01 40 01 40 01 6D 92 
2025-10-15 20:48:30.109 | TX | 0E 03 A3 80 00 40 67 69 
2025-10-15 20:48:30.109 | RX | 0E 03 80 40 01 40 01 40 01 40 01 40 01 40 01 40 01 40 01 40 01 40 01 40 01 40 01 40 01 40 01 40 01 40 01 40 01 40 01 40 01 40 01 40 01 40 02 40 02 40 02 40 02 40 01 40 01 40 01 40 01 40 01 40 01 40 01 40 01 40 01 40 00 40 00 40 00 40 00 40 01 40 01 40 01 40 01 40 01 40 01 40 01 40 01 40 01 40 01 40 01 40 01 40 01 40 01 40 01 40 01 40 02 40 02 40 02 40 02 40 02 40 02 40 02 40 02 40 02 40 03 B7 A4 
2025-10-15 20:48:30.140 | TX | 0E 03 A3 C0 00 40 66 BD 
2025-10-15 20:48:30.140 | RX | 0E 03 80 40 03 40 03 40 03 40 03 40 02 40 02 40 02 40 02 40 02 40 02 40 01 40 01 40 01 40 01 40 01 40 01 40 01 40 02 40 02 40 02 40 02 40 02 40 02 40 02 40 02 40 02 40 02 40 02 40 02 40 02 40 02 40 02 40 02 40 02 40 01 40 01 40 01 40 01 40 01 40 01 40 01 40 01 40 01 40 01 40 01 40 01 40 01 40 01 40 01 40 02 40 02 40 02 40 02 40 02 40 01 40 01 40 01 40 01 40 01 40 01 40 01 40 01 40 01 40 00 F0 1A 
2025-10-15 20:48:30.157 | TX | 0E 10 00 00 00 01 02 00 09 27 A6 
2025-10-15 20:48:30.157 | RX | 0E 10 00 00 00 01 01 36 
2025-10-15 20:48:30.188 | TX | 0E 03 A0 00 00 40 66 C5 
2025-10-15 20:48:30.188 | RX | 0E 03 80 00 1A 00 24 00 25 40 1B 00 1E 00 25 00 22 00 1D 00 13 00 12 00 1C 00 20 00 16 00 16 00 09 00 10 00 16 00 1A 00 0C 00 14 00 1A 00 18 00 1D 00 1A 00 19 00 12 00 16 00 19 00 16 00 1F 00 19 00 21 00 1E 00 14 00 1C 00 1E 00 24 00 11 00 0B 00 1B 00 17 00 16 00 0F 00 15 00 1C 00 18 00 13 00 22 00 1F 00 18 40 17 00 1B 00 15 00 19 00 12 00 0B 00 0E 00 24 00 24 40 28 00 15 00 1B 00 1A 00 1D 59 4C 
2025-10-15 20:48:30.219 | TX | 0E 03 A0 40 00 40 67 11 
2025-10-15 20:48:30.219 | RX | 0E 03 80 00 13 00 21 00 18 00 11 00 0F 00 20 00 16 00 18 00 13 00 13 00 1D 40 14 40 13 00 17 00 1C 00 17 00 1E 00 10 00 09 00 16 00 1F 00 1E 00 0E 00 24 00 16 00 17 00 1A 00 15 00 20 00 19 00 0D 00 16 00 20 00 15 C0 07 00 13 00 2A 00 21 40 1D 00 0B 00 0F 00 19 00 1A 00 21 00 17 00 19 00 1F 00 14 00 10 00 12 40 17 00 1A 00 13 00 1A 00 16 00 21 40 0D 00 13 00 29 00 1F 00 1E 00 1F 00 04 00 1F 17 C2 
2025-10-15 20:48:30.250 | TX | 0E 03 A0 80 00 40 67 2D 
2025-10-15 20:48:30.250 | RX | 0E 03 80 00 1F 00 12 00 15 00 18 00 1B 00 18 00 16 00 17 00 21 40 1E 00 12 00 13 00 1A 00 1E 00 0F 00 0E 00 0F 00 16 00 11 00 15 00 16 00 22 00 1A 00 16 00 0B 00 12 00 19 00 14 40 16 00 1B 00 1A C0 26 40 19 00 0B 00 1A 00 22 00 19 00 15 00 1A 00 21 00 09 00 01 00 12 00 0F 40 0C 80 17 00 15 00 1C 00 1A 00 10 40 0D 00 21 00 1D 00 1E C0 21 00 18 00 0B 00 1E 00 22 00 30 00 05 00 21 00 1B 00 0F 66 5B 
2025-10-15 20:48:30.281 | TX | 0E 03 A0 C0 00 40 66 F9 
2025-10-15 20:48:30.281 | RX | 0E 03 80 00 22 00 1E 40 28 00 17 00 0F 00 20 00 29 00 1B 00 0D 00 0C 00 15 00 19 00 10 00 19 00 15 00 0D 80 05 00 13 00 1A 00 20 00 1E 00 15 00 23 00 1F 00 19 00 0F 40 1E 40 09 00 20 00 1B 00 10 00 0C 00 10 00 10 00 24 00 18 00 13 00 16 00 1E 00 18 00 1E 00 10 00 1A 00 19 00 24 00 1B 00 20 00 15 00 13 00 21 00 1E 00 10 00 1A 00 1D 00 15 00 1A 00 1A 00 22 00 1D 00 25 00 0D 00 15 00 1B 00 1B AA C5 
2025-10-15 20:48:30.312 | TX | 0E 03 A1 00 00 40 67 39 
2025-10-15 20:48:30.312 | RX | 0E 03 80 00 1C 00 16 00 1C 00 17 00 22 00 17 00 1E 00 1D 00 11 00 14 00 22 00 11 00 19 00 09 00 17 00 1A 00 1F 00 0E 00 1D 00 21 00 26 00 10 00 1A 00 17 00 18 00 1C 00 0B 00 1B 00 1C 00 17 00 06 00 10 00 15 00 20 00 1A 00 1F 00 0F 00 0A 00 15 00 2D 00 1F 00 16 00 13 00 1E 00 1E 00 16 00 14 00 19 00 0C 00 15 00 1D 00 0A 40 18 00 0D 40 19 00 1C 00 21 00 18 00 0F 00 0C 00 1E 00 16 40 1F 00 10 87 1E 
2025-10-15 20:48:30.343 | TX | 0E 03 A1 40 00 40 66 ED 
2025-10-15 20:48:30.343 | RX | 0E 03 80 00 16 00 1A 00 22 00 21 00 14 00 16 00 1C 00 19 00 0F 00 1E 00 19 00 14 00 0F 00 1D 00 1C 00 1D 00 09 00 11 00 19 00 1C 00 19 00 10 00 1C 00 1E 00 1A 00 1E 00 1B 00 10 00 1D 00 1B 00 11 00 1B 00 24 00 14 00 14 00 0E 00 1B 00 18 00 1A 00 11 00 1A 00 1E 00 11 00 05 00 16 00 19 00 11 40 0E 00 1B 00 0F 00 1C C0 25 40 13 00 07 00 1F 00 1F 40 1E 00 11 00 1D 00 21 00 21 00 19 00 14 00 19 9E FF 
2025-10-15 20:48:30.374 | TX | 0E 03 A1 80 00 40 66 D1 
2025-10-15 20:48:30.374 | RX | 0E 03 80 00 21 40 12 00 0B 00 1B 00 17 C0 23 00 1C 00 12 00 26 00 21 00 22 00 1E 00 1E 00 11 00 0F 00 10 00 18 60 12 60 0C 00 18 00 16 00 1D 00 1C 00 07 00 14 00 1C 00 1E 00 1A 00 1F 00 1B 00 1B 00 17 00 07 00 21 00 1F 00 1E 00 14 00 15 00 1B 40 11 40 18 00 17 00 1C 00 1A 00 1D 00 15 00 18 00 1D 00 1E 00 16 00 15 00 19 00 19 00 1E 00 08 00 19 00 18 00 18 00 10 00 1B 00 17 00 1B C0 10 C0 19 E0 9C 
2025-10-15 20:48:30.405 | TX | 0E 03 A1 C0 00 40 67 05 
2025-10-15 20:48:30.405 | RX | 0E 03 80 00 1E 00 29 80 10 40 14 00 15 00 26 40 24 00 15 00 21 00 1C 00 24 00 21 00 1B 00 15 00 16 00 0D 00 10 00 19 00 15 00 12 00 18 00 1E 00 1C 00 18 00 22 00 21 00 1E 00 13 00 11 00 1E 00 13 00 0B 00 28 00 1B 00 16 00 17 00 14 00 1E 00 14 00 08 00 1A 00 1D 00 1F 00 1F 00 1B 40 1B 00 1E 00 24 00 12 00 17 00 0F 00 17 00 17 00 1D 00 16 00 15 00 19 00 0E 00 17 00 19 00 1A 00 15 00 17 00 28 67 9B 
2025-10-15 20:48:30.436 | TX | 0E 03 A2 00 00 40 67 7D 
2025-10-15 20:48:30.436 | RX | 0E 03 80 40 01 40 02 40 01 40 02 40 01 40 01 40 01 40 01 40 01 40 01 40 01 40 02 40 01 40 01 40 02 40 01 40 02 40 01 40 02 40 03 40 01 40 01 40 02 40 02 40 01 40 01 40 01 40 01 40 02 40 02 40 01 40 01 40 01 40 01 40 02 40 02 40 02 40 02 40 02 40 00 40 02 40 02 40 01 40 01 40 00 40 02 40 01 40 01 40 01 40 02 40 01 40 01 40 01 40 01 40 01 40 01 40 00 40 01 40 01 40 01 40 01 40 02 40 01 40 01 CB D5 
2025-10-15 20:48:30.467 | TX | 0E 03 A2 40 00 40 66 A9 
2025-10-15 20:48:30.467 | RX | 0E 03 80 40 02 40 00 40 01 40 02 40 01 40 01 40 02 40 02 40 01 40 02 40 01 40 01 40 01 40 01 40 01 40 02 40 01 40 01 40 01 40 02 40 01 40 02 40 01 40 02 40 01 40 01 40 01 40 01 40 02 40 01 40 01 40 00 40 00 40 01 40 00 40 01 40 02 40 01 40 02 40 01 40 01 40 01 40 01 40 01 40 02 40 02 40 01 40 01 40 01 40 01 40 03 40 02 40 01 40 01 40 01 40 02 40 02 40 01 40 02 40 01 40 01 40 01 40 01 40 01 CE F0 
2025-10-15 20:48:30.498 | TX | 0E 03 A2 80 00 40 66 95 
2025-10-15 20:48:30.498 | RX | 0E 03 80 40 02 40 01 40 01 40 02 40 02 40 02 40 02 40 01 40 01 40 02 40 02 40 01 40 00 40 01 40 01 40 01 40 01 40 01 40 01 40 02 40 02 40 01 40 00 40 02 40 01 40 01 40 02 40 01 40 01 40 02 40 02 40 01 40 01 40 02 40 02 40 02 40 01 40 01 40 02 40 02 40 01 40 02 40 02 40 02 40 02 40 01 40 01 40 02 40 01 40 02 40 02 40 01 40 01 40 02 40 01 40 01 40 01 40 02 40 03 40 02 40 02 40 01 40 01 40 01 F0 2C 
2025-10-15 20:48:30.528 | TX | 0E 03 A2 C0 00 40 67 41 
2025-10-15 20:48:30.528 | RX | 0E 03 80 40 02 40 01 40 02 40 00 40 01 40 01 40 01 40 02 40 01 40 02 40 01 40 01 40 01 40 01 40 02 40 01 40 01 40 02 40 01 40 01 40 02 40 01 40 02 40 01 40 01 40 01 40 01 40 01 40 01 40 01 40 02 40 03 40 02 40 01 40 01 40 01 40 01 40 01 40 01 40 01 40 01 40 01 40 01 40 02 40 03 40 02 40 02 40 02 40 01 40 01 40 03 40 00 40 01 40 01 40 02 40 01 40 02 40 01 40 02 40 01 40 02 40 01 40 03 40 01 3E 7A 
2025-10-15 20:48:30.559 | TX | 0E 03 A3 00 00 40 66 81 
2025-10-15 20:48:30.560 | RX | 0E 03 80 40 01 40 02 40 01 40 01 40 01 40 02 40 02 40 02 40 02 40 02 40 01 40 02 40 01 40 01 40 01 40 00 40 02 40 00 40 02 40 01 40 02 40 02 40 01 40 00 40 02 40 01 40 02 40 01 40 01 40 02 40 01 40 02 40 01 40 02 40 01 40 01 40 01 40 01 40 01 40 01 40 01 40 00 40 01 40 01 40 01 40 01 40 02 40 02 40 03 40 01 40 01 40 02 40 01 40 01 40 01 40 02 40 01 40 02 40 02 40 01 40 02 40 02 40 02 40 01 7A 8B 
2025-10-15 20:48:30.590 | TX | 0E 03 A3 40 00 40 67 55 
2025-10-15 20:48:30.591 | RX | 0E 03 80 40 01 40 01 40 03 40 02 40 02 40 02 40 02 40 01 40 00 40 02 40 01 40 02 40 02 40 01 40 01 40 02 40 02 40 02 40 01 40 01 40 02 40 01 40 01 40 02 40 01 40 01 40 01 40 01 40 01 40 02 40 01 40 01 40 01 40 01 40 02 40 02 40 02 40 01 40 01 40 02 40 01 40 01 40 01 40 02 40 01 40 02 40 01 40 02 40 01 40 01 40 02 40 02 40 02 40 01 40 01 40 01 40 02 40 02 40 01 40 02 40 02 40 02 40 02 40 00 88 F8 
2025-10-15 20:48:30.622 | TX | 0E 03 A3 80 00 40 67 69 
2025-10-15 20:48:30.622 | RX | 0E 03 80 40 00 40 01 40 02 40 01 40 01 40 02 40 02 40 01 40 01 40 02 40 01 40 02 40 01 40 02 40 01 40 02 40 01 40 01 40 03 40 01 40 01 40 01 40 01 40 01 40 01 40 02 40 01 40 02 40 01 40 02 40 02 40 03 40 02 40 02 40 01 40 01 40 01 40 02 40 01 40 02 40 01 40 01 40 01 40 02 40 02 40 02 40 02 40 02 40 01 40 02 40 01 40 00 40 02 40 02 40 01 40 02 40 02 40 01 40 01 40 01 40 01 40 01 40 01 40 01 F5 F9 
2025-10-15 20:48:30.653 | TX | 0E 03 A3 C0 00 40 66 BD 
2025-10-15 20:48:30.653 | RX | 0E 03 80 40 01 40 01 40 02 40 02 40 02 40 02 40 03 40 01 40 02 40 02 40 02 40 01 40 01 40 00 40 01 40 01 40 01 40 01 40 01 40 01 40 02 40 02 40 01 40 01 40 01 40 03 40 02 40 02 40 03 40 03 40 02 40 01 40 00 40 02 40 01 40 01 40 01 40 02 40 02 40 03 40 02 40 02 40 02 40 02 40 02 40 02 40 01 40 01 40 01 40 01 40 01 40 01 40 01 40 00 40 01 40 01 40 02 40 02 40 02 40 01 40 01 40 01 40 01 40 02 73 57 
2025-10-15 20:48:30.669 | TX | 0E 10 00 00 00 01 02 00 09 27 A6 
2025-10-15 20:48:30.669 | RX | 0E 10 00 00 00 01 01 36 
2025-10-15 20:48:30.700 | TX | 0E 03 A0 00 00 40 66 C5 
2025-10-15 20:48:30.700 | RX | 0E 03 80 00 1B 00 15 00 13 00 10 00 1D 00 17 00 17 00 0F 00 19 00 14 00 20 00 1A 00 18 00 0B 00 10 00 18 00 13 00 17 00 0E 00 14 00 21 00 15 00 1E 00 17 00 09 00 0F 00 19 00 1B 00 1D 00 20 00 18 00 0C 00 1B 00 12 40 1B 00 21 00 16 00 22 00 0B 00 11 00 1D 00 19 00 17 00 18 00 1E 00 17 00 0A 00 05 00 1C 00 21 00 14 00 12 00 1A 00 1C 00 24 80 0B 00 08 00 1F 00 25 40 26 80 1F 00 15 00 23 00 1C AA 55 
2025-10-15 20:48:30.730 | TX | 0E 03 A0 40 00 40 67 11 
2025-10-15 20:48:30.731 | RX | 0E 03 80 00 23 00 22 00 21 00 1F 00 1D 00 1B 00 1A 00 18 00 16 00 15 00 14 00 14 00 13 00 14 00 14 00 15 00 16 00 17 00 19 00 1B 00 1D 00 1F 00 20 00 21 00 21 00 21 00 20 00 20 00 1F 00 1F 00 1E 00 1E 00 1D 00 1C 00 1A 00 18 00 17 00 15 00 14 00 13 00 13 00 13 00 12 00 11 00 0F 00 0E 00 0C 00 0B 00 0A 00 0A 00 0B 00 0C 00 0E 00 10 00 11 00 13 00 14 00 15 00 16 00 17 00 18 00 18 00 19 00 19 94 28 
2025-10-15 20:48:30.762 | TX | 0E 03 A0 80 00 40 67 2D 
2025-10-15 20:48:30.763 | RX | 0E 03 80 00 1A 00 1B 00 1D 00 1E 00 20 00 21 00 23 00 24 00 25 00 25 00 25 00 25 00 24 00 23 00 22 00 21 00 21 00 20 00 1F 00 1E 00 1C 00 1A 00 17 00 14 00 11 00 0E 00 0C 00 0B 00 0A 00 0A 00 0B 00 0D 00 0E 00 10 00 13 00 14 00 16 00 16 00 15 00 14 00 12 00 10 00 0F 00 0E 00 0E 00 0F 00 10 00 11 00 13 00 14 00 15 00 15 00 16 00 15 00 15 00 15 00 15 00 14 00 14 00 13 00 12 00 11 00 10 00 11 BA 73 
2025-10-15 20:48:30.793 | TX | 0E 03 A0 C0 00 40 66 F9 
2025-10-15 20:48:30.794 | RX | 0E 03 80 00 12 00 15 00 18 00 1A 00 1D 00 1F 00 20 00 21 00 20 00 1F 00 1E 00 1C 00 1A 00 18 00 16 00 14 00 11 00 0E 00 0C 00 0B 00 0B 00 0C 00 0E 00 11 40 14 40 17 40 1A 40 1C 40 1D C0 1E C0 1E C0 1E C0 1D C0 1D C0 1C 40 1B 00 1A 00 19 00 18 00 17 00 15 00 14 00 14 00 14 00 16 00 17 00 19 00 19 00 19 00 18 00 17 00 16 00 14 00 14 00 13 00 12 00 12 00 11 00 11 00 10 00 10 00 0F 00 0D 00 0C FE 43 
2025-10-15 20:48:30.825 | TX | 0E 03 A1 00 00 40 67 39 
2025-10-15 20:48:30.825 | RX | 0E 03 80 00 0B 00 0B 00 0A 00 0A 00 0A 00 0A 00 0A 00 0B 00 0B 00 0C 00 0E 00 0F 00 10 00 10 00 11 00 11 00 12 00 13 00 15 00 17 00 19 00 1A 00 1C 00 1D 00 1E 00 1F 00 1F 00 1F 00 1F 00 1E 00 1D 00 1B 00 19 00 18 00 18 00 17 40 17 40 18 40 18 40 19 40 1A C0 1A C0 1B C0 1B C0 1A C0 19 C0 18 C0 16 40 15 40 14 40 14 40 14 40 14 00 14 00 14 00 14 00 15 00 16 00 18 00 19 00 1A 00 1A 00 1A 00 19 E6 ED 
2025-10-15 20:48:30.856 | TX | 0E 03 A1 40 00 40 66 ED 
2025-10-15 20:48:30.856 | RX | 0E 03 80 00 17 00 15 00 13 00 11 00 0F 00 0D 00 0B 00 09 00 07 00 06 00 05 00 04 00 04 00 04 00 04 00 04 00 05 00 07 00 09 00 0C 00 10 00 13 00 17 00 1B 00 1D 00 1F 00 21 00 22 00 22 00 22 00 21 00 20 00 1F 00 1F 00 1E 00 1E 00 1E 00 1E 00 1E 00 1D 00 1C 00 1B 00 1B 00 19 00 18 00 16 00 14 00 12 00 10 00 0F 00 0E 00 0E 00 0F 00 11 00 13 00 15 00 17 00 19 00 19 00 1A 00 19 00 19 00 19 00 18 0A 32 
2025-10-15 20:48:30.887 | TX | 0E 03 A1 80 00 40 66 D1 
2025-10-15 20:48:30.887 | RX | 0E 03 80 00 18 00 18 00 18 00 17 00 16 00 14 00 13 00 12 00 12 00 12 00 13 00 14 00 15 00 16 00 16 00 15 00 15 00 14 00 13 00 12 00 11 00 10 00 10 00 0F 00 0F 00 0E 00 0D 00 0B 00 09 00 07 00 06 00 05 00 05 00 05 00 06 00 08 00 0A 00 0D 00 11 00 14 00 17 00 1A 00 1D 00 20 00 21 00 23 00 24 00 25 00 25 00 25 00 24 00 23 00 23 00 22 00 21 00 20 00 20 00 1F 00 1E 00 1C 00 1A 00 17 00 14 00 11 86 75 
2025-10-15 20:48:30.918 | TX | 0E 03 A1 C0 00 40 67 05 
2025-10-15 20:48:30.918 | RX | 0E 03 80 00 0F 00 0D 00 0C 00 0C 00 0D 00 0E 00 10 00 12 00 15 00 17 00 19 00 1A 00 1B 00 1A 00 1A 00 19 00 18 00 17 00 16 00 15 00 15 00 15 00 14 00 14 00 14 00 13 00 13 00 14 00 15 00 17 00 19 00 1B 00 1C 00 1D 00 1E 00 1D 00 1C 00 1B 00 1B 00 1B 00 1C 00 1E 00 1F 00 20 00 20 00 21 00 21 00 20 00 1F 00 1F 00 1D 00 1C 00 1B 00 1A 00 19 00 18 00 17 00 17 00 16 00 14 00 12 00 11 00 0F 00 0E 06 C5 
2025-10-15 20:48:30.948 | TX | 0E 03 A2 00 00 40 67 7D 
2025-10-15 20:48:30.949 | RX | 0E 03 80 40 02 40 02 40 02 40 02 40 02 40 02 40 02 40 02 40 02 40 02 40 02 40 02 40 02 40 02 40 02 40 02 40 02 40 02 40 02 40 02 40 02 40 02 40 02 40 01 40 01 40 01 40 01 40 01 40 01 40 01 40 01 40 01 40 01 40 02 40 02 40 02 40 02 40 02 40 02 40 02 40 02 40 02 40 01 40 02 40 02 40 02 40 02 40 02 40 02 40 01 40 01 40 01 40 01 40 01 40 01 40 01 40 01 40 01 40 01 40 01 40 01 40 01 40 01 40 01 76 52 
2025-10-15 20:48:30.980 | TX | 0E 03 A2 40 00 40 66 A9 
2025-10-15 20:48:30.980 | RX | 0E 03 80 40 02 40 02 40 01 40 01 40 01 40 01 40 02 40 02 40 02 40 02 40 02 40 01 40 01 40 01 40 01 40 01 40 01 40 01 40 02 40 02 40 02 40 02 40 02 40 02 40 01 40 01 40 01 40 01 40 01 40 01 40 01 40 01 40 01 40 01 40 01 40 01 40 01 40 01 40 01 40 01 40 01 40 01 40 01 40 01 40 01 40 02 40 02 40 02 40 02 40 02 40 02 40 02 40 02 40 02 40 02 40 02 40 02 40 02 40 02 40 02 40 01 40 01 40 01 40 01 B1 33 
2025-10-15 20:48:31.011 | TX | 0E 03 A2 80 00 40 66 95 
2025-10-15 20:48:31.011 | RX | 0E 03 80 40 01 40 01 40 01 40 01 40 01 40 01 40 02 40 02 40 02 40 03 40 03 40 03 40 03 40 03 40 02 40 02 40 02 40 01 40 01 40 01 40 01 40 02 40 02 40 02 40 02 40 02 40 02 40 02 40 02 40 02 40 02 40 02 40 02 40 02 40 02 40 02 40 02 40 02 40 02 40 02 40 02 40 02 40 02 40 02 40 02 40 02 40 02 40 02 40 02 40 02 40 02 40 02 40 02 40 01 40 01 40 01 40 01 40 01 40 02 40 02 40 02 40 01 40 01 40 01 90 70 
2025-10-15 20:48:31.041 | TX | 0E 03 A2 C0 00 40 67 41 
2025-10-15 20:48:31.042 | RX | 0E 03 80 40 01 40 01 40 01 40 01 40 01 40 01 40 01 40 01 40 01 40 01 40 01 40 01 40 01 40 01 40 01 40 01 40 01 40 01 40 01 40 02 40 02 40 02 40 02 40 02 40 02 40 02 40 02 40 02 40 02 40 02 40 02 40 02 40 02 40 02 40 02 40 02 40 02 40 02 40 02 40 02 40 02 40 02 40 02 40 02 40 02 40 02 40 02 40 02 40 02 40 02 40 02 40 02 40 02 40 02 40 02 40 02 40 02 40 02 40 02 40 02 40 02 40 02 40 02 40 02 81 D2 
2025-10-15 20:48:31.073 | TX | 0E 03 A3 00 00 40 66 81 
2025-10-15 20:48:31.073 | RX | 0E 03 80 40 02 40 02 40 02 40 02 40 02 40 02 40 02 40 02 40 02 40 02 40 02 40 02 40 02 40 02 40 01 40 01 40 01 40 01 40 02 40 02 40 02 40 02 40 03 40 03 40 03 40 02 40 02 40 02 40 02 40 01 40 01 40 01 40 01 40 01 40 01 40 01 40 01 40 01 40 01 40 01 40 01 40 01 40 01 40 01 40 02 40 01 40 01 40 01 40 01 40 01 40 01 40 01 40 01 40 01 40 01 40 01 40 01 40 02 40 02 40 02 40 02 40 01 40 01 40 01 5A A8 
2025-10-15 20:48:31.104 | TX | 0E 03 A3 40 00 40 67 55 
2025-10-15 20:48:31.104 | RX | 0E 03 80 40 01 40 01 40 01 40 01 40 01 40 01 40 01 40 01 40 01 40 01 40 01 40 01 40 01 40 01 40 01 40 01 40 01 40 01 40 01 40 01 40 01 40 01 40 01 40 01 40 01 40 01 40 01 40 02 40 02 40 02 40 02 40 02 40 02 40 02 40 02 40 02 40 02 40 02 40 02 40 02 40 02 40 02 40 02 40 03 40 03 40 02 40 02 40 02 40 02 40 01 40 01 40 01 40 01 40 01 40 01 40 01 40 01 40 02 40 01 40 01 40 01 40 01 40 01 40 01 CB 6B 
2025-10-15 20:48:31.135 | TX | 0E 03 A3 80 00 40 67 69 
2025-10-15 20:48:31.135 | RX | 0E 03 80 40 01 40 01 40 02 40 02 40 02 40 02 40 01 40 01 40 01 40 01 40 01 40 01 40 01 40 01 40 01 40 01 40 01 40 01 40 01 40 01 40 01 40 02 40 02 40 02 40 02 40 01 40 01 40 01 40 01 40 01 40 00 40 00 40 00 40 00 40 00 40 01 40 01 40 01 40 01 40 01 40 01 40 01 40 01 40 01 40 01 40 01 40 01 40 02 40 01 40 01 40 01 40 01 40 01 40 01 40 01 40 01 40 02 40 02 40 02 40 01 40 01 40 01 40 01 40 01 ED 62 
2025-10-15 20:48:31.166 | TX | 0E 03 A3 C0 00 40 66 BD 
2025-10-15 20:48:31.166 | RX | 0E 03 80 40 01 40 01 40 01 40 01 40 01 40 01 40 01 40 01 40 01 40 01 40 01 40 01 40 01 40 02 40 02 40 02 40 02 40 01 40 01 40 01 40 01 40 01 40 01 40 02 40 02 40 02 40 01 40 01 40 01 40 01 40 01 40 01 40 01 40 01 40 01 40 01 40 01 40 02 40 02 40 02 40 02 40 02 40 02 40 02 40 01 40 01 40 01 40 01 40 01 40 01 40 01 40 01 40 01 40 01 40 01 40 02 40 02 40 02 40 02 40 02 40 02 40 02 40 02 40 02 12 18 
2025-10-15 20:48:31.182 | TX | 0E 10 00 00 00 01 02 00 09 27 A6 
2025-10-15 20:48:31.182 | RX | 0E 10 00 00 00 01 01 36 
2025-10-15 20:48:31.212 | TX | 0E 03 A0 00 00 40 66 C5 
2025-10-15 20:48:31.213 | RX | 0E 03 80 C0 27 00 1E 00 13 00 1C 00 24 00 18 00 1E 00 1B 00 25 00 11 00 1C 00 1B 00 0D 00 0F 00 10 00 21 00 1A 00 15 00 23 00 27 00 1F 00 1B 00 0C 00 15 00 12 00 1A 00 11 00 14 00 21 00 13 00 14 00 1E 00 13 40 14 00 13 00 20 00 1D 00 1C 00 18 00 15 00 11 00 1B 00 0A 00 1A 00 15 00 0D 00 0F 00 18 C0 0D 00 14 00 14 00 16 00 0F 00 19 00 11 00 1D 00 1D 00 1C 00 1F 40 22 00 21 00 0B 00 26 00 1B 90 7D 
2025-10-15 20:48:31.243 | TX | 0E 03 A0 40 00 40 67 11 
2025-10-15 20:48:31.244 | RX | 0E 03 80 00 1C 00 20 00 1F 00 1C C0 12 00 18 00 1C 00 17 00 19 00 10 00 19 00 1B 00 19 00 13 00 11 00 14 00 16 00 1E 00 20 40 16 00 0E 00 15 00 13 00 1E 00 10 00 12 00 19 00 11 00 20 00 20 00 15 00 0F 00 08 00 16 00 12 00 1E 00 18 00 1A 00 14 00 20 00 1C 00 1C 00 1A 00 11 00 20 00 1C 00 1E 00 17 00 1D 00 1A 00 1C 00 16 00 1B 00 1E 00 11 00 12 00 1D 00 07 00 10 00 10 00 1B 00 1B 00 1A 00 17 9B 4A 
2025-10-15 20:48:31.274 | TX | 0E 03 A0 80 00 40 67 2D 
2025-10-15 20:48:31.275 | RX | 0E 03 80 00 1E 00 16 00 17 00 19 00 0E 00 1A 00 1C 00 1F 00 19 00 17 00 19 00 1E 00 17 00 12 00 17 00 21 00 24 00 18 00 0D 00 22 00 1C E0 0C 00 17 00 1E 00 29 00 21 00 0B 00 17 00 14 00 1C 00 24 00 09 00 1C 00 24 00 1D 00 0E 00 12 00 1B 00 14 00 0A 00 0E 00 1F 00 13 C0 0E C0 0F 00 1F 00 1D 00 1D 00 22 00 0E 00 26 00 22 00 26 00 1D 00 14 00 1E 00 09 00 1C 00 11 60 1D 00 0F 00 0B 00 20 00 1C F3 06 
2025-10-15 20:48:31.305 | TX | 0E 03 A0 C0 00 40 66 F9 
2025-10-15 20:48:31.306 | RX | 0E 03 80 C0 10 00 1F 40 22 00 1B 00 1C 00 1D 00 19 00 1F 00 16 00 1D 00 14 00 19 00 1C 00 15 00 10 00 10 00 1C 00 20 00 1F 00 11 00 16 00 21 00 14 00 21 00 21 00 23 00 25 00 0D 00 1B 00 22 00 1B 00 14 00 10 00 0F 00 1E 00 1F 00 16 00 0F 00 14 00 1A 00 1E 00 19 00 1F 00 1F 00 22 00 16 00 0D 00 1A 00 11 00 19 00 17 00 1B 00 17 00 17 00 11 00 19 40 17 40 17 00 19 00 16 00 0E 00 19 00 17 00 0D 80 0B 
2025-10-15 20:48:31.337 | TX | 0E 03 A1 00 00 40 67 39 
2025-10-15 20:48:31.337 | RX | 0E 03 80 00 1F 40 18 C0 15 00 10 00 17 00 2B 00 1E 00 0E 00 11 00 1B 00 1F 80 1D 40 21 00 0E 00 23 00 2A 00 21 00 14 00 08 00 18 00 17 00 1B 00 12 00 10 00 13 00 16 00 12 00 1F 00 20 00 16 00 1A 00 21 00 1E 00 1B 00 1C 00 1E 00 21 00 25 00 29 00 10 00 1A 00 12 00 18 00 1F 00 1D 00 1A 00 0E 00 1B 00 17 00 1C 00 27 00 14 00 23 00 20 00 25 00 14 00 13 00 15 00 20 00 19 00 10 00 19 00 19 40 19 88 DE 
2025-10-15 20:48:31.368 | TX | 0E 03 A1 40 00 40 66 ED 
2025-10-15 20:48:31.368 | RX | 0E 03 80 40 17 00 14 00 1E 00 1E 00 1D 00 1B 00 0F 00 0E 00 14 00 19 00 1A 00 18 00 02 00 11 00 1F 00 1A 00 12 00 12 00 18 00 0F 00 20 00 1C 00 1E 00 10 40 17 00 25 00 14 00 1D 00 1A 00 0F 00 1D 00 15 00 1B 00 16 00 15 00 17 00 16 00 15 00 09 00 0D 00 25 00 18 00 16 00 1B 00 23 00 15 00 1C 00 1D 00 16 00 13 00 13 00 1C 00 1E 00 1B 00 11 00 13 00 28 00 15 00 13 00 16 00 17 00 10 00 14 00 21 69 97 
2025-10-15 20:48:31.398 | TX | 0E 03 A1 80 00 40 66 D1 
2025-10-15 20:48:31.399 | RX | 0E 03 80 00 17 00 16 00 1D 00 18 00 1A 00 1B 00 23 00 24 00 0D 40 12 00 1E 00 14 00 16 00 25 00 1D 00 13 00 1D 00 15 00 1D 00 0A 00 13 00 22 00 15 00 13 00 0F 00 0E 00 21 00 1B 00 24 00 15 00 15 00 17 00 18 00 18 00 22 00 1E 00 0F 00 12 00 21 00 0E 00 1D 00 1E 00 17 00 1D 00 25 00 16 00 15 00 0C 00 1D 00 22 00 15 00 1E 00 18 00 1F 00 16 40 11 00 11 00 0F 00 0E 40 1A 00 0D 00 17 00 1C 00 26 9B ED 
2025-10-15 20:48:31.429 | TX | 0E 03 A1 C0 00 40 67 05 
2025-10-15 20:48:31.429 | RX | 0E 03 80 00 18 00 15 00 12 00 1C 00 21 00 15 00 15 00 0B 00 1B 00 19 60 10 00 18 00 18 00 1A 00 21 40 25 00 1F 00 13 00 25 00 1C 00 22 00 0C 00 11 00 19 00 1B 00 1B 00 0F 00 1E 00 14 00 15 00 11 00 18 00 17 00 15 00 18 00 20 00 14 00 21 00 15 00 19 00 24 00 15 00 16 00 12 00 01 00 0C 00 1D 00 1E 00 18 00 0D 00 1B 00 12 00 15 00 20 00 17 00 22 00 1F 00 1E 00 1B 00 10 00 17 00 1F 00 1C 00 0D 84 2C 
2025-10-15 20:48:31.460 | TX | 0E 03 A2 00 00 40 67 7D 
2025-10-15 20:48:31.461 | RX | 0E 03 80 40 01 40 01 40 01 40 02 40 01 40 02 40 01 40 01 40 01 40 02 40 01 40 01 40 02 40 01 40 01 40 02 40 01 40 02 40 01 40 01 40 02 40 03 40 03 40 03 40 02 40 02 40 02 40 02 40 01 40 02 40 01 40 02 40 01 40 03 40 03 40 02 40 01 40 02 40 01 40 01 40 02 40 00 40 02 40 02 40 01 40 02 40 01 40 01 40 02 40 01 40 00 40 01 40 02 40 02 40 01 40 03 40 02 40 03 40 02 40 03 40 01 40 00 40 01 40 02 FC 32 
2025-10-15 20:48:31.491 | TX | 0E 03 A2 40 00 40 66 A9 
2025-10-15 20:48:31.492 | RX | 0E 03 80 40 01 40 02 40 03 40 02 40 03 40 02 40 02 40 02 40 02 40 02 40 02 40 00 40 01 40 02 40 01 40 02 40 01 40 01 40 02 40 01 40 01 40 01 40 01 40 02 40 01 40 03 40 01 40 02 40 01 40 01 40 01 40 02 40 01 40 02 40 02 40 02 40 02 40 01 40 01 40 03 40 02 40 02 40 03 40 00 40 01 40 02 40 02 40 01 40 01 40 02 40 02 40 01 40 01 40 02 40 01 40 01 40 03 40 01 40 02 40 01 40 01 40 00 40 01 40 02 DA AC 
2025-10-15 20:48:31.522 | TX | 0E 03 A2 80 00 40 66 95 
2025-10-15 20:48:31.523 | RX | 0E 03 80 40 01 40 02 40 01 40 01 40 01 40 02 40 01 40 02 40 01 40 01 40 02 40 01 40 01 40 02 40 02 40 01 40 01 40 02 40 01 40 01 40 03 40 01 40 02 40 02 40 02 40 01 40 02 40 01 40 01 40 01 40 01 40 01 40 00 40 01 40 01 40 02 40 01 40 02 40 01 40 02 40 01 40 01 40 02 40 02 40 01 40 01 40 02 40 01 40 00 40 01 40 02 40 01 40 01 40 01 40 00 40 01 40 01 40 00 40 01 40 01 40 01 40 02 40 03 40 01 85 6E 
2025-10-15 20:48:31.553 | TX | 0E 03 A2 C0 00 40 67 41 
2025-10-15 20:48:31.553 | RX | 0E 03 80 40 02 40 02 40 01 40 01 40 02 40 01 40 01 40 02 40 02 40 01 40 01 40 01 40 01 40 01 40 01 40 01 40 01 40 01 40 01 40 00 40 01 40 01 40 01 40 01 40 01 40 03 40 01 40 01 40 02 40 02 40 02 40 01 40 00 40 01 40 02 40 01 40 02 40 01 40 01 40 01 40 01 40 01 40 01 40 02 40 01 40 01 40 01 40 01 40 02 40 01 40 01 40 02 40 01 40 01 40 01 40 01 40 03 40 01 40 01 40 01 40 02 40 02 40 02 40 01 03 4B 
2025-10-15 20:48:31.584 | TX | 0E 03 A3 00 00 40 66 81 
2025-10-15 20:48:31.584 | RX | 0E 03 80 40 02 40 02 40 02 40 01 40 01 40 01 40 01 40 01 40 01 40 01 40 02 40 02 40 02 40 01 40 01 40 01 40 01 40 01 40 01 40 01 40 02 40 02 40 02 40 03 40 03 40 03 40 02 40 02 40 02 40 01 40 01 40 01 40 01 40 01 40 01 40 01 40 01 40 01 40 01 40 01 40 01 40 01 40 01 40 00 40 00 40 00 40 00 40 01 40 01 40 01 40 01 40 01 40 01 40 01 40 01 40 01 40 01 40 01 40 01 40 01 40 01 40 01 40 02 40 02 98 50 
2025-10-15 20:48:31.615 | TX | 0E 03 A3 40 00 40 67 55 
2025-10-15 20:48:31.616 | RX | 0E 03 80 40 02 40 02 40 02 40 02 40 02 40 02 40 02 40 02 40 02 40 02 40 02 40 01 40 01 40 01 40 01 40 01 40 01 40 01 40 01 40 01 40 01 40 01 40 01 40 01 40 01 40 01 40 01 40 01 40 01 40 01 40 02 40 02 40 02 40 01 40 01 40 01 40 01 40 01 40 02 40 02 40 02 40 02 40 02 40 02 40 02 40 02 40 02 40 02 40 02 40 02 40 02 40 02 40 02 40 02 40 02 40 02 40 02 40 02 40 02 40 02 40 02 40 01 40 01 40 01 14 36 
2025-10-15 20:48:31.647 | TX | 0E 03 A3 80 00 40 67 69 
2025-10-15 20:48:31.648 | RX | 0E 03 80 40 01 40 01 40 01 40 01 40 01 40 01 40 01 40 01 40 01 40 01 40 01 40 01 40 02 40 02 40 02 40 02 40 02 40 02 40 02 40 02 40 02 40 01 40 01 40 01 40 01 40 01 40 02 40 02 40 02 40 02 40 02 40 02 40 01 40 01 40 01 40 01 40 01 40 01 40 01 40 01 40 01 40 01 40 01 40 02 40 02 40 02 40 02 40 02 40 02 40 02 40 02 40 02 40 02 40 02 40 02 40 01 40 01 40 01 40 01 40 01 40 01 40 01 40 01 40 01 6F A3 
2025-10-15 20:48:31.678 | TX | 0E 03 A3 C0 00 40 66 BD 
2025-10-15 20:48:31.679 | RX | 0E 03 80 40 01 40 01 40 01 40 01 40 01 40 01 40 01 40 00 40 00 40 00 40 00 40 01 40 01 40 01 40 01 40 01 40 01 40 02 40 02 40 02 40 02 40 02 40 01 40 01 40 01 40 01 40 01 40 01 40 01 40 01 40 01 40 01 40 01 40 01 40 01 40 01 40 02 40 02 40 02 40 01 40 01 40 01 40 01 40 01 40 01 40 01 40 01 40 02 40 02 40 02 40 02 40 02 40 02 40 02 40 02 40 01 40 01 40 01 40 01 40 01 40 01 40 01 40 01 40 02 A2 64 
2025-10-15 20:48:31.694 | TX | 0E 10 00 00 00 01 02 00 09 27 A6 
2025-10-15 20:48:31.695 | RX | 0E 10 00 00 00 01 01 36 
2025-10-15 20:48:31.725 | TX | 0E 03 A0 00 00 40 66 C5 
2025-10-15 20:48:31.725 | RX | 0E 03 80 00 17 00 18 00 18 00 1B 00 1A 00 17 00 1B 00 12 00 07 00 0A 00 13 00 12 40 10 00 0D 00 16 00 23 00 1E 00 1A 00 11 00 20 00 24 00 20 C0 1D 00 09 00 12 00 21 00 17 00 0B 00 08 00 19 00 13 00 16 00 0F 00 0F 00 1A 40 08 40 13 00 19 00 24 00 21 00 11 00 15 00 1A 00 1D 00 13 C0 23 00 11 00 1F 00 19 00 13 00 0F 00 18 00 1A 00 13 00 0F 00 11 00 15 00 14 00 14 00 22 00 29 00 1B 00 16 00 16 5E F6 
2025-10-15 20:48:31.756 | TX | 0E 03 A0 40 00 40 67 11 
2025-10-15 20:48:31.756 | RX | 0E 03 80 00 1F 00 20 00 17 00 10 00 1A 00 1E 00 10 00 17 00 17 00 11 00 16 00 08 00 10 00 22 00 1D 00 03 00 21 00 23 00 16 00 14 00 0F 00 28 00 13 00 1D 00 18 00 0C 00 20 00 17 00 19 00 1A 00 17 00 0A 00 17 00 0A 00 09 00 23 00 19 00 1E 00 1D 00 1F 00 11 00 20 00 11 00 1B 00 18 00 1C 00 1B 00 09 00 1C 00 20 00 1D 00 14 00 13 00 1C 00 16 00 1E 00 1C 00 07 00 15 00 19 00 20 00 17 00 11 00 1C 4D AA 
2025-10-15 20:48:31.806 | TX | 0E 03 A0 80 00 40 67 2D 
2025-10-15 20:48:31.808 | RX | 0E 03 80 00 1E 00 1D 00 16 00 18 00 17 00 1B 40 16 40 17 00 1B 00 13 00 22 40 1E 00 12 00 18 00 29 00 14 00 0D 00 22 00 15 00 24 00 17 00 17 00 19 00 0A 00 10 00 
2025-10-15 20:48:31.809 | RX | 06 00 19 00 13 E0 19 40 17 00 1A 00 1B 00 1A 00 1E 00 1A 00 28 00 1D 00 24 00 0E 00 1D 00 12 00 14 00 15 00 15 00 15 00 11 00 15 00 17 00 21 00 16 00 0F 40 1C 40 17 00 28 40 20 00 23 00 0D 00 1B 00 19 00 20 00 0C 00 16 00 1B 00 0E 59 24 
2025-10-15 20:48:31.840 | TX | 0E 03 A0 C0 00 40 66 F9 
2025-10-15 20:48:31.841 | RX | 0E 03 80 00 1A 00 16 00 1A 00 20 00 12 00 15 00 0D 00 12 00 18 00 13 00 16 00 11 00 1E 00 16 00 0E C0 12 00 18 00 28 00 23 E0 20 00 0F 00 2D 00 1C 00 1B 00 1B 00 1F 00 19 00 08 00 10 00 1B 00 10 40 0E 00 0F 00 1A 40 22 00 14 00 08 00 19 00 23 00 1F 40 1B 00 17 00 0E 00 1B 00 28 00 13 00 08 00 12 00 14 00 11 00 1D 00 17 00 13 80 0A 00 12 00 21 00 28 00 1E 00 15 00 14 00 25 00 1E 00 1B 00 24 C4 0F 
2025-10-15 20:48:31.872 | TX | 0E 03 A1 00 00 40 67 39 
2025-10-15 20:48:31.873 | RX | 0E 03 80 00 16 40 18 40 16 00 0F 00 14 00 1D 00 11 00 0E 00 0F 00 15 00 19 C0 25 40 24 00 17 00 22 00 1F 00 12 00 0A 00 15 00 1E 00 0B 00 26 00 19 00 14 00 18 00 1C 00 18 E0 1D E0 26 00 1A 00 27 00 25 00 22 00 0C 00 11 00 19 00 27 00 18 00 16 00 0F 40 12 00 06 00 12 00 19 00 1C 00 15 80 0B 00 0F 00 1B 80 21 C0 1C 40 23 00 24 00 1B 00 22 00 19 00 07 00 0D 00 1D 00 1F 00 0E 00 15 00 19 00 10 42 12 
2025-10-15 20:48:31.903 | TX | 0E 03 A1 40 00 40 66 ED 
2025-10-15 20:48:31.903 | RX | 0E 03 80 40 13 00 13 00 19 00 13 00 1D 00 19 00 1A 00 0B 00 12 00 1E 00 1D 00 15 00 0A 00 18 00 21 00 16 40 10 60 0D 00 1F 40 1C 60 21 00 18 00 17 00 21 00 1E 00 22 00 12 00 1A 00 1A 00 15 00 19 00 20 00 0F 00 1B 00 1B 00 10 00 15 00 12 00 10 40 11 00 20 00 21 00 1B 00 1A 00 1F 00 1B 00 1E 00 1C 00 18 00 09 00 20 00 18 00 20 00 12 00 11 00 17 00 19 00 14 00 18 00 12 00 10 40 0E 40 10 00 21 1A 7D 
2025-10-15 20:48:31.934 | TX | 0E 03 A1 80 00 40 66 D1 
2025-10-15 20:48:31.934 | RX | 0E 03 80 00 1D 00 16 00 0C 00 08 00 0C 00 1B 00 0F 00 1D 00 1F 00 13 00 0C 00 20 00 24 00 23 00 19 00 16 00 26 00 23 00 19 00 1F 00 0C 00 13 00 1F 00 1D 00 07 00 1B 00 15 00 10 00 1F 00 15 00 20 00 23 00 18 00 11 00 15 00 1F 00 1B 00 1B 00 20 00 11 00 1B 00 1B 00 13 00 14 00 1A 00 17 00 08 00 1B 00 17 00 17 00 1C 00 1C 00 1E 00 1C 00 1C 00 15 00 15 00 11 00 19 00 18 00 1C 00 21 00 14 00 13 A3 24 
2025-10-15 20:48:31.965 | TX | 0E 03 A1 C0 00 40 67 05 
2025-10-15 20:48:31.965 | RX | 0E 03 80 00 0F 00 1A 00 12 40 17 00 1F 00 21 00 24 00 0D 00 27 00 14 00 18 C0 10 40 15 00 1C 00 1D 00 1D 00 14 00 15 00 17 00 1B 00 12 00 22 00 1A 00 1A 00 1F 00 25 00 20 00 13 00 0E 00 1B 00 1C 00 15 00 16 00 15 00 03 C0 18 00 24 00 20 00 1F 00 1D 00 10 00 1E 00 13 00 1E 00 21 00 1C 00 17 00 15 00 1D 40 10 00 19 00 1A 00 1F 00 16 00 20 00 1B 00 19 00 21 00 23 00 1D 00 1F 00 1C 00 15 00 1C BB 7A 
2025-10-15 20:48:31.997 | TX | 0E 03 A2 00 00 40 67 7D 
2025-10-15 20:48:31.997 | RX | 0E 03 80 40 01 40 02 40 02 40 00 40 01 40 01 40 01 40 03 40 02 40 02 40 01 40 02 40 01 40 01 40 02 40 01 40 00 40 01 40 02 40 01 40 01 40 01 40 01 40 02 40 02 40 01 40 01 40 01 40 02 40 01 40 01 40 02 40 01 40 01 40 01 40 01 40 02 40 01 40 01 40 01 40 01 40 02 40 01 40 02 40 02 40 02 40 02 40 01 40 01 40 02 40 00 40 02 40 02 40 02 40 02 40 01 40 01 40 01 40 01 40 01 40 02 40 02 40 02 40 01 1A 46 
2025-10-15 20:48:32.028 | TX | 0E 03 A2 40 00 40 66 A9 
2025-10-15 20:48:32.028 | RX | 0E 03 80 40 02 40 02 40 01 40 03 40 01 40 01 40 03 40 02 40 02 40 02 40 01 40 01 40 02 40 01 40 01 40 01 40 01 40 02 40 01 40 01 40 01 40 01 40 01 40 01 40 01 40 01 40 02 40 01 40 01 40 01 40 01 40 02 40 01 40 01 40 01 40 01 40 01 40 02 40 01 40 01 40 02 40 02 40 01 40 01 40 02 40 01 40 01 40 02 40 01 40 01 40 02 40 01 40 01 40 01 40 01 40 01 40 01 40 02 40 01 40 01 40 01 40 01 40 02 40 01 00 9F 
2025-10-15 20:48:32.060 | TX | 0E 03 A2 80 00 40 66 95 
2025-10-15 20:48:32.060 | RX | 0E 03 80 40 02 40 01 40 01 40 01 40 01 40 02 40 01 40 01 40 01 40 02 40 01 40 01 40 02 40 01 40 02 40 02 40 03 40 02 40 02 40 01 40 01 40 02 40 02 40 02 40 01 40 02 40 01 40 01 40 02 40 01 40 00 40 02 40 02 40 02 40 02 40 01 40 01 40 01 40 01 40 02 40 01 40 01 40 02 40 00 40 01 40 00 40 03 40 01 40 02 40 01 40 02 40 00 40 02 40 01 40 02 40 02 40 02 40 02 40 01 40 01 40 01 40 02 40 02 40 02 59 A5 
2025-10-15 20:48:32.091 | TX | 0E 03 A2 C0 00 40 67 41 
2025-10-15 20:48:32.092 | RX | 0E 03 80 40 01 40 02 40 01 40 01 40 02 40 00 40 02 40 02 40 01 40 01 40 01 40 02 40 01 40 02 40 02 40 01 40 01 40 01 40 02 40 02 40 02 40 03 40 02 40 01 40 03 40 01 40 01 40 01 40 03 40 01 40 02 40 01 40 02 40 02 40 02 40 02 40 01 40 02 40 01 40 01 40 02 40 00 40 02 40 01 40 01 40 01 40 02 40 01 40 02 40 01 40 01 40 02 40 02 40 01 40 02 40 01 40 02 40 01 40 01 40 01 40 01 40 02 40 00 40 02 6F 66 
2025-10-15 20:48:32.123 | TX | 0E 03 A3 00 00 40 66 81 
2025-10-15 20:48:32.123 | RX | 0E 03 80 40 01 40 02 40 02 40 01 40 01 40 01 40 02 40 03 40 02 40 01 40 03 40 01 40 01 40 03 40 01 40 02 40 01 40 01 40 01 40 02 40 01 40 01 40 01 40 02 40 02 40 02 40 02 40 02 40 01 40 02 40 01 40 02 40 01 40 02 40 02 40 02 40 01 40 01 40 02 40 01 40 01 40 02 40 02 40 01 40 00 40 01 40 01 40 01 40 01 40 02 40 01 40 01 40 02 40 01 40 03 40 01 40 02 40 02 40 01 40 00 40 02 40 02 40 02 40 01 E1 D7 
2025-10-15 20:48:32.153 | TX | 0E 03 A3 40 00 40 67 55 
2025-10-15 20:48:32.153 | RX | 0E 03 80 40 01 40 01 40 01 40 01 40 00 40 01 40 01 40 02 40 02 40 01 40 01 40 01 40 01 40 01 40 01 40 01 40 02 40 01 40 01 40 01 40 01 40 02 40 02 40 02 40 01 40 02 40 02 40 01 40 01 40 02 40 00 40 01 40 01 40 02 40 02 40 01 40 01 40 02 40 02 40 01 40 01 40 01 40 01 40 01 40 01 40 02 40 02 40 02 40 02 40 01 40 03 40 01 40 01 40 01 40 01 40 01 40 01 40 02 40 01 40 02 40 02 40 01 40 02 40 01 9B 6A 
2025-10-15 20:48:32.184 | TX | 0E 03 A3 80 00 40 67 69 
2025-10-15 20:48:32.184 | RX | 0E 03 80 40 01 40 01 40 01 40 02 40 01 40 01 40 01 40 01 40 02 40 01 40 01 40 01 40 02 40 01 40 02 40 01 40 01 40 02 40 01 40 03 40 01 40 02 40 01 40 02 40 02 40 02 40 03 40 01 40 02 40 02 40 02 40 01 40 01 40 01 40 01 40 02 40 02 40 01 40 02 40 01 40 01 40 02 40 02 40 02 40 01 40 01 40 01 40 02 40 02 40 01 40 02 40 01 40 02 40 02 40 01 40 02 40 02 40 02 40 00 40 03 40 02 40 01 40 02 40 01 8D 9C 
2025-10-15 20:48:32.215 | TX | 0E 03 A3 C0 00 40 66 BD 
2025-10-15 20:48:32.215 | RX | 0E 03 80 40 02 40 02 40 01 40 01 40 01 40 01 40 02 40 02 40 01 40 01 40 01 40 01 40 02 40 01 40 02 40 01 40 01 40 02 40 02 40 02 40 01 40 02 40 02 40 02 40 01 40 02 40 01 40 01 40 02 40 02 40 02 40 02 40 00 40 01 40 02 40 02 40 02 40 01 40 02 40 01 40 02 40 02 40 03 40 02 40 02 40 01 40 00 40 01 40 02 40 02 40 02 40 02 40 02 40 02 40 02 40 02 40 01 40 02 40 02 40 01 40 01 40 02 40 02 40 01 89 8D 
2025-10-15 20:48:32.231 | TX | 0E 10 00 00 00 01 02 00 09 27 A6 
2025-10-15 20:48:32.231 | RX | 0E 10 00 00 00 01 01 36 
2025-10-15 20:48:32.262 | TX | 0E 03 A0 00 00 40 66 C5 
2025-10-15 20:48:32.262 | RX | 0E 03 80 00 15 00 16 00 10 00 17 00 10 00 13 00 0F 00 13 00 1C 00 22 00 0C 00 0D 00 0F 00 25 00 1A 00 2A 00 1A 00 17 00 1B 00 19 00 22 00 18 00 0F 00 17 00 0C 00 17 00 0E 00 1A 00 0D 00 1B 40 1F 00 22 00 06 00 14 00 20 00 22 00 1B 00 13 00 18 00 0F 00 15 00 19 00 1B 00 18 00 0E 00 1B 00 15 00 1C 00 0E 40 14 00 18 00 1D 00 20 00 23 00 20 00 18 00 1E 00 11 00 1D 00 0A 00 0D 00 23 00 12 00 0E 9E B4 
2025-10-15 20:48:32.294 | TX | 0E 03 A0 40 00 40 67 11 
2025-10-15 20:48:32.294 | RX | 0E 03 80 40 0E 00 20 C0 23 C0 15 00 13 00 21 00 27 00 1F 40 19 00 13 00 1D 00 16 00 1A 00 0F 00 1D 00 15 00 0A 00 11 00 1C 00 12 00 18 C0 0D 00 18 00 16 00 22 C0 19 00 16 00 2A 00 1C 00 1F 00 1C 00 0C 00 15 00 1B 00 18 00 0D 00 16 00 16 00 0E 00 17 00 12 00 10 00 19 00 10 00 19 00 1A 00 19 00 19 C0 0F 00 1B 00 1C 00 23 00 1D 00 17 00 0F 00 1A 00 18 00 13 00 16 00 18 00 09 00 0C 00 26 00 14 A5 47 
2025-10-15 20:48:32.325 | TX | 0E 03 A0 80 00 40 67 2D 
2025-10-15 20:48:32.326 | RX | 0E 03 80 00 10 00 27 00 0B 00 0D 00 17 00 25 00 13 00 0C 00 17 00 13 00 1D 00 27 00 1A 00 14 00 1B 00 13 00 16 00 1D 00 1C 00 1A 00 20 00 15 00 18 00 22 00 1B 00 0E 00 17 00 11 00 20 00 13 00 15 00 22 00 15 00 20 00 11 00 1B 00 22 00 1F 00 10 00 0E 00 1C 00 1A 00 16 00 1F 00 0F 00 1C 00 1D 00 14 00 1D 00 19 00 22 00 0A 00 1C 00 22 00 13 00 16 00 14 00 17 00 21 00 15 00 13 00 12 00 19 00 19 BA 8D 
2025-10-15 20:48:32.356 | TX | 0E 03 A0 C0 00 40 66 F9 
2025-10-15 20:48:32.356 | RX | 0E 03 80 00 2B 00 1E 00 17 00 0F 00 12 00 15 00 1A 00 0F 00 0E 00 15 00 12 00 14 00 13 00 0D 00 18 00 13 00 1C 00 21 00 17 00 1D 00 19 00 1E 00 22 00 19 00 1B 00 0D 00 0A 00 14 00 18 00 20 00 1C 00 19 00 1F 00 11 00 20 00 14 00 15 40 1E 40 1F 00 1B 00 16 00 13 00 1F 00 1E 00 15 00 16 00 1D 00 17 40 0A 00 1E 00 19 00 1A 00 15 00 1C 00 1C 00 27 00 17 00 19 00 13 00 17 00 1E 00 1C 00 11 00 1A D1 E3 
2025-10-15 20:48:32.387 | TX | 0E 03 A1 00 00 40 67 39 
2025-10-15 20:48:32.387 | RX | 0E 03 80 00 1C 00 1B 00 14 00 15 00 1F 00 21 00 15 00 14 00 11 00 20 00 18 00 21 00 1C 00 1A 00 25 00 1A 00 1A 00 1C 00 12 00 1B 40 21 00 1E 00 19 00 18 00 19 00 19 00 1A 00 1A 00 21 00 28 00 23 00 15 00 16 00 10 00 17 00 1E 00 21 00 1C 00 03 00 10 00 18 00 1F 40 1E 00 24 00 1B 00 1B 00 19 00 0A 00 14 00 1C 00 22 00 10 00 18 00 1B 00 1B 00 10 00 13 00 15 00 1F 00 11 00 12 00 11 00 1D 00 1F E4 46 
2025-10-15 20:48:32.418 | TX | 0E 03 A1 40 00 40 66 ED 
2025-10-15 20:48:32.418 | RX | 0E 03 80 00 0C 00 0D 00 0F 00 11 00 13 00 16 00 17 00 19 00 19 00 1A 00 1A 00 1A 00 19 00 19 00 19 00 18 00 18 00 17 00 16 00 15 00 14 00 12 00 11 00 11 00 11 00 12 00 13 00 15 00 16 00 18 00 1A 00 1C 00 1D 00 1F 40 20 40 21 40 22 40 23 40 24 40 24 40 25 00 25 00 24 00 24 00 23 00 23 00 22 00 22 00 21 00 20 00 1F 00 1E 00 1E 00 1E 00 1F 00 20 00 20 00 21 00 21 00 21 00 22 00 22 00 22 00 22 78 B5 
2025-10-15 20:48:32.449 | TX | 0E 03 A1 80 00 40 66 D1 
2025-10-15 20:48:32.450 | RX | 0E 03 80 00 21 00 20 00 1D 00 1A 00 16 00 11 00 0D 00 0A 00 09 00 08 00 09 00 0B 00 0D 00 0F 00 11 00 13 00 14 00 15 00 15 00 14 00 13 00 12 00 11 00 0F 00 0F 00 0E 00 0F 00 0F 00 10 00 12 00 14 00 16 00 18 00 19 00 1A 00 19 00 18 00 16 00 14 00 13 00 13 00 13 00 15 00 16 00 18 00 1A 00 1C 00 1D 00 1E 00 20 00 21 00 23 00 24 00 26 00 28 00 29 00 2A 00 2A 00 2A 00 2A 00 29 00 29 00 28 00 27 D9 3C 
2025-10-15 20:48:32.479 | TX | 0E 03 A1 C0 00 40 67 05 
2025-10-15 20:48:32.480 | RX | 0E 03 80 00 25 00 23 00 20 00 1E 00 1C 00 1A 00 19 00 18 00 16 00 15 00 14 00 12 00 10 00 0E 00 0D 00 0C 00 0D 00 0E 00 0F 00 11 00 12 00 13 00 14 00 14 00 14 00 14 00 14 00 15 00 16 00 17 00 19 00 1B 00 1D 00 1F 00 20 00 21 00 21 00 20 00 1E 00 1C 00 1A 00 17 00 15 00 13 00 12 00 11 00 10 00 10 00 0F 00 0F 00 0E 00 0D 00 0C 00 0C 00 0B 00 0B 00 0C 00 0E 00 10 00 11 00 12 00 13 00 14 00 16 86 64 
2025-10-15 20:48:32.511 | TX | 0E 03 A2 00 00 40 67 7D 
2025-10-15 20:48:32.511 | RX | 0E 03 80 40 02 40 02 40 02 40 02 40 02 40 02 40 01 40 01 40 01 40 01 40 01 40 01 40 02 40 02 40 02 40 02 40 02 40 02 40 02 40 02 40 02 40 02 40 02 40 02 40 02 40 02 40 02 40 02 40 02 40 02 40 02 40 02 40 02 40 02 40 01 40 01 40 01 40 01 40 01 40 01 40 01 40 01 40 01 40 01 40 01 40 01 40 02 40 02 40 02 40 02 40 03 40 03 40 04 40 04 40 04 40 03 40 03 40 03 40 03 40 03 40 02 40 02 40 02 40 02 99 45 
2025-10-15 20:48:32.542 | TX | 0E 03 A2 40 00 40 66 A9 
2025-10-15 20:48:32.542 | RX | 0E 03 80 40 02 40 02 40 02 40 03 40 03 40 03 40 03 40 03 40 03 40 03 40 03 40 02 40 02 40 02 40 02 40 02 40 02 40 02 40 02 40 02 40 02 40 02 40 02 40 03 40 03 40 03 40 04 40 04 40 04 40 03 40 03 40 03 40 03 40 03 40 03 40 02 40 02 40 02 40 01 40 01 40 01 40 01 40 02 40 02 40 02 40 02 40 02 40 02 40 02 40 02 40 02 40 02 40 02 40 02 40 02 40 02 40 01 40 01 40 01 40 01 40 02 40 02 40 02 40 02 ED 34 
2025-10-15 20:48:32.573 | TX | 0E 03 A2 80 00 40 66 95 
2025-10-15 20:48:32.573 | RX | 0E 03 80 40 02 40 02 40 02 40 02 40 01 40 01 40 01 40 01 40 01 40 01 40 01 40 01 40 01 40 02 40 02 40 02 40 02 40 02 40 01 40 01 40 01 40 01 40 01 40 01 40 02 40 02 40 01 40 01 40 01 40 01 40 01 40 01 40 02 40 02 40 02 40 02 40 02 40 02 40 02 40 02 40 01 40 01 40 01 40 01 40 01 40 02 40 02 40 02 40 02 40 02 40 02 40 02 40 02 40 02 40 02 40 02 40 02 40 01 40 01 40 01 40 01 40 02 40 02 40 02 F0 36 
2025-10-15 20:48:32.604 | TX | 0E 03 A2 C0 00 40 67 41 
2025-10-15 20:48:32.604 | RX | 0E 03 80 40 02 40 02 40 03 40 03 40 03 40 04 40 04 40 03 40 03 40 03 40 03 40 03 40 02 40 02 40 02 40 02 40 02 40 01 40 01 40 01 40 01 40 01 40 01 40 01 40 01 40 01 40 01 40 01 40 01 40 02 40 02 40 02 40 02 40 02 40 01 40 01 40 01 40 01 40 02 40 02 40 02 40 02 40 02 40 02 40 02 40 02 40 02 40 02 40 02 40 02 40 02 40 02 40 02 40 02 40 02 40 02 40 02 40 02 40 01 40 01 40 02 40 02 40 02 40 02 0A BD 
2025-10-15 20:48:32.635 | TX | 0E 03 A3 00 00 40 66 81 
2025-10-15 20:48:32.635 | RX | 0E 03 80 40 01 40 01 40 01 40 01 40 01 40 01 40 01 40 02 40 02 40 03 40 03 40 03 40 03 40 02 40 02 40 02 40 02 40 02 40 02 40 03 40 03 40 03 40 03 40 02 40 02 40 02 40 02 40 02 40 02 40 02 40 02 40 02 40 02 40 02 40 02 40 02 40 02 40 02 40 02 40 02 40 02 40 02 40 02 40 02 
2025-10-15 20:48:32.636 | RX | 40 02 40 02 40 02 40 02 40 02 40 02 40 02 40 02 40 02 40 02 40 02 40 02 40 01 40 01 40 01 40 01 40 01 40 01 40 01 40 01 D2 B1 
2025-10-15 20:48:32.667 | TX | 0E 03 A3 40 00 40 67 55 
2025-10-15 20:48:32.667 | RX | 0E 03 80 40 01 40 01 40 01 40 01 40 01 40 01 40 01 40 02 40 02 40 02 40 01 40 01 40 01 40 01 40 01 40 01 40 02 40 02 40 02 40 02 40 02 40 01 40 01 40 01 40 01 40 01 40 01 40 01 40 01 40 02 40 02 40 02 40 02 40 02 40 02 40 02 40 02 40 02 40 02 40 02 40 02 40 01 40 01 40 01 40 01 40 01 40 02 40 02 40 02 40 02 40 02 40 02 40 02 40 02 40 02 40 02 40 01 40 01 40 01 40 01 40 01 40 02 40 02 40 02 F0 BB 
2025-10-15 20:48:32.698 | TX | 0E 03 A3 80 00 40 67 69 
2025-10-15 20:48:32.699 | RX | 0E 03 80 40 02 40 01 40 01 40 01 40 01 40 01 40 01 40 01 40 01 40 01 40 01 40 01 40 01 40 01 40 02 40 02 40 02 40 02 40 02 40 02 40 02 40 02 40 02 40 02 40 01 40 01 40 01 40 01 40 01 40 01 40 01 40 01 40 01 40 01 40 01 40 01 40 02 40 02 40 02 40 03 40 03 40 02 40 02 40 02 40 02 40 02 40 02 40 02 40 02 40 03 40 03 40 03 40 03 40 03 40 03 40 03 40 03 40 02 40 02 40 02 40 02 40 02 40 02 40 02 84 9C 
2025-10-15 20:48:32.730 | TX | 0E 03 A3 C0 00 40 66 BD 
2025-10-15 20:48:32.730 | RX | 0E 03 80 40 02 40 02 40 02 40 02 40 02 40 03 40 03 40 02 40 02 40 02 40 02 40 02 40 02 40 02 40 02 40 02 40 02 40 02 40 02 40 02 40 02 40 02 40 02 40 03 40 03 40 03 40 02 40 02 40 02 40 02 40 02 40 02 40 02 40 02 40 02 40 02 40 02 40 02 40 02 40 02 40 01 40 01 40 01 40 01 40 01 40 01 40 01 40 02 40 02 40 02 40 02 40 02 40 02 40 02 40 02 40 02 40 02 40 01 40 01 40 01 40 01 40 01 40 01 40 02 8C 66 
2025-10-15 20:48:32.746 | TX | 0E 10 00 00 00 01 02 00 09 27 A6 
2025-10-15 20:48:32.746 | RX | 0E 10 00 00 00 01 01 36 
2025-10-15 20:48:32.777 | TX | 0E 03 A0 00 00 40 66 C5 
2025-10-15 20:48:32.777 | RX | 0E 03 80 00 0C 00 09 00 0E 00 1D 40 11 40 11 00 23 00 1F 00 1C 00 1A 00 15 00 1B 00 21 00 24 00 18 00 16 00 10 00 21 00 1A 00 10 00 16 00 1D 00 1D 00 18 00 14 00 14 00 0C 00 13 00 1A 00 1C 00 23 00 28 00 18 00 1A 00 21 00 1C 00 1B 00 21 00 11 00 0E 00 0D 00 19 00 1C 00 07 00 20 00 12 00 18 00 1E 00 11 00 21 00 17 00 13 00 10 00 1C 00 19 00 1C 00 15 00 0F 00 17 00 1A 00 21 00 16 00 19 00 18 39 05 
2025-10-15 20:48:32.808 | TX | 0E 03 A0 40 00 40 67 11 
2025-10-15 20:48:32.808 | RX | 0E 03 80 00 1B 00 13 00 14 00 1A 00 19 00 1B 00 1A 00 1E 00 1C 00 06 00 16 00 1D 00 22 00 09 00 23 00 20 00 21 00 10 00 18 00 1D 00 17 00 19 00 0B 00 0D 00 19 00 13 00 16 40 15 00 11 00 16 40 1A 40 1D 00 0B 00 24 00 17 00 1E 00 10 00 1E 00 0F 00 1C 00 1A 00 23 00 11 00 0A 40 14 00 1A 00 16 00 1C 00 11 00 18 00 0E 00 23 00 18 00 20 00 18 00 1F 00 1A 00 1B 00 1F 00 0E 00 19 00 17 00 0F 00 18 09 CA 
2025-10-15 20:48:32.839 | TX | 0E 03 A0 80 00 40 67 2D 
2025-10-15 20:48:32.839 | RX | 0E 03 80 00 19 00 1C 00 0A 00 14 00 1C 00 1E 00 15 00 18 00 1A 00 13 00 1A 00 1B 00 1F 00 14 00 19 00 14 00 0A 00 16 00 1D 00 17 E0 15 00 12 00 1F 00 15 00 17 00 1F 00 13 00 23 00 24 00 27 00 15 00 20 00 1A 00 18 00 13 00 08 00 1E 00 1B 00 0D 00 10 00 17 00 13 00 11 C0 17 40 10 00 21 00 26 00 1C 00 0D 00 18 00 15 00 1F 00 1F 00 14 00 0B 00 11 00 18 00 17 00 0C 00 0C 00 1B 00 18 00 1C 00 28 35 80 
2025-10-15 20:48:32.869 | TX | 0E 03 A0 C0 00 40 66 F9 
2025-10-15 20:48:32.870 | RX | 0E 03 80 00 1B 00 1F 00 1B 00 13 00 16 00 19 00 12 00 13 00 14 00 19 00 11 00 14 00 18 00 1A 00 1B 00 11 00 10 00 17 00 1A 00 1C 00 1F 00 18 00 1D 00 1C 00 0F 00 17 00 17 00 14 00 26 00 14 00 20 00 05 00 12 00 15 00 1C 00 0E 00 11 00 1A 00 1A 00 1A 00 12 00 1B 00 12 00 20 00 21 00 14 00 19 00 0C 00 15 00 0A 00 15 40 14 00 1E 40 19 00 18 00 16 00 18 80 20 40 26 00 27 00 23 00 21 00 1D 00 16 40 58 
2025-10-15 20:48:32.901 | TX | 0E 03 A1 00 00 40 67 39 
2025-10-15 20:48:32.901 | RX | 0E 03 80 00 20 00 1A 00 25 00 0C 00 0A 00 19 00 1B 00 19 00 1B 00 19 00 18 00 19 00 11 00 12 00 1C 00 17 00 0C 00 0E 00 1B 00 19 00 12 00 12 00 1D 00 16 00 15 00 17 00 1B 00 21 00 21 00 15 00 21 00 22 00 1F 00 0F 00 10 00 13 00 1B 00 10 00 18 00 1C 00 29 00 16 00 07 00 1D 00 17 00 1E 00 12 00 1F 00 1D 00 19 00 0D 00 1A 00 17 00 15 40 13 00 14 00 0A 00 21 00 13 00 0E 00 12 00 1B 00 20 E0 20 8E 68 
2025-10-15 20:48:32.932 | TX | 0E 03 A1 40 00 40 66 ED 
2025-10-15 20:48:32.932 | RX | 0E 03 80 00 1E 00 16 00 1E 00 1F 00 14 00 16 00 12 00 19 00 19 40 17 00 1B 00 14 00 1F 00 16 00 1D 00 1A 00 17 00 12 00 1C 00 29 00 22 00 1B 00 03 00 16 00 24 00 1D 00 1D 00 14 00 10 00 22 00 15 00 0C 40 13 00 21 40 19 60 24 00 1B 00 12 00 1E 00 19 00 18 00 16 00 29 00 1E 00 14 00 1C 00 16 00 27 00 19 00 12 00 11 00 1F 00 14 00 11 80 12 00 16 00 25 C0 2A C0 1A 00 1E 00 21 00 1E 00 1F 00 18 B5 EB 
2025-10-15 20:48:32.963 | TX | 0E 03 A1 80 00 40 66 D1 
2025-10-15 20:48:32.964 | RX | 0E 03 80 00 0A 00 1C 00 1F 00 17 00 18 00 1D 00 14 00 13 00 0F 00 0D 00 10 40 16 00 12 40 27 00 19 00 0C 00 1B 00 20 00 1A 00 14 00 1D 00 18 00 19 00 16 00 11 00 16 00 1F 00 1A 00 12 00 19 00 16 00 1D 00 23 00 16 00 15 00 12 00 21 00 15 00 1E 00 1B 00 17 00 10 00 10 00 0F 00 12 00 14 00 14 00 1A 00 10 00 13 00 19 00 14 00 1E 00 1F 00 1C 00 1C 00 25 00 0D 00 12 00 1D 00 0D 00 21 00 19 00 1C D9 C8 
2025-10-15 20:48:32.993 | TX | 0E 03 A1 C0 00 40 67 05 
2025-10-15 20:48:32.994 | RX | 0E 03 80 00 1D 00 1F 00 0F 00 14 00 1A 00 23 00 14 80 24 00 17 00 23 00 24 00 1B 00 14 00 0A 00 20 00 16 00 21 00 16 00 14 80 0E C0 15 00 19 00 21 00 1C 00 23 00 1D 00 1D 00 21 00 27 40 1F 00 14 00 0E 00 20 00 19 00 1C 00 09 00 13 00 20 00 24 00 15 00 1B 00 1F 00 18 00 1A 00 1C 00 17 00 11 00 28 00 1B 00 15 00 1A 00 11 00 1B 00 11 00 1A 00 15 00 1B 00 1B 00 06 00 22 00 20 00 18 00 14 00 19 02 D5 
2025-10-15 20:48:33.025 | TX | 0E 03 A2 00 00 40 67 7D 
2025-10-15 20:48:33.025 | RX | 0E 03 80 40 02 40 01 40 01 40 00 40 02 40 02 40 02 40 02 40 02 40 02 40 01 40 01 40 02 40 02 40 01 40 02 40 01 40 01 40 02 40 02 40 01 40 01 40 01 40 01 40 01 40 01 40 02 40 02 40 01 40 02 40 01 40 02 40 01 40 01 40 01 40 00 40 02 40 01 40 01 40 01 40 01 40 02 40 01 40 01 40 01 40 01 40 02 40 02 40 01 40 02 40 02 40 02 40 02 40 01 40 01 40 01 40 02 40 01 40 01 40 01 40 02 40 01 40 01 40 02 D5 EC 
2025-10-15 20:48:33.055 | TX | 0E 03 A2 40 00 40 66 A9 
2025-10-15 20:48:33.056 | RX | 0E 03 80 40 02 40 01 40 02 40 01 40 02 40 02 40 02 40 01 40 01 40 00 40 01 40 01 40 02 40 01 40 01 40 02 40 03 40 03 40 00 40 01 40 02 40 01 40 01 40 02 40 02 40 02 40 01 40 02 40 01 40 02 40 01 40 02 40 01 40 02 40 01 40 01 40 02 40 01 40 02 40 02 40 01 40 01 40 02 40 02 40 01 40 01 40 01 40 01 40 00 40 01 40 01 40 01 40 01 40 01 40 03 40 01 40 02 40 02 40 02 40 00 40 02 40 02 40 01 40 01 DE 5E 
2025-10-15 20:48:33.087 | TX | 0E 03 A2 80 00 40 66 95 
2025-10-15 20:48:33.087 | RX | 0E 03 80 40 02 40 02 40 02 40 03 40 03 40 01 40 02 40 02 40 02 40 01 40 01 40 01 40 01 40 01 40 01 40 02 40 02 40 02 40 02 40 02 40 01 40 01 40 00 40 01 40 02 40 01 40 01 40 02 40 02 40 02 40 04 40 02 40 02 40 02 40 02 40 02 40 02 40 02 40 02 40 02 40 01 40 01 40 01 40 03 40 01 40 02 40 01 40 01 40 01 40 00 40 02 40 01 40 02 40 01 40 02 40 02 40 01 40 03 40 02 40 02 40 01 40 03 40 02 40 01 E8 0B 
2025-10-15 20:48:33.118 | TX | 0E 03 A2 C0 00 40 67 41 
2025-10-15 20:48:33.118 | RX | 0E 03 80 40 01 40 02 40 01 40 01 40 00 40 02 40 01 40 01 40 01 40 01 40 01 40 00 40 01 40 01 40 01 40 01 40 01 40 02 40 01 40 01 40 01 40 01 40 01 40 02 40 02 40 02 40 01 40 02 40 02 40 02 40 02 40 00 40 02 40 02 40 01 40 01 40 02 40 01 40 01 40 01 40 01 40 01 40 01 40 03 40 02 40 01 40 01 40 01 40 01 40 01 40 02 40 01 40 01 40 01 40 01 40 01 40 02 40 01 40 01 40 02 40 01 40 02 40 01 40 01 8F 7C 
2025-10-15 20:48:33.149 | TX | 0E 03 A3 00 00 40 66 81 
2025-10-15 20:48:33.149 | RX | 0E 03 80 40 02 40 02 40 02 40 02 40 01 40 01 40 01 40 01 40 02 40 01 40 02 40 02 40 02 40 02 40 02 40 01 40 02 40 02 40 01 40 02 40 01 40 03 40 01 40 01 40 01 40 01 40 02 40 02 40 02 40 01 40 01 40 01 40 02 40 01 40 01 40 01 40 01 40 01 40 01 40 02 40 01 40 02 40 02 40 02 40 03 40 01 40 01 40 01 40 01 40 01 40 02 40 01 40 02 40 02 40 02 40 02 40 02 40 01 40 01 40 01 40 02 40 01 40 01 40 02 15 8C 
2025-10-15 20:48:33.179 | TX | 0E 03 A3 40 00 40 67 55 
2025-10-15 20:48:33.180 | RX | 0E 03 80 40 01 40 01 40 02 40 01 40 01 40 02 40 01 40 01 40 00 40 02 40 01 40 00 40 02 40 02 40 02 40 02 40 01 40 01 40 01 40 02 40 02 40 00 40 01 40 03 40 02 40 02 40 01 40 01 40 01 40 00 40 01 40 02 40 02 40 01 40 01 40 02 40 02 40 01 40 01 40 02 40 01 40 02 40 02 40 01 40 02 40 01 40 02 40 02 40 02 40 02 40 01 40 01 40 01 40 02 40 02 40 01 40 01 40 01 40 01 40 02 40 01 40 02 40 02 40 02 30 89 
2025-10-15 20:48:33.211 | TX | 0E 03 A3 80 00 40 67 69 
2025-10-15 20:48:33.211 | RX | 0E 03 80 40 02 40 01 40 02 40 01 40 01 40 01 40 01 40 01 40 02 40 01 40 02 40 02 40 02 40 02 40 01 40 02 40 02 40 00 40 01 40 01 40 01 40 00 40 02 40 03 40 02 40 02 40 03 40 02 40 00 40 01 40 01 40 01 40 01 40 00 40 01 40 02 40 01 40 02 40 02 40 02 40 00 40 01 40 01 40 01 40 00 40 01 40 01 40 01 40 01 40 02 40 02 40 01 40 01 40 01 40 01 40 01 40 01 40 01 40 02 40 01 40 02 40 01 40 02 40 02 B7 F5 
2025-10-15 20:48:33.242 | TX | 0E 03 A3 C0 00 40 66 BD 
2025-10-15 20:48:33.242 | RX | 0E 03 80 40 01 40 01 40 01 40 02 40 02 40 02 40 02 40 02 40 01 40 01 40 01 40 01 40 02 40 02 40 02 40 02 40 02 40 02 40 02 40 02 40 02 40 02 40 02 40 02 40 02 40 02 40 02 40 02 40 01 40 01 40 01 40 01 40 00 40 00 40 00 40 00 40 00 40 00 40 01 40 01 40 01 40 01 40 01 40 01 40 01 40 02 40 02 40 02 40 02 40 02 40 02 40 02 40 02 40 02 40 02 40 02 40 01 40 01 40 01 40 01 40 01 40 01 40 01 40 01 6D 5D 
2025-10-15 20:48:33.258 | TX | 0E 10 00 00 00 01 02 00 09 27 A6 
2025-10-15 20:48:33.258 | RX | 0E 10 00 00 00 01 01 36 
2025-10-15 20:48:33.289 | TX | 0E 03 A0 00 00 40 66 C5 
2025-10-15 20:48:33.289 | RX | 0E 03 80 00 2B 80 21 00 17 00 20 00 20 00 25 00 15 00 0B 00 19 00 12 00 2A 00 14 00 18 00 1C 00 0C 00 0F 00 16 00 22 00 10 00 0E 00 17 00 26 00 29 80 1B 40 11 00 19 00 1F 00 19 00 14 00 13 00 14 00 1E 00 1C 00 14 00 10 00 10 40 12 00 15 00 20 00 21 00 1A 00 10 00 1C 00 23 00 13 80 21 00 19 00 20 00 1D 00 15 00 1A 00 0F 00 16 00 1A 00 1B 00 0B 00 12 00 10 00 11 00 1A 00 22 00 29 00 15 00 22 96 AD 
2025-10-15 20:48:33.320 | TX | 0E 03 A0 40 00 40 67 11 
2025-10-15 20:48:33.320 | RX | 0E 03 80 00 16 00 14 00 07 40 26 00 16 00 1B 00 20 00 29 00 19 00 11 00 11 00 1D 00 1E 00 1E 00 10 00 0D 00 07 00 1A 00 1A 40 13 00 1A 00 1A 00 19 00 1A 00 17 00 15 00 24 00 24 00 25 00 16 00 1D 00 14 00 10 00 15 00 1C 40 1E 00 19 00 11 00 10 00 22 00 15 00 14 00 18 00 1A 00 20 00 1D 00 1A 00 16 00 24 00 15 00 1D 00 17 00 16 00 12 00 0C 00 1B 00 1C 00 1B 00 1F 00 1A 00 21 00 12 00 1C 00 10 CC 8D 
2025-10-15 20:48:33.351 | TX | 0E 03 A0 80 00 40 67 2D 
2025-10-15 20:48:33.351 | RX | 0E 03 80 00 14 40 15 00 04 00 19 00 20 00 19 00 07 00 1D 00 1D 40 21 80 22 C0 26 00 1F 00 23 00 1E 00 20 00 08 00 17 00 16 00 1C 00 11 00 0F 00 1A 80 0F 00 0D 00 15 00 2A 00 18 00 16 00 19 00 1C 00 21 00 1D 00 17 00 19 00 1B 00 1D 00 15 00 12 00 10 00 14 00 12 00 11 00 12 00 1F 00 12 00 1B 00 15 00 1F 00 14 00 21 00 1C 00 1B 00 17 00 1D 00 1A 00 0B 00 19 00 19 00 13 00 1B 00 13 00 12 00 23 47 12 
2025-10-15 20:48:33.382 | TX | 0E 03 A0 C0 00 40 66 F9 
2025-10-15 20:48:33.382 | RX | 0E 03 80 00 17 00 1A 00 19 00 17 00 1A 00 14 00 22 00 18 00 1D 00 1A 00 18 00 1A C0 20 00 17 00 1B 00 16 00 1A 00 13 00 0B 00 1A 00 19 00 22 00 17 00 20 00 26 00 20 00 18 00 18 00 16 00 1A 00 19 00 09 00 11 00 18 00 18 00 10 40 12 00 11 00 27 00 29 00 22 00 12 00 1A 00 20 00 19 00 1A 00 12 00 17 00 14 00 0C 00 0A 00 13 40 0E 00 1B 00 1A 00 14 00 23 00 25 00 10 40 26 00 1C 00 2A 00 15 00 16 AA E1 
2025-10-15 20:48:33.413 | TX | 0E 03 A1 00 00 40 67 39 
2025-10-15 20:48:33.413 | RX | 0E 03 80 00 1D 00 23 00 1E 00 1C C0 27 00 22 00 1E 00 1C 00 12 40 07 00 0E 00 0F 00 0A 00 1A 00 0F 00 19 00 14 00 1D 40 1B 40 2C 00 20 00 11 00 24 00 2B 00 17 00 1C 00 16 00 11 00 1E 00 19 00 18 00 0D 00 0D 00 0F 00 1B 00 13 00 1E 00 18 00 1B 00 20 00 26 00 15 00 0E 00 15 00 1F 00 1C 40 1B 40 0C 00 19 00 15 00 1E 00 14 00 18 00 12 00 08 40 1A 40 1D C0 29 00 1F 00 1D 00 21 40 18 00 15 00 13 0D F2 
2025-10-15 20:48:33.443 | TX | 0E 03 A1 40 00 40 66 ED 
2025-10-15 20:48:33.444 | RX | 0E 03 80 00 12 00 1F 00 1A 00 03 00 10 00 1B 00 29 40 16 00 0F 00 1F 00 24 00 26 00 14 00 0C 00 17 00 24 00 15 00 21 00 1A 00 13 00 0C 00 0F 00 1B 00 17 40 20 00 10 00 19 00 1A 00 19 80 1B 00 11 00 22 00 21 00 28 80 23 00 17 00 16 00 1C 00 1F 00 0E 00 12 00 1A 00 08 00 0B 00 14 00 19 40 11 C0 0F 00 1E 00 1C 00 22 00 11 80 0C 00 0C 00 24 00 18 C0 31 00 10 00 10 00 1E 00 1D 00 17 00 10 00 13 8A 83 
2025-10-15 20:48:33.474 | TX | 0E 03 A1 80 00 40 66 D1 
2025-10-15 20:48:33.475 | RX | 0E 03 80 00 10 00 0D 00 19 00 14 00 12 00 14 00 10 00 17 00 14 40 14 00 1F 00 21 00 1C 40 22 00 13 00 11 00 19 00 26 00 1D 00 12 00 1C 00 15 00 21 00 1D 00 20 00 23 40 1F 40 15 00 18 00 22 00 27 00 0D 40 15 00 1F 00 1C E0 27 40 1E 00 17 00 1A 00 2A 00 18 00 18 00 14 00 16 00 12 00 12 00 0C 00 0E 00 16 80 16 00 27 00 16 00 24 00 1B 00 1D 00 1B 00 16 00 25 80 13 00 12 00 1E 00 25 00 1E 00 07 57 94 
2025-10-15 20:48:33.505 | TX | 0E 03 A1 C0 00 40 67 05 
2025-10-15 20:48:33.506 | RX | 0E 03 80 00 21 00 18 00 1C 00 22 00 1C 00 02 00 0F 00 15 00 1E 00 1B 00 1B 00 1D 00 1B 00 1E 00 1C 00 1D 00 1B 00 23 00 13 00 16 00 05 00 19 00 1F 00 09 00 1C 00 14 00 1B 00 1A 00 11 00 15 00 17 00 20 00 11 00 1C 00 1B 00 23 00 16 00 07 00 11 00 11 40 12 00 17 00 1A 00 1E 00 11 00 1C 00 0E 00 18 00 1F 00 12 00 0D 00 1A 00 1D 00 1A 00 12 00 1E 00 21 00 1B 00 11 00 0F 00 21 00 1B 40 10 00 1F C4 ED 
2025-10-15 20:48:33.536 | TX | 0E 03 A2 00 00 40 67 7D 
2025-10-15 20:48:33.537 | RX | 0E 03 80 40 02 40 01 40 02 40 01 40 01 40 02 40 01 40 02 40 01 40 01 40 02 40 02 40 02 40 02 40 01 40 01 40 01 40 02 40 00 40 01 40 02 40 01 40 01 40 01 40 01 40 01 40 02 40 02 40 02 40 01 40 01 40 00 40 01 40 01 40 01 40 01 40 00 40 03 40 02 40 02 40 02 40 01 40 02 40 02 40 02 40 02 40 03 40 03 40 02 40 03 40 03 40 01 40 03 40 01 40 02 40 03 40 03 40 03 40 02 40 02 40 02 40 03 40 01 40 02 B6 9A 
2025-10-15 20:48:33.567 | TX | 0E 03 A2 40 00 40 66 A9 
2025-10-15 20:48:33.568 | RX | 0E 03 80 40 01 40 02 40 02 40 02 40 03 40 02 40 02 40 02 40 03 40 01 40 01 40 01 40 02 40 03 40 02 40 01 40 03 40 03 40 02 40 03 40 02 40 02 40 03 40 03 40 01 40 02 40 03 40 02 40 02 40 02 40 02 40 02 40 03 40 02 40 02 40 02 40 03 40 02 40 03 40 02 40 02 40 02 40 03 40 03 40 02 40 03 40 02 40 01 40 01 40 02 40 03 40 02 40 03 40 02 40 02 40 02 40 02 40 03 40 02 40 02 40 03 40 01 40 02 40 03 93 A6 
2025-10-15 20:48:33.599 | TX | 0E 03 A2 80 00 40 66 95 
2025-10-15 20:48:33.599 | RX | 0E 03 80 40 01 40 02 40 01 40 03 40 01 40 02 40 01 40 01 40 01 40 01 40 02 40 01 40 01 40 02 40 01 40 01 40 02 40 01 40 02 40 02 40 02 40 03 40 02 40 02 40 03 40 02 40 03 40 02 40 02 40 02 40 02 40 02 40 02 40 04 40 02 40 01 40 02 40 03 40 03 40 02 40 02 40 01 40 01 40 01 40 01 40 01 40 01 40 02 40 00 40 02 40 01 40 01 40 00 40 02 40 01 40 02 40 00 40 00 40 01 40 02 40 01 40 02 40 01 40 01 F6 D8 
2025-10-15 20:48:33.630 | TX | 0E 03 A2 C0 00 40 67 41 
2025-10-15 20:48:33.630 | RX | 0E 03 80 40 01 40 01 40 02 40 01 40 02 40 02 40 02 40 02 40 02 40 02 40 02 40 00 40 01 40 01 40 02 40 01 40 01 40 02 40 01 40 01 40 01 40 01 40 02 40 02 40 02 40 01 40 01 40 01 40 01 40 01 40 01 40 02 40 02 40 01 40 00 40 01 40 02 40 01 40 01 40 02 40 01 40 01 40 02 40 01 40 02 40 01 40 02 40 01 40 01 40 01 40 01 40 01 40 01 40 02 40 01 40 01 40 01 40 01 40 02 40 01 40 01 40 01 40 01 40 01 6E C4 
2025-10-15 20:48:33.661 | TX | 0E 03 A3 00 00 40 66 81 
2025-10-15 20:48:33.661 | RX | 0E 03 80 40 02 40 02 40 01 40 01 40 02 40 01 40 01 40 01 40 02 40 01 40 02 40 02 40 02 40 01 40 02 40 01 40 01 40 03 40 01 40 01 40 01 40 01 40 01 40 01 40 01 40 02 40 01 40 02 40 01 40 02 40 01 40 01 40 01 40 01 40 02 40 02 40 01 40 01 40 01 40 02 40 01 40 02 40 02 40 01 40 01 40 02 40 01 40 02 40 02 40 02 40 00 40 01 40 02 40 02 40 02 40 02 40 02 40 03 40 02 40 02 40 01 40 02 40 02 40 00 82 33 
2025-10-15 20:48:33.692 | TX | 0E 03 A3 40 00 40 67 55 
2025-10-15 20:48:33.692 | RX | 0E 03 80 40 01 40 01 40 02 40 01 40 02 40 01 40 02 40 01 40 01 40 01 40 01 40 00 40 02 40 01 40 01 40 00 40 02 40 02 40 02 40 01 40 02 40 01 40 02 40 02 40 01 40 02 40 02 40 01 40 01 40 02 40 01 40 02 40 01 40 02 40 02 40 03 40 01 40 01 40 02 40 02 40 01 40 01 40 01 40 01 40 01 40 02 40 02 40 02 40 01 40 01 40 01 40 00 40 01 40 02 40 02 40 02 40 02 40 01 40 01 40 01 40 01 40 01 40 01 40 02 9F 50 
2025-10-15 20:48:33.722 | TX | 0E 03 A3 80 00 40 67 69 
2025-10-15 20:48:33.722 | RX | 0E 03 80 40 02 40 01 40 01 40 02 40 01 40 02 40 02 40 01 40 01 40 02 40 04 40 04 40 02 40 03 40 02 40 03 40 01 40 02 40 02 40 01 40 01 40 01 40 02 40 02 40 02 40 02 40 02 40 01 40 02 40 01 40 01 40 02 40 01 40 01 40 02 40 02 40 03 40 03 40 02 40 03 40 03 40 00 40 03 40 01 40 02 40 02 40 01 40 01 40 01 40 01 40 02 40 02 40 02 40 02 40 01 40 01 40 02 40 01 40 02 40 01 40 01 40 01 40 01 40 02 86 98 
2025-10-15 20:48:33.753 | TX | 0E 03 A3 C0 00 40 66 BD 
2025-10-15 20:48:33.753 | RX | 0E 03 80 40 01 40 02 40 03 40 01 40 01 40 01 40 01 40 02 40 03 40 02 40 02 40 01 40 01 40 01 40 02 40 01 40 02 40 02 40 01 40 02 40 02 40 00 40 01 40 02 40 01 40 02 40 01 40 01 40 02 40 01 40 01 40 02 40 02 40 02 40 02 40 02 40 01 40 02 40 01 40 01 40 01 40 00 40 01 40 02 40 02 40 01 40 01 40 01 40 01 40 02 40 01 40 01 40 01 40 00 40 01 40 01 40 00 40 01 40 01 40 01 40 02 40 01 40 02 40 02 FC 56 
2025-10-15 20:48:33.769 | TX | 0E 10 00 00 00 01 02 00 09 27 A6 
2025-10-15 20:48:33.769 | RX | 0E 10 00 00 00 01 01 36 
2025-10-15 20:48:33.800 | TX | 0E 03 A0 00 00 40 66 C5 
2025-10-15 20:48:33.801 | RX | 0E 03 80 00 17 00 1C 00 11 00 17 00 20 00 16 00 17 00 17 00 05 00 1B 00 14 40 11 00 19 00 23 00 28 00 1E 00 0C 00 17 00 22 00 1E 00 22 00 1C 00 0F 00 0F 00 17 00 0F 00 0D 00 15 00 0C 00 0D 00 18 00 1D 00 1B 80 16 00 1D 00 1D 00 23 80 24 00 15 00 0E 00 1D 00 17 00 1B 00 14 00 16 00 15 00 1B 00 0F 00 0A 00 0D 00 17 00 15 00 19 00 1F 00 26 00 1B 00 1A 00 29 00 1E 00 1F 00 1C 00 0E 00 1D 00 14 E1 D1 
2025-10-15 20:48:33.832 | TX | 0E 03 A0 40 00 40 67 11 
2025-10-15 20:48:33.832 | RX | 0E 03 80 00 13 00 1F 00 1F 00 1C 00 17 00 1F 00 1E 00 1C 00 0E 00 0D 00 15 00 1B 00 18 00 1B 00 1A 00 14 00 07 00 14 00 17 00 1C 00 1F 00 10 00 24 00 12 00 1A 00 19 00 1B 00 1C 00 14 00 16 00 09 00 12 00 17 C0 08 40 11 00 1F 00 1D 00 25 00 16 00 0F 00 22 00 1F 00 1F 00 18 00 25 00 18 00 0D 00 05 00 0E 00 16 40 15 80 12 00 0C 00 15 00 21 00 2A 40 0C 00 18 00 1F 00 1D 80 19 00 15 00 12 00 21 25 88 
2025-10-15 20:48:33.863 | TX | 0E 03 A0 80 00 40 67 2D 
2025-10-15 20:48:33.863 | RX | 0E 03 80 00 01 00 0F 00 15 00 1E 00 1E 00 18 00 17 00 1B 00 16 00 1A 00 1C 00 12 00 1E 00 1B 00 20 00 1F 00 17 00 0E 00 0D 00 14 00 1A 00 10 00 0B 00 0D 00 26 00 0F 00 15 00 1C 00 1D 00 17 00 1A 00 11 00 17 00 19 00 0E 00 25 00 17 00 17 00 03 00 13 00 25 00 19 00 1C 00 1C 00 22 00 20 00 20 C0 17 00 1B 00 24 00 18 00 21 00 1A 00 1A 00 15 00 1D 40 21 00 0C 00 20 00 10 00 1A 00 1F 00 19 00 18 82 9F 
2025-10-15 20:48:33.895 | TX | 0E 03 A0 C0 00 40 66 F9 
2025-10-15 20:48:33.895 | RX | 0E 03 80 00 1E 00 1D 00 10 00 1C 00 1C 00 0C 00 1A 00 1E 00 18 00 0D 00 12 00 17 00 18 00 13 00 12 00 1A 00 1C 00 22 00 1A 00 14 00 1E 00 20 00 24 00 18 00 11 00 1C 00 1E 00 0E 00 1D 00 16 00 12 00 10 00 17 00 22 00 23 00 24 00 13 00 12 00 22 00 1C 00 17 00 1A 00 10 00 26 00 1A 00 1A 00 16 00 12 00 1C 40 21 00 17 00 16 00 21 00 1C 00 12 00 1D 00 1F 00 24 00 0D 00 23 00 18 00 1D 00 1F 00 0D F1 EC 
2025-10-15 20:48:33.925 | TX | 0E 03 A1 00 00 40 67 39 
2025-10-15 20:48:33.925 | RX | 0E 03 80 80 12 00 17 00 1F 00 15 00 13 00 21 00 29 00 26 00 20 00 20 00 1C 00 0A 00 13 00 16 00 1F 00 09 00 1C 00 18 00 15 00 1B 00 18 00 11 80 17 40 15 00 17 00 1A 00 12 00 1F 00 18 00 1A 00 1E 00 1F 00 17 00 13 00 0E 00 1C 00 1C 00 10 00 0C 00 16 00 1B 00 1C 00 13 00 0F 00 1F 00 22 00 1A 00 12 00 0F 00 16 00 25 00 21 00 10 00 0E 00 18 00 1E 40 18 00 21 00 1F 00 22 00 1C 00 18 00 1F 00 26 50 63 
2025-10-15 20:48:33.957 | TX | 0E 03 A1 40 00 40 66 ED 
2025-10-15 20:48:33.957 | RX | 0E 03 80 00 23 00 13 00 1E 00 20 00 14 00 11 00 14 00 06 00 15 40 12 C0 0B 00 1B 00 1B 40 20 00 1A 00 1D 00 1D 00 19 00 21 00 18 00 11 00 10 00 1C 00 1C 00 18 00 0E 00 06 00 1F 00 16 00 1A 00 12 00 14 00 0F 40 16 00 24 00 1F 00 20 00 17 00 15 00 1E 00 16 00 20 C0 20 00 0F 00 0D 00 19 00 0E 00 17 00 0D 00 1C 00 1E 00 16 00 10 00 0D 00 1B 00 15 00 28 00 21 00 0A 00 19 00 24 00 1A 00 1A 00 18 2E 43 
2025-10-15 20:48:33.987 | TX | 0E 03 A1 80 00 40 66 D1 
2025-10-15 20:48:33.988 | RX | 0E 03 80 00 17 00 2A 00 1A 00 15 00 28 00 0C 00 13 00 16 00 1C 00 08 00 0A 00 15 00 15 00 12 00 20 00 1B 00 14 00 15 00 16 00 23 00 20 00 1E 00 1A 00 14 00 19 00 13 00 1E 00 17 00 0F 00 16 00 20 00 18 00 0B 00 16 00 12 00 15 00 1A 00 23 00 12 40 1D 00 1D 00 22 00 1C 00 18 00 1D 00 21 00 20 00 12 00 1A 00 1C 00 0D 00 19 00 13 00 14 00 0A 00 25 00 14 00 1D 00 19 00 16 00 14 00 27 00 13 00 19 B7 1C 
2025-10-15 20:48:34.018 | TX | 0E 03 A1 C0 00 40 67 05 
2025-10-15 20:48:34.019 | RX | 0E 03 80 00 1A 00 1A 00 1C 00 16 00 1E 00 19 00 11 00 16 00 10 00 0D 00 12 40 11 00 1A 00 1E 00 15 00 0F 00 13 00 14 00 0F 00 0A 00 20 40 23 00 19 00 1E 00 12 00 1E 00 1F 00 12 00 1A 00 1C 00 17 00 0F 00 17 00 15 00 12 00 19 00 24 00 18 00 1B 40 0B 00 15 00 25 00 15 00 22 00 24 00 14 00 0D 00 17 00 22 00 00 00 0E 00 20 00 10 00 1F 00 0E 00 17 00 17 00 20 00 1E 00 13 00 0F 00 0B 00 0F 00 18 9B 63 
2025-10-15 20:48:34.049 | TX | 0E 03 A2 00 00 40 67 7D 
2025-10-15 20:48:34.050 | RX | 0E 03 80 40 02 40 02 40 02 40 03 40 03 40 03 40 03 40 02 40 01 40 03 40 02 40 02 40 02 40 02 40 02 40 03 40 03 40 02 40 02 40 03 40 02 40 02 40 02 40 02 40 01 40 02 40 02 40 03 40 02 40 02 40 02 40 03 40 02 40 02 40 03 40 01 40 03 40 02 40 03 40 02 40 02 40 02 40 01 40 02 40 02 40 02 40 02 40 01 40 02 40 01 40 02 40 02 40 02 40 02 40 02 40 02 40 02 40 01 40 02 40 02 40 02 40 01 40 03 40 02 35 4E 
2025-10-15 20:48:34.080 | TX | 0E 03 A2 40 00 40 66 A9 
2025-10-15 20:48:34.080 | RX | 0E 03 80 40 02 40 02 40 02 40 02 40 02 40 02 40 02 40 01 40 01 40 02 40 02 40 02 40 02 40 02 40 02 40 02 40 02 40 02 40 02 40 02 40 02 40 02 40 02 40 02 40 02 40 02 40 02 40 02 40 02 40 02 40 02 40 02 40 01 40 01 40 01 40 01 40 01 40 01 40 01 40 01 40 01 40 01 40 01 40 01 40 01 40 01 40 02 40 02 40 02 40 02 40 02 40 02 40 02 40 02 40 02 40 02 40 02 40 02 40 02 40 01 40 01 40 01 40 01 40 01 3C 65 
2025-10-15 20:48:34.111 | TX | 0E 03 A2 80 00 40 66 95 
2025-10-15 20:48:34.111 | RX | 0E 03 80 40 01 40 01 40 01 40 01 40 01 40 01 40 01 40 02 40 02 40 02 40 01 40 01 40 01 40 01 40 01 40 02 40 02 40 02 40 02 40 02 40 01 40 01 40 01 40 01 40 01 40 01 40 01 40 01 40 01 40 01 40 01 40 01 40 01 40 02 40 02 40 02 40 02 40 02 40 02 40 02 40 02 40 02 40 02 40 02 40 02 40 02 40 02 40 02 40 02 40 02 40 02 40 02 40 02 40 02 40 02 40 02 40 02 40 02 40 02 40 01 40 01 40 01 40 01 40 01 AC FA 
2025-10-15 20:48:34.142 | TX | 0E 03 A2 C0 00 40 67 41 
2025-10-15 20:48:34.143 | RX | 0E 03 80 40 01 40 01 40 01 40 01 40 01 40 01 40 01 40 01 40 01 40 01 40 01 40 01 40 01 40 02 40 02 40 02 40 02 40 02 40 02 40 02 40 01 40 01 40 01 40 01 40 01 40 01 40 01 40 02 40 02 40 02 40 02 40 02 40 02 40 02 40 02 40 01 40 01 40 01 40 01 40 00 40 00 40 00 40 00 40 00 40 00 40 00 40 01 40 01 40 01 40 02 40 02 40 02 40 01 40 01 40 01 40 01 40 01 40 01 40 01 40 01 40 01 40 01 40 01 40 01 7B D5 
2025-10-15 20:48:34.174 | TX | 0E 03 A3 00 00 40 66 81 
2025-10-15 20:48:34.174 | RX | 0E 03 80 40 01 40 01 40 01 40 01 40 01 40 01 40 01 40 01 40 02 40 02 40 02 40 02 40 01 40 01 40 01 40 01 40 01 40 01 40 01 40 01 40 01 40 01 40 01 40 01 40 01 40 01 40 00 40 00 40 00 40 00 40 00 40 00 40 01 40 01 40 01 40 01 40 01 40 01 40 01 40 01 40 01 40 01 40 01 40 01 40 01 40 01 40 01 40 02 40 02 40 02 40 02 40 02 40 02 40 02 40 02 40 02 40 02 40 02 40 02 40 02 40 02 40 01 40 01 40 01 26 D9 
2025-10-15 20:48:34.205 | TX | 0E 03 A3 40 00 40 67 55 
2025-10-15 20:48:34.205 | RX | 0E 03 80 40 01 40 01 40 02 40 02 40 02 40 02 40 02 40 02 40 02 40 02 40 02 40 02 40 02 40 02 40 01 40 01 40 01 40 01 40 01 40 01 40 01 40 01 40 01 40 02 40 02 40 01 40 01 40 01 40 01 40 01 40 01 40 01 40 01 40 01 40 01 40 01 40 01 40 01 40 01 40 01 40 01 40 01 40 01 40 01 40 01 40 01 40 01 40 01 40 01 40 01 40 01 40 01 40 01 40 01 40 01 40 01 40 01 40 01 40 01 40 01 40 01 40 01 40 01 40 01 CE 61 
2025-10-15 20:48:34.236 | TX | 0E 03 A3 80 00 40 67 69 
2025-10-15 20:48:34.236 | RX | 0E 03 80 40 01 40 01 40 02 40 02 40 02 40 02 40 02 40 02 40 02 40 02 40 02 40 02 40 02 40 02 40 02 40 02 40 01 40 01 40 01 40 01 40 01 40 01 40 01 40 01 40 01 40 01 40 01 40 01 40 01 40 02 40 02 40 02 40 02 40 02 40 02 40 01 40 01 40 01 40 01 40 01 40 01 40 01 40 01 40 00 40 00 40 00 40 01 40 01 40 02 40 02 40 03 40 03 40 02 40 02 40 02 40 02 40 02 40 02 40 02 40 02 40 02 40 02 40 01 40 01 66 5D 
2025-10-15 20:48:34.267 | TX | 0E 03 A3 C0 00 40 66 BD 
2025-10-15 20:48:34.267 | RX | 0E 03 80 40 01 40 01 40 01 40 01 40 01 40 01 40 01 40 01 40 01 40 01 40 01 40 01 40 01 40 01 40 01 40 01 40 01 40 01 40 01 40 01 40 01 40 01 40 01 40 01 40 02 40 02 40 02 40 02 40 02 40 02 40 02 40 02 40 02 40 02 40 02 40 02 40 02 40 03 40 03 40 03 40 03 40 02 40 02 40 02 40 02 40 01 40 01 40 01 40 01 40 02 40 02 40 02 40 02 40 02 40 02 40 02 40 01 40 01 40 01 40 01 40 01 40 01 40 02 40 02 99 EB 
2025-10-15 20:48:34.282 | TX | 0E 10 00 00 00 01 02 00 09 27 A6 
2025-10-15 20:48:34.282 | RX | 0E 10 00 00 00 01 01 36 
2025-10-15 20:48:34.313 | TX | 0E 03 A0 00 00 40 66 C5 
2025-10-15 20:48:34.313 | RX | 0E 03 80 00 19 00 10 00 20 00 18 00 0C 00 1E 00 1A 00 22 00 0E 00 0C 00 20 00 1A 00 14 00 1B 00 14 00 10 00 10 00 17 00 0A C0 14 00 0D 80 17 00 18 40 24 00 18 00 21 00 14 00 0A 00 1C 00 25 00 20 00 17 00 1E 00 1F 00 16 00 09 40 1D 00 16 00 1C 00 0D 00 09 80 02 00 0D 00 21 00 1C 00 17 00 0E 00 1C 00 24 00 19 00 1C 00 19 00 0F 00 06 00 09 00 17 00 14 00 12 00 19 00 1F 40 1E 00 1F 00 1B 00 1D 12 B8 
2025-10-15 20:48:34.329 | TX | 0E 10 00 00 00 02 04 00 01 00 0A 12 7C 
2025-10-15 20:48:34.330 | RX | 0E 10 00 00 00 02 41 37 
2025-10-15 20:48:34.330 | TX | 0E 10 00 00 00 02 04 00 02 00 01 A3 BB 
2025-10-15 20:48:34.330 | RX | 0E 10 00 00 00 02 41 37 
2025-10-15 20:48:34.330 | TX | 0E 03 00 00 00 01 84 F5 
2025-10-15 20:48:34.331 | RX | 0E 03 02 00 00 EC 45 
2025-10-15 20:48:34.331 | TX | 0E 10 00 00 00 01 02 00 09 27 A6 
2025-10-15 20:48:34.331 | RX | 0E 10 00 00 00 01 01 36 
2025-10-15 20:48:34.331 | TX | 0E 03 00 00 00 01 84 F5 
2025-10-15 20:48:34.331 | RX | 0E 03 02 00 00 EC 45 
2025-10-15 20:48:34.331 | TX | 0E 10 00 00 00 01 02 00 09 27 A6 
2025-10-15 20:48:34.331 | RX | 0E 10 00 00 00 01 01 36 
2025-10-15 20:48:34.332 | TX | 0E 03 A0 00 00 40 66 C5 
2025-10-15 20:48:34.332 | RX | 0E 03 80 00 17 00 14 00 15 00 0D 00 23 00 21 00 16 00 04 00 1B 00 13 00 0D 00 0C 00 15 00 24 00 1C 00 1F 00 17 00 15 00 1F 00 1E 1F 20 00 15 00 11 00 0D 00 0A 00 11 40 21 00 12 00 0C 00 15 00 08 00 18 00 13 00 12 00 22 00 1E 00 14 00 15 00 0A 00 1A 00 18 00 19 00 10 00 1C 00 25 00 15 00 16 00 15 00 10 00 11 00 21 00 13 00 2A 00 16 00 16 00 21 00 1B 00 1F 00 19 00 12 00 0B 00 1B 00 13 00 0D FB 5A 
2025-10-15 20:48:34.332 | TX | 0E 03 A0 40 00 40 67 11 
2025-10-15 20:48:34.333 | RX | 0E 03 80 00 1B 00 11 00 13 00 13 00 1C 00 0E 00 15 00 18 00 1B 00 10 00 10 00 17 00 0D C0 10 40 16 00 28 00 19 00 1A 00 20 00 13 00 20 00 21 00 28 00 20 00 0D 00 12 00 18 00 11 00 0A 00 09 00 14 00 12 00 16 00 0D 00 13 00 12 00 17 40 11 00 1C 00 25 00 14 00 24 00 11 00 13 00 18 00 11 00 05 00 23 00 1C 00 14 00 10 00 15 00 15 00 14 00 18 00 18 00 1C 00 11 00 17 00 17 00 13 00 12 00 18 00 1C 7D BC 
2025-10-15 20:48:34.333 | TX | 0E 03 A0 80 00 40 67 2D 
2025-10-15 20:48:34.333 | RX | 0E 03 80 00 0D 00 19 00 1E 00 1D 00 1B 00 19 00 16 00 16 00 1E 00 14 00 16 00 17 00 15 40 0E 00 17 00 15 00 16 00 13 00 0C 00 1A 00 1F 00 21 00 13 00 1C 00 17 00 1A 00 0E 00 19 00 1C 00 20 00 0D 00 16 00 22 00 1A 00 10 C0 0F 00 19 00 13 00 1B 40 1B 00 19 00 17 00 27 00 1B 00 10 00 1C 00 1D 00 1C 00 10 00 22 00 14 40 10 00 13 00 1B 00 1F 00 23 00 1E 00 16 00 17 00 14 00 24 00 1B 00 17 00 1A 52 A8 
2025-10-15 20:48:34.333 | TX | 0E 03 A0 C0 00 40 66 F9 
2025-10-15 20:48:34.334 | RX | 0E 03 80 00 16 00 21 00 1C 00 11 00 19 00 1C 00 1B 00 0B 00 11 00 0A 00 1D 00 1C 00 1D 00 1F 00 12 80 22 00 1A 00 13 00 1C 00 09 00 23 00 1B 00 11 00 0C 00 15 00 12 00 18 00 1A 00 18 00 1A 00 16 00 17 40 23 C0 21 00 18 00 1E 00 19 00 1F 00 11 00 11 00 12 00 10 00 0A 00 16 00 07 00 03 00 19 00 18 00 1E 40 27 00 FF 00 1F 00 1A 00 22 00 1B 00 1C 00 15 00 12 00 22 00 1E 00 13 00 16 00 15 00 12 15 A2 
2025-10-15 20:48:34.334 | TX | 0E 03 A1 00 00 40 67 39 
2025-10-15 20:48:34.334 | RX | 0E 03 80 00 21 00 0D 00 1B 00 1E 40 0D 00 08 00 18 00 1B 00 18 00 0B 00 16 00 23 00 1A 00 17 00 1A 00 10 00 19 40 1C 00 1C 00 1F 00 19 00 1F 00 20 00 0D 00 0C 00 1E 00 1D 00 14 00 17 00 0F 00 1D 00 21 00 13 00 10 00 29 00 17 00 24 00 19 00 1F 00 25 00 0E 00 1A 00 0F 00 0F 00 17 40 08 00 0B 00 14 00 18 40 1D 00 0C 00 0B 00 27 00 13 00 16 00 20 00 1D 00 15 00 1C 00 1E 00 1C 00 19 40 12 00 1A D0 69 
2025-10-15 20:48:34.334 | TX | 0E 03 A1 40 00 40 66 ED 
2025-10-15 20:48:34.335 | RX | 0E 03 80 00 11 00 1A 00 15 00 1D 00 25 00 18 00 1C 00 26 00 1E 00 16 00 17 00 13 00 19 00 1F 00 09 00 1F 00 1B 00 15 00 16 00 19 00 20 00 1B 00 20 00 10 00 18 00 19 00 18 00 12 00 0E 00 0E 00 21 00 23 20 01 00 0E 00 0D 00 23 40 1C 00 1D 00 18 00 1C 00 1E 80 28 00 1E 00 17 00 1D 00 1F 00 1D 00 1B 00 23 00 0F 00 12 00 14 00 18 00 19 80 02 00 13 00 16 40 1D 40 1D 00 1D 00 1D 00 21 00 21 00 22 95 E8 
2025-10-15 20:48:34.335 | TX | 0E 03 A1 80 00 40 66 D1 
2025-10-15 20:48:34.335 | RX | 0E 03 80 00 12 00 24 00 14 00 11 00 1A 00 17 00 19 00 11 00 1D 00 15 80 0F C0 1C 00 23 00 25 80 13 00 1D 00 20 00 1D 00 15 00 21 00 1A 00 10 00 10 00 1B 00 23 00 11 00 17 00 0D 00 19 00 1C 00 1A 00 12 00 19 00 16 00 20 00 20 00 1A 00 1F 00 26 00 18 00 1B 00 1D 00 1D 00 1D 00 1D 00 19 00 14 00 10 00 11 00 0F 00 1F 00 20 00 25 00 1A 00 1C 00 1F 00 1C 00 17 00 12 00 18 00 20 00 17 00 09 00 13 45 A9 
2025-10-15 20:48:34.335 | TX | 0E 03 A1 C0 00 40 67 05 
2025-10-15 20:48:34.335 | RX | 0E 03 80 00 10 00 17 00 1E 00 17 00 08 00 15 00 20 00 15 00 05 00 19 00 26 00 14 C0 11 40 09 00 19 00 24 00 15 00 0A 40 0E 00 1C 00 13 00 13 C0 21 00 18 00 21 00 1A 00 1B 00 19 00 16 00 12 00 1A 00 13 00 1B 00 0D 00 0E 00 16 00 26 00 1E 00 1A 00 18 00 1B 00 1B 40 1A 00 19 00 18 00 20 00 23 00 19 00 11 00 18 00 24 00 0E 00 18 00 16 00 1A 00 17 00 0B 00 1A 00 1C 00 1C 00 24 00 1C 00 17 00 1E 6A 9B 
2025-10-15 20:48:34.336 | TX | 0E 03 A2 00 00 40 67 7D 
2025-10-15 20:48:34.336 | RX | 0E 03 80 40 03 40 02 40 02 40 01 40 02 40 01 40 02 40 01 40 01 40 01 40 01 40 01 40 02 40 02 40 02 40 01 40 02 40 01 40 01 40 01 40 01 40 01 40 02 40 02 40 02 40 03 40 02 40 02 40 01 40 01 40 02 40 01 40 02 40 01 40 01 40 01 40 02 40 01 40 01 40 01 40 01 40 02 40 01 40 00 40 02 40 02 40 03 40 03 40 02 40 02 40 03 40 02 40 02 40 03 40 03 40 02 40 02 40 02 40 02 40 01 40 02 40 01 40 03 40 03 CC 4B 
2025-10-15 20:48:34.336 | TX | 0E 03 A2 40 00 40 66 A9 
2025-10-15 20:48:34.336 | RX | 0E 03 80 40 01 40 01 40 02 40 01 40 02 40 02 40 02 40 02 40 00 40 01 40 00 40 01 40 02 40 01 40 02 40 01 40 02 40 02 40 00 40 01 40 01 40 00 40 01 40 01 40 02 40 01 40 01 40 01 40 01 40 02 40 03 40 02 40 02 40 01 40 02 40 01 40 01 40 01 40 00 40 01 40 01 40 01 40 01 40 01 40 02 40 02 40 01 40 02 40 01 40 01 40 00 40 02 40 02 40 01 40 01 40 01 40 01 40 01 40 02 40 02 40 02 40 01 40 02 40 02 32 0C 
2025-10-15 20:48:34.337 | TX | 0E 03 A2 80 00 40 66 95 
2025-10-15 20:48:34.337 | RX | 0E 03 80 40 01 40 00 40 02 40 02 40 01 40 02 40 01 40 01 40 02 40 02 40 02 40 02 40 01 40 01 40 01 40 01 40 01 40 02 40 02 40 02 40 01 40 02 40 00 40 01 40 01 40 01 40 02 40 01 40 01 40 02 40 02 40 02 40 01 40 02 40 01 40 01 40 01 40 01 40 01 40 01 40 01 40 01 40 02 40 02 40 02 40 01 40 01 40 02 40 02 40 01 40 00 5F 03 40 02 40 03 40 02 40 01 40 02 40 01 40 01 40 01 40 01 40 01 40 02 40 03 54 C5 
2025-10-15 20:48:34.337 | TX | 0E 03 A2 C0 00 40 67 41 
2025-10-15 20:48:34.337 | RX | 0E 03 80 40 02 40 02 40 02 40 01 40 02 40 02 40 01 40 01 40 01 40 02 40 01 40 01 40 01 40 02 40 01 40 02 40 01 40 01 40 02 40 03 40 02 40 03 40 03 40 03 40 02 40 02 40 02 40 02 40 02 40 03 40 02 40 03 40 03 40 02 40 02 40 02 40 03 40 03 40 02 40 01 40 01 40 02 40 02 40 01 40 01 40 03 40 02 40 02 40 01 40 01 40 03 40 02 40 03 40 01 40 02 40 01 40 01 40 01 40 01 40 01 40 02 40 01 40 02 40 01 23 13 
2025-10-15 20:48:34.337 | TX | 0E 03 A3 00 00 40 66 81 
2025-10-15 20:48:34.338 | RX | 0E 03 80 40 03 40 02 40 02 40 03 40 03 40 02 40 01 40 02 40 03 40 02 40 02 40 02 40 02 40 02 40 01 40 01 40 02 40 02 40 02 40 02 40 01 40 02 40 03 40 02 40 01 40 03 40 02 40 02 40 02 40 03 40 01 40 01 40 02 40 02 40 01 40 01 40 02 40 01 40 02 40 03 40 02 40 02 40 02 40 04 40 01 40 02 40 02 40 03 40 02 40 02 40 02 40 02 40 03 40 03 40 02 40 02 40 02 40 02 40 02 40 02 40 02 40 03 40 03 40 02 8B E3 
2025-10-15 20:48:34.338 | TX | 0E 03 A3 40 00 40 67 55 
2025-10-15 20:48:34.338 | RX | 0E 03 80 40 02 40 01 40 01 40 01 40 02 40 01 40 02 40 01 40 02 40 02 40 01 40 01 40 01 40 01 40 02 40 01 40 01 40 02 40 01 40 01 40 02 40 02 40 00 40 01 40 02 40 00 40 01 40 02 40 01 40 02 40 01 40 02 40 01 40 02 40 01 40 01 40 02 40 02 40 02 40 01 40 02 40 02 40 01 40 01 40 02 40 01 40 01 40 01 40 01 40 01 40 02 40 02 40 02 40 01 40 02 40 02 40 01 40 01 40 01 40 02 40 01 40 01 40 01 40 01 0C 69 
2025-10-15 20:48:34.338 | TX | 0E 03 A3 80 00 40 67 69 
2025-10-15 20:48:34.338 | RX | 0E 03 80 40 02 40 03 40 02 40 03 40 02 40 02 40 02 40 03 40 01 40 02 40 02 40 02 40 03 40 02 40 03 40 02 40 02 40 02 40 02 40 02 40 02 40 02 40 03 40 02 40 02 40 02 40 02 40 01 40 02 40 03 40 02 40 02 40 03 40 02 40 02 40 03 40 02 40 02 40 03 40 02 40 03 40 01 40 02 40 02 40 01 40 02 40 03 40 02 40 02 40 03 40 02 40 02 40 02 40 01 40 03 40 01 40 01 40 02 40 03 40 02 40 02 40 02 40 03 40 02 DA D0 
2025-10-15 20:48:34.339 | TX | 0E 03 A3 C0 00 40 66 BD 
2025-10-15 20:48:34.339 | RX | 0E 03 80 40 03 40 02 40 03 40 02 40 03 40 02 40 02 40 03 40 02 40 02 40 01 40 02 40 02 40 02 40 03 40 03 40 02 40 02 40 02 40 02 40 01 40 01 40 02 40 02 40 03 40 03 40 02 40 02 40 02 40 02 40 02 40 03 40 02 40 03 40 02 40 02 40 02 40 03 40 02 40 02 40 02 40 02 40 02 40 03 40 03 40 02 40 02 40 03 40 02 40 02 40 04 40 02 40 02 40 02 40 01 40 02 40 02 40 03 40 02 40 02 40 03 40 02 40 04 40 02 D7 9C 
2025-10-15 20:48:34.339 | TX | 0E 10 00 00 00 01 02 00 09 27 A6 
2025-10-15 20:48:34.339 | RX | 0E 10 00 00 00 01 01 36 
2025-10-15 20:48:34.339 | TX | 0E 03 A0 00 00 40 66 C5 
2025-10-15 20:48:34.339 | RX | 0E 03 80 00 1C 00 20 C0 24 00 07 00 1A 00 18 00 18 00 17 00 1B 00 1B 00 1A 00 1A 00 16 00 0F E0 14 00 14 00 1B 00 21 00 0E 40 17 00 19 00 1A 00 24 00 1E 00 0D 00 1C 00 22 00 1E 00 11 00 14 00 1D 00 1A 00 17 00 1E 00 20 00 14 00 10 00 12 00 18 00 1A 80 0A C0 14 00 24 00 20 C0 1B 00 1C 00 0C 00 23 00 23 00 20 00 01 00 1B 00 19 00 0E 00 0F 00 1B 00 12 00 18 00 12 00 13 00 20 00 21 C0 07 00 10 4A B7 
2025-10-15 20:48:34.340 | TX | 0E 03 A0 40 00 40 67 11 
2025-10-15 20:48:34.340 | RX | 0E 03 80 00 20 00 19 00 17 00 12 00 12 00 18 00 11 40 1A 00 13 00 0F 00 19 00 12 00 1A 00 11 00 21 00 14 00 1E 00 1B 00 20 00 18 00 20 00 19 00 18 00 0B 00 12 00 18 00 1D 00 1C 00 15 00 16 00 13 00 0A 40 11 40 13 00 11 00 1D 00 18 00 16 00 1D 00 20 00 19 00 18 00 28 00 12 00 0B 00 07 00 06 00 14 40 10 00 12 00 1A 00 1C 00 1A 00 1B 00 1F 00 1F 00 16 00 2B 00 24 00 19 00 17 00 25 00 1C 00 23 4E A2 
2025-10-15 20:48:34.341 | TX | 0E 03 A0 80 00 40 67 2D 
2025-10-15 20:48:34.341 | RX | 0E 03 80 00 13 00 14 00 20 00 14 00 0B 00 20 00 19 00 19 C0 0F 00 0E 00 1B 00 1E 40 0E 40 1C 00 1A 00 25 00 1B 00 1E 00 0B 00 23 00 1E 00 21 00 18 00 20 00 18 00 10 00 10 00 0E 40 14 00 1C 00 18 00 13 00 1C 00 28 00 0F 80 16 40 11 00 20 00 1F 00 1F 00 0D 00 0A 00 28 00 1E 00 21 00 11 00 12 00 12 00 12 00 18 00 0A 00 26 00 10 00 1A 00 1C 00 18 00 1B 00 20 40 19 00 13 00 1D 00 1A 00 12 00 10 DC 7F 
2025-10-15 20:48:34.341 | TX | 0E 03 A0 C0 00 40 66 F9 
2025-10-15 20:48:34.341 | RX | 0E 03 80 00 0B 00 17 00 13 00 26 00 21 80 28 00 1D 00 1A 00 20 00 24 00 0D 00 10 00 09 00 1D 00 1B 00 0F 00 18 00 12 00 17 00 0B 00 1D 00 11 40 12 00 17 00 1C 00 23 00 1D 80 1F 00 16 00 19 00 1D 00 22 C0 1C 00 0C 00 1A 00 1D 00 21 00 0A 00 10 00 1C 00 19 00 1B 00 1E 00 0F 00 10 00 19 00 20 00 27 00 18 00 25 00 1E 00 19 00 16 
2025-10-15 20:48:34.342 | RX | 00 19 C0 2A 00 12 00 0F 00 14 00 15 00 0B 00 0D 00 11 00 24 00 15 D3 FF 
2025-10-15 20:48:34.342 | TX | 0E 03 A1 00 00 40 67 39 
2025-10-15 20:48:34.342 | RX | 0E 03 80 00 1F 00 20 00 25 00 0A 00 15 00 1D 00 1D 00 10 00 1D 00 11 00 19 00 18 00 1E 00 22 40 06 00 1A 00 1E 00 17 00 19 00 18 00 17 00 1C 00 18 00 1A 00 0F 00 11 00 17 00 18 00 14 00 1A 00 06 00 22 00 14 00 22 00 1D 00 15 00 1F 00 1C 00 16 00 1F 00 1D 00 14 00 22 00 18 00 14 00 12 00 1E 00 1C 00 0C 00 17 00 19 00 12 00 0D 00 12 00 16 00 1E 00 22 00 12 00 1C 00 17 00 1C 00 1D 00 16 00 22 3A 03 
2025-10-15 20:48:34.342 | TX | 0E 03 A1 40 00 40 66 ED 
2025-10-15 20:48:34.342 | RX | 0E 03 80 00 15 00 19 00 14 00 1B 00 1A 00 1C 00 1F 00 0C 40 17 00 18 00 15 00 16 00 1D 00 1D 00 10 00 19 00 23 00 1A 00 12 00 1B 00 1C 00 14 00 1E 00 04 00 16 00 19 00 1D 00 1A 00 16 00 1B 00 20 00 16 00 11 00 16 00 16 00 10 00 1A 00 20 00 11 00 14 00 15 00 18 00 0B 00 1B 00 13 00 19 00 11 00 1F 00 21 00 22 00 22 00 12 00 29 00 26 00 12 40 13 00 1B 40 21 00 08 00 18 00 1C 00 13 00 0F 00 10 9B 96 
2025-10-15 20:48:34.343 | TX | 0E 03 A1 80 00 40 66 D1 
2025-10-15 20:48:34.343 | RX | 0E 03 80 00 1C 00 20 00 21 00 1D 00 16 00 11 00 0E 00 07 00 1F 00 1D 00 1C 00 18 C0 0E 00 1B 00 28 00 1B 00 17 00 1C 00 17 00 14 00 18 00 17 00 11 00 15 00 21 00 27 00 11 00 02 00 1C 00 15 00 15 00 13 00 1C 00 22 00 15 00 16 00 1F 00 1A 00 18 00 18 00 21 00 14 00 15 00 15 00 12 00 1C 00 15 00 11 00 20 00 1E 00 14 00 1E 00 1C 00 1A 00 29 00 1A 00 22 40 13 00 04 00 0B 00 18 00 1A 00 04 20 0A 8E 1B 
2025-10-15 20:48:34.343 | TX | 0E 03 A1 C0 00 40 67 05 
2025-10-15 20:48:34.343 | RX | 0E 03 80 00 15 00 13 00 11 00 11 00 11 00 11 00 12 20 13 60 14 60 15 E0 17 C0 19 C0 1B C0 1D C0 1E C0 20 C0 22 C0 24 C0 26 80 28 80 29 00 29 00 29 00 27 00 25 00 23 00 20 00 1D 00 1B 00 19 00 17 00 17 00 17 00 18 00 19 00 1A 00 1A 00 19 00 17 00 15 00 13 00 11 00 10 00 0F 00 0F 00 10 00 11 00 12 00 13 00 14 00 14 00 15 00 15 00 15 00 14 00 13 00 12 00 11 00 10 00 0F 00 0E 00 0C 00 0B 00 0A 6C BE 
2025-10-15 20:48:34.343 | TX | 0E 03 A2 00 00 40 67 7D 
2025-10-15 20:48:34.344 | RX | 0E 03 80 40 02 40 02 40 02 40 02 40 02 40 02 40 02 40 02 40 02 40 02 40 02 40 02 40 02 40 02 40 02 40 02 40 01 40 01 40 01 40 02 40 02 40 02 40 02 40 02 40 02 40 02 40 02 40 02 40 02 40 02 40 02 40 02 40 02 40 02 40 02 40 02 40 02 40 02 40 02 40 02 40 02 40 02 40 02 40 02 40 02 40 01 40 01 40 01 40 02 40 02 40 01 40 01 40 01 40 00 40 01 40 01 40 01 40 01 40 01 40 01 40 01 40 01 40 01 40 01 A3 58 
2025-10-15 20:48:34.344 | TX | 0E 03 A2 40 00 40 66 A9 
2025-10-15 20:48:34.344 | RX | 0E 03 80 40 01 40 01 40 01 40 01 40 01 40 01 40 01 40 01 40 01 40 01 40 01 40 01 40 01 40 02 40 02 40 02 40 01 40 01 40 01 40 01 40 01 40 01 40 01 40 01 40 01 40 01 40 02 40 02 40 02 40 01 40 01 40 01 40 01 40 01 40 01 40 01 40 02 40 01 40 01 40 01 40 01 40 01 40 01 40 01 40 01 40 01 40 01 40 01 40 01 40 01 40 00 40 00 40 00 40 00 40 00 40 00 40 00 40 00 40 00 40 01 40 01 40 01 40 01 40 01 67 A6 
2025-10-15 20:48:34.344 | TX | 0E 03 A2 80 00 40 66 95 
2025-10-15 20:48:34.344 | RX | 0E 03 80 40 01 40 01 40 01 40 01 40 01 40 01 40 01 40 01 40 01 40 01 40 01 40 01 40 01 40 01 40 01 40 02 40 02 40 02 40 02 40 01 40 01 40 01 40 01 40 01 40 01 40 01 40 01 40 01 40 02 40 02 40 02 40 02 40 02 40 02 40 02 40 02 40 02 40 02 40 01 40 01 40 01 40 01 40 01 40 01 40 01 40 01 40 01 40 01 40 01 40 01 40 01 40 01 40 01 40 01 
2025-10-15 20:48:34.345 | RX | 40 01 40 01 40 01 40 01 40 01 40 01 40 01 40 01 40 01 40 01 35 5C 
2025-10-15 20:48:34.345 | TX | 0E 03 A2 C0 00 40 67 41 
2025-10-15 20:48:34.345 | RX | 0E 03 80 40 01 40 01 40 01 40 01 40 01 40 01 40 01 40 00 40 00 40 00 40 01 40 01 40 01 40 01 40 02 40 02 40 02 40 02 40 02 40 02 40 01 40 01 40 01 40 01 40 01 40 01 40 01 40 01 40 01 40 02 40 02 40 02 40 02 40 02 40 02 40 01 40 01 40 01 40 01 40 01 40 00 40 00 40 00 40 00 40 00 40 01 40 01 40 01 40 02 40 02 40 02 40 02 40 02 40 02 40 02 40 02 40 02 40 01 40 01 40 01 40 01 40 01 40 01 40 00 CF 52 
2025-10-15 20:48:34.345 | TX | 0E 03 A3 00 00 40 66 81 
2025-10-15 20:48:34.345 | RX | 0E 03 80 40 00 40 00 40 01 40 01 40 01 40 02 40 02 40 02 40 02 40 02 40 01 40 01 40 01 40 01 40 01 40 02 40 01 40 01 40 01 40 01 40 00 40 00 40 00 40 00 40 00 40 00 40 01 40 01 40 01 40 01 40 01 40 01 40 01 40 01 40 01 40 01 40 01 40 01 40 01 40 01 40 01 40 01 40 01 40 01 40 01 40 01 40 01 40 01 40 01 40 01 40 01 40 01 40 01 40 01 40 02 40 02 40 02 40 02 40 02 40 02 40 02 40 02 40 02 40 02 06 72 
2025-10-15 20:48:34.345 | TX | 0E 03 A3 40 00 40 67 55 
2025-10-15 20:48:34.345 | RX | 0E 03 80 40 02 40 02 40 02 40 02 40 02 40 02 40 01 40 01 40 01 40 01 40 01 40 01 40 01 40 01 40 01 40 01 40 01 40 01 40 01 40 01 40 01 40 01 40 01 40 01 40 01 40 01 40 01 40 01 40 01 40 01 40 01 40 01 40 01 40 01 40 01 40 01 40 01 40 01 40 01 40 01 40 01 40 02 40 02 40 02 40 02 40 02 40 02 40 02 40 02 40 02 40 02 40 02 40 02 40 02 40 02 40 02 40 02 40 02 40 02 40 02 40 02 40 01 40 01 40 01 6D 92 
2025-10-15 20:48:34.345 | TX | 0E 03 A3 80 00 40 67 69 
2025-10-15 20:48:34.345 | RX | 0E 03 80 40 01 40 01 40 01 40 01 40 01 40 01 40 01 40 01 40 01 40 01 40 01 40 01 40 01 40 01 40 01 40 01 40 01 40 01 40 01 40 01 40 01 40 02 40 02 40 02 40 02 40 01 40 01 40 01 40 01 40 01 40 01 40 01 40 01 40 01 40 00 40 00 40 00 40 00 40 01 40 01 40 01 40 01 40 01 40 01 40 01 40 01 40 01 40 01 40 01 40 01 40 01 40 01 40 01 40 01 40 02 40 02 40 02 40 02 40 02 40 02 40 02 40 02 40 02 40 03 B7 A4 
2025-10-15 20:48:34.346 | TX | 0E 03 A3 C0 00 40 66 BD 
2025-10-15 20:48:34.346 | RX | 0E 03 80 40 03 40 03 40 03 40 03 40 02 40 02 40 02 40 02 40 02 40 02 40 01 40 01 40 01 40 01 40 01 40 01 40 01 40 02 40 02 40 02 40 02 40 02 40 02 40 02 40 02 40 02 40 02 40 02 40 02 40 02 40 02 40 02 40 02 40 02 40 01 40 01 40 01 40 01 40 01 40 01 40 01 40 01 40 01 40 01 40 01 40 01 40 01 40 01 40 01 40 02 40 02 40 02 40 02 40 02 40 01 40 01 40 01 40 01 40 01 40 01 40 01 40 01 40 01 40 00 F0 1A 
2025-10-15 20:48:34.346 | TX | 0E 10 00 00 00 01 02 00 09 27 A6 
2025-10-15 20:48:34.346 | RX | 0E 10 00 00 00 01 01 36 
2025-10-15 20:48:34.346 | TX | 0E 03 A0 00 00 40 66 C5 
2025-10-15 20:48:34.347 | RX | 0E 03 80 00 1A 00 24 00 25 40 1B 00 1E 00 25 00 22 00 1D 00 13 00 12 00 1C 00 20 00 16 00 16 00 09 00 10 00 16 00 1A 00 0C 00 14 00 1A 00 18 00 1D 00 1A 00 19 00 12 00 16 00 19 00 16 00 1F 00 19 00 21 00 1E 00 14 00 1C 00 1E 00 24 00 11 00 0B 00 1B 00 17 00 16 00 0F 00 15 00 1C 00 18 00 13 00 22 00 1F 00 18 40 17 00 1B 00 15 00 19 00 12 00 0B 00 0E 00 24 00 24 40 28 00 15 00 1B 00 1A 00 1D 59 4C 
2025-10-15 20:48:34.347 | TX | 0E 03 A0 40 00 40 67 11 
2025-10-15 20:48:34.347 | RX | 0E 03 80 00 13 00 21 00 18 00 11 00 0F 00 20 00 16 00 18 00 13 00 13 00 1D 40 14 40 13 00 17 00 1C 00 17 00 1E 00 10 00 09 00 16 00 1F 00 1E 00 0E 00 24 00 16 00 17 00 1A 00 15 00 20 00 19 00 0D 00 16 00 20 00 15 C0 07 00 13 00 2A 00 21 40 1D 00 0B 00 0F 00 19 00 1A 00 21 00 17 00 19 00 1F 00 14 00 10 00 12 40 17 00 1A 00 13 00 1A 00 16 00 21 40 0D 00 13 00 29 00 1F 00 1E 00 1F 00 04 00 1F 17 C2 
2025-10-15 20:48:34.347 | TX | 0E 03 A0 80 00 40 67 2D 
2025-10-15 20:48:34.348 | RX | 0E 03 80 00 1F 00 12 00 15 00 18 00 1B 00 18 00 16 00 17 00 21 40 1E 00 12 00 13 00 1A 00 1E 00 0F 00 0E 00 0F 00 16 00 11 00 15 00 16 00 22 00 1A 00 16 00 0B 00 12 00 19 00 14 40 16 00 1B 00 1A C0 26 40 19 00 0B 00 1A 00 22 00 19 00 15 00 1A 00 21 00 09 00 01 00 12 00 0F 40 0C 80 17 00 15 00 1C 00 1A 00 10 40 0D 00 21 00 1D 00 1E C0 21 00 18 00 0B 00 1E 00 22 00 30 00 05 00 21 00 1B 00 0F 66 5B 
2025-10-15 20:48:34.348 | TX | 0E 03 A0 C0 00 40 66 F9 
2025-10-15 20:48:34.348 | RX | 0E 03 80 00 22 00 1E 40 28 00 17 00 0F 00 20 00 29 00 1B 00 0D 00 0C 00 15 00 19 00 10 00 19 00 15 00 0D 80 05 00 13 00 1A 00 20 00 1E 00 15 00 23 00 1F 00 19 00 0F 40 1E 40 09 00 20 00 1B 00 10 00 0C 00 10 00 10 00 24 00 18 00 13 00 16 00 1E 00 18 00 1E 00 10 00 1A 00 19 00 24 00 1B 00 20 00 15 00 13 00 21 00 1E 00 10 00 1A 00 1D 00 15 00 1A 00 1A 00 22 00 1D 00 25 00 0D 00 15 00 1B 00 1B AA C5 
2025-10-15 20:48:34.348 | TX | 0E 03 A1 00 00 40 67 39 
