2025-10-15 20:33:13.579 | TX | 0E 03 00 00 00 04 44 F6 
2025-10-15 20:33:13.579 | RX | 0E 03 08 00 00 00 01 00 00 15 21 56 8B 
2025-10-15 20:33:13.595 | TX | 0E 03 00 00 00 04 44 F6 
2025-10-15 20:33:13.595 | RX | 0E 03 08 00 00 00 01 00 00 15 21 56 8B 
2025-10-15 20:33:21.031 | TX | 0E 03 00 00 00 04 44 F6 
2025-10-15 20:33:21.031 | RX | 0E 03 08 00 00 00 01 00 00 15 29 57 4D 
2025-10-15 20:33:21.047 | TX | 0E 03 00 00 00 04 44 F6 
2025-10-15 20:33:21.048 | RX | 0E 03 08 00 00 00 01 00 00 15 29 57 4D 
2025-10-15 20:33:21.063 | TX | 0E 10 00 00 00 01 02 00 51 26 5C 
2025-10-15 20:33:21.063 | RX | 0E 10 00 00 00 01 01 36 
2025-10-15 20:33:21.079 | TX | 0E 10 00 14 00 12 24 00 00 00 00 00 00 00 00 00 00 00 00 00 00 00 00 00 00 00 00 00 00 00 00 00 00 00 00 00 00 00 00 00 00 00 00 94 08 
2025-10-15 20:33:21.079 | RX | 0E 10 00 14 00 12 00 FF 
2025-10-15 20:33:21.095 | TX | 0E 10 00 00 00 01 02 01 51 27 CC 
2025-10-15 20:33:21.095 | RX | 0E 10 00 00 00 01 01 36 
2025-10-15 20:33:21.111 | TX | 0E 10 00 00 00 01 02 00 0B A6 67 
2025-10-15 20:33:21.111 | RX | 0E 10 00 00 00 01 01 36 
2025-10-15 20:33:21.142 | TX | 0E 03 A0 00 00 40 66 C5 
2025-10-15 20:33:21.142 | RX | 0E 03 80 00 13 00 1A 00 17 40 12 00 15 00 1E 00 21 C0 1E 00 10 00 18 00 22 00 1E 00 19 00 0F 00 08 00 0D 00 07 00 26 00 17 00 1B 00 17 00 03 00 19 00 1B 00 13 00 1F 00 22 00 23 00 1D 00 16 00 1C 00 0C 00 19 00 19 00 1D 00 17 00 16 00 13 00 22 00 13 00 12 00 1A 00 18 00 14 00 0C 00 17 00 12 00 19 40 10 40 08 00 15 00 14 00 1E 60 1D 00 0E 00 21 00 27 00 1E 00 14 00 0A 00 12 00 15 00 15 00 0D E2 1B 
2025-10-15 20:33:21.158 | TX | 0E 03 00 14 00 0C 05 34 
2025-10-15 20:33:21.158 | RX | 0E 03 18 00 00 00 00 00 00 00 00 00 00 00 00 00 00 00 00 00 00 00 00 00 00 00 00 6C EF 
2025-10-15 20:33:21.189 | TX | 0E 03 A0 40 00 40 67 11 
2025-10-15 20:33:21.189 | RX | 0E 03 80 00 0A 00 20 00 1B 00 17 00 18 00 17 00 13 00 19 00 0F 00 0F 00 14 00 1B 00 0D E0 13 00 12 00 1E 00 21 00 21 00 0D 00 1D 00 1F 00 18 00 1F 00 17 00 1B 00 12 00 21 00 10 00 17 00 0C 00 16 00 0F 40 1E 00 1A 00 1B 00 17 00 19 00 19 00 17 00 11 00 1E 00 26 00 23 00 11 00 17 00 14 00 09 00 1B 00 0C 00 1A 00 15 00 17 00 14 00 14 00 17 00 1B 00 21 00 14 40 1A 00 16 00 16 00 19 00 14 80 0E 47 B4 
2025-10-15 20:33:21.205 | TX | 0E 03 00 20 00 06 C4 FD 
2025-10-15 20:33:21.205 | RX | 0E 03 0C 00 00 00 00 00 00 00 00 00 00 00 00 DC 74 
2025-10-15 20:33:21.236 | TX | 0E 03 A0 80 00 40 67 2D 
2025-10-15 20:33:21.237 | RX | 0E 03 80 C0 02 00 15 00 11 00 1A 40 20 00 12 00 16 00 25 00 1C 00 1F 00 1F 00 0E 00 1F 00 24 00 1D 00 11 00 0D 00 1E 00 17 00 07 00 10 00 19 00 08 00 1E 00 1A 00 22 00 18 00 17 00 15 00 11 00 1B 00 0B 00 13 00 1A 00 12 00 1B 00 16 00 17 00 24 00 0F 00 18 00 12 00 23 00 17 00 15 00 1D 00 1C 00 15 00 15 00 0E 00 16 00 05 80 0B 00 19 00 19 00 1E 40 1E 00 14 00 21 00 13 00 11 00 22 00 13 00 14 DF 22 
2025-10-15 20:33:21.252 | TX | 0E 03 00 26 00 05 64 FD 
2025-10-15 20:33:21.252 | RX | 0E 03 0A 00 00 00 00 00 00 00 00 00 00 30 B9 
2025-10-15 20:33:21.289 | TX | 0E 03 A0 C0 00 40 66 F9 
2025-10-15 20:33:21.290 | RX | 0E 03 80 00 1D 00 1E 00 1E 00 13 00 0F 00 19 00 1C 00 22 00 0C 00 1A 00 16 00 12 00 15 00 0D C0 08 00 20 00 22 00 24 00 
2025-10-15 20:33:21.290 | RX | 15 00 1C 00 21 00 18 00 14 00 1C 00 14 00 0F 00 13 00 07 00 18 00 0A 00 12 00 17 00 16 00 1A 00 20 00 20 00 1F 00 20 00 10 00 19 00 12 00 18 40 19 00 16 00 21 00 19 00 1F 00 24 00 19 00 24 00 25 00 1F 00 17 00 0D 00 11 00 17 00 12 00 0D 00 16 00 0D 00 0E 00 0F 00 16 00 1D A6 35 
2025-10-15 20:33:21.320 | TX | 0E 03 A1 00 00 40 67 39 
2025-10-15 20:33:21.320 | RX | 0E 03 80 00 20 00 22 00 24 00 24 00 25 00 24 00 23 00 23 00 22 00 22 00 21 00 21 00 20 00 20 00 1F 00 1E 00 1E 00 1D 00 1C 00 1B 00 1A 00 18 00 16 00 13 00 10 00 0E 00 0E 00 0E 40 10 40 12 C0 14 C0 17 C0 18 C0 19 C0 1A C0 1A C0 1B C0 1B C0 1B C0 1B C0 1A C0 18 80 16 80 14 80 13 80 12 80 
2025-10-15 20:33:21.320 | RX | 12 80 12 00 13 00 14 00 14 00 15 00 16 00 17 00 18 00 18 00 19 00 19 00 1A 00 1B 00 1C 00 1D 00 1D 00 1E 9C 20 
2025-10-15 20:33:21.352 | TX | 0E 03 A1 40 00 40 66 ED 
2025-10-15 20:33:21.352 | RX | 0E 03 80 00 1E 00 1D 00 1C 00 1B 00 19 00 18 00 17 00 15 00 14 00 13 00 12 00 10 00 0F 00 0D 00 0D 00 0C 00 0C 00 0D 00 0E 00 10 00 12 00 14 00 16 00 18 00 1A 00 1C 00 1E 00 1F 00 1F 00 1F 00 20 00 20 00 20 00 20 00 21 00 21 00 21 00 21 00 21 00 21 00 20 00 1F 00 1D 00 1B 00 18 00 14 00 10 00 0C 00 08 00 05 00 04 00 04 00 06 00 09 80 0D 80 10 80 13 80 16 80 18 80 19 80 1A 80 1A 80 19 80 18 02 E9 
2025-10-15 20:33:21.383 | TX | 0E 03 A1 80 00 40 66 D1 
2025-10-15 20:33:21.383 | RX | 0E 03 80 C0 17 C0 16 C0 14 C0 12 C0 0F C0 0D C0 0A C0 08 00 06 00 06 00 06 00 07 00 09 00 0B 00 0D 00 0F 00 11 00 13 00 16 00 18 00 1A 00 1B 00 1C 00 1C 00 1C 00 1C 00 1B 00 1B 00 1B 00 1A 00 1A 00 18 00 17 00 15 00 14 00 12 00 12 00 12 00 14 00 17 00 1B 00 1F 00 23 00 25 00 27 00 28 00 27 00 25 00 23 00 21 00 1E 00 1D 00 1D 00 1E 00 1E 00 1F 00 1F 00 1F 00 1F 00 1E 00 1D 00 1C 00 1B 00 1A 58 81 
2025-10-15 20:33:21.414 | TX | 0E 03 A1 C0 00 40 67 05 
2025-10-15 20:33:21.415 | RX | 0E 03 80 00 19 00 18 00 15 00 11 00 0D 00 08 00 04 00 01 1F FF 1F FF 1F FF 40 00 C0 02 C0 04 C0 06 C0 07 C0 08 C0 0A C0 0B C0 0E C0 10 C0 13 C0 15 80 16 80 17 80 17 80 17 00 16 00 15 00 14 00 14 00 14 00 13 00 13 00 13 00 14 00 15 00 17 00 19 00 1B 00 1D 00 1E 00 1F 00 1F 00 1F 00 1E 00 1D 00 1D 00 1C 00 1C 00 1B 00 1A 00 18 00 17 00 16 00 16 00 17 00 18 00 19 00 1B 00 1C 00 1D 00 1F 00 1F AC 51 
2025-10-15 20:33:21.444 | TX | 0E 03 A2 00 00 40 67 7D 
2025-10-15 20:33:21.445 | RX | 0E 03 80 40 02 40 01 40 01 40 01 40 01 40 01 40 02 40 02 40 02 40 03 40 03 40 03 40 02 40 02 40 02 40 02 40 02 40 03 40 03 40 03 40 03 40 03 40 02 40 02 40 02 40 01 40 01 40 01 40 01 40 02 40 02 40 02 40 02 40 02 40 02 40 02 40 02 40 02 40 02 40 02 40 02 40 03 40 03 40 03 40 03 40 03 40 02 40 02 40 02 40 03 40 03 40 03 40 03 40 03 40 02 40 02 40 02 40 02 40 02 40 02 40 02 40 02 40 02 40 02 EC BC 
2025-10-15 20:33:21.476 | TX | 0E 03 A2 40 00 40 66 A9 
2025-10-15 20:33:21.476 | RX | 0E 03 80 40 02 40 02 40 02 40 02 40 02 40 02 40 02 40 01 40 01 40 01 40 01 40 01 40 01 40 02 40 02 40 02 40 02 40 02 40 02 40 02 40 03 40 03 40 03 40 03 40 03 40 03 40 03 40 03 40 03 40 03 40 03 40 03 40 03 40 03 40 03 40 03 40 03 40 03 40 03 40 03 40 03 40 03 40 02 40 02 40 02 40 02 40 02 40 01 40 01 40 01 40 01 40 01 40 01 40 01 40 01 40 02 40 02 40 02 40 01 40 01 40 01 40 01 40 01 40 01 46 76 
2025-10-15 20:33:21.507 | TX | 0E 03 A2 80 00 40 66 95 
2025-10-15 20:33:21.507 | RX | 0E 03 80 40 01 40 02 40 02 40 02 40 02 40 02 40 02 40 02 40 02 40 02 40 02 40 03 40 03 40 02 40 02 40 02 40 02 40 02 40 02 40 02 40 02 40 02 40 02 40 02 40 02 40 02 40 02 40 02 40 02 40 02 40 03 40 03 40 03 40 03 40 03 40 03 40 03 40 03 40 03 40 03 40 03 40 03 40 03 40 03 40 03 40 03 40 02 40 02 40 02 40 02 40 02 40 02 40 02 40 02 40 02 40 02 40 02 40 02 40 02 40 02 40 02 40 02 40 02 40 02 A2 98 
2025-10-15 20:33:21.538 | TX | 0E 03 A2 C0 00 40 67 41 
2025-10-15 20:33:21.538 | RX | 0E 03 80 40 02 40 02 40 02 40 02 40 02 40 02 40 02 40 02 40 02 40 02 40 02 40 02 40 01 40 01 40 01 40 01 40 02 40 01 40 01 40 01 40 01 40 01 40 02 40 02 40 02 40 02 40 03 40 03 40 03 40 02 40 02 40 01 40 01 40 01 40 01 40 01 40 01 40 01 40 02 40 02 40 02 40 02 40 02 40 02 40 02 40 02 40 02 40 02 40 03 40 03 40 03 40 03 40 03 40 02 40 02 40 02 40 02 40 02 40 02 40 02 40 02 40 02 40 02 40 02 63 3A 
2025-10-15 20:33:21.569 | TX | 0E 03 A3 00 00 40 66 81 
2025-10-15 20:33:21.569 | RX | 0E 03 80 40 02 40 02 40 02 40 02 40 02 40 02 40 02 40 02 40 02 40 02 40 02 40 02 40 02 40 02 40 02 40 02 40 02 40 02 40 02 40 02 40 02 40 02 40 02 40 01 40 01 40 01 40 01 40 01 40 01 40 01 40 01 40 01 40 01 40 01 40 02 40 02 40 02 40 02 40 03 40 03 40 03 40 03 40 02 40 02 40 02 40 02 40 02 40 02 40 02 40 02 40 03 40 03 40 03 40 03 40 03 40 03 40 03 40 03 40 03 40 03 40 03 40 03 40 03 40 02 62 E1 
2025-10-15 20:33:21.600 | TX | 0E 03 A3 40 00 40 67 55 
2025-10-15 20:33:21.600 | RX | 0E 03 80 40 02 40 02 40 02 40 03 40 03 40 03 40 03 40 03 40 03 40 03 40 03 40 02 40 02 40 02 40 02 40 02 40 02 40 02 40 02 40 02 40 02 40 02 40 02 40 02 40 02 40 02 40 02 40 02 40 01 40 02 40 02 40 02 40 02 40 02 40 02 40 02 40 02 40 02 40 02 40 03 40 03 40 03 40 03 40 03 40 03 40 03 40 03 40 03 40 03 40 03 40 03 40 03 40 03 40 03 40 03 40 03 40 03 40 03 40 03 40 02 40 02 40 02 40 02 40 01 29 C7 
2025-10-15 20:33:21.631 | TX | 0E 03 A3 80 00 40 67 69 
2025-10-15 20:33:21.631 | RX | 0E 03 80 40 01 40 01 40 02 40 02 40 02 40 02 40 02 40 03 40 03 40 03 40 03 40 03 40 03 40 03 40 03 40 03 40 03 40 03 40 03 40 03 40 03 40 03 40 03 40 03 40 03 40 03 40 03 40 03 40 03 40 03 40 03 40 04 40 04 40 04 40 03 40 03 40 03 40 03 40 03 40 03 40 03 40 03 40 03 40 03 40 03 40 03 40 02 40 02 40 02 40 02 40 02 40 02 40 02 40 02 40 02 40 03 40 03 40 03 40 03 40 03 40 03 40 03 40 03 40 03 EA 11 
2025-10-15 20:33:21.662 | TX | 0E 03 A3 C0 00 40 66 BD 
2025-10-15 20:33:21.662 | RX | 0E 03 80 40 03 40 03 40 03 40 03 40 03 40 03 40 03 40 03 40 02 40 02 40 02 40 02 40 02 40 02 40 02 40 02 40 02 40 02 40 02 40 02 40 03 40 02 40 02 40 02 40 02 40 01 40 01 40 01 40 01 40 01 40 01 40 01 40 02 40 02 40 02 40 02 40 02 40 02 40 02 40 02 40 02 40 02 40 02 40 02 40 02 40 02 40 02 40 02 40 02 40 02 40 02 40 02 40 02 40 02 40 02 40 02 40 03 40 03 40 03 40 03 40 03 40 03 40 02 40 02 A8 4E 
2025-10-15 20:33:21.710 | TX | 0E 10 00 00 00 01 02 00 51 26 5C 
2025-10-15 20:33:21.710 | RX | 0E 10 00 00 00 01 01 36 
2025-10-15 20:33:21.726 | TX | 0E 10 00 00 00 01 02 01 51 27 CC 
2025-10-15 20:33:21.726 | RX | 0E 10 00 00 00 01 01 36 
2025-10-15 20:33:21.757 | TX | 0E 03 A0 00 00 40 66 C5 
2025-10-15 20:33:21.757 | RX | 0E 03 80 00 18 00 18 00 18 00 18 00 18 00 18 00 18 00 19 00 1A 00 1A 00 1A 00 1A 00 1A 00 19 00 17 00 16 00 15 00 14 00 14 00 13 00 13 00 13 00 13 00 13 00 13 00 13 00 14 00 15 00 16 00 18 00 1A 00 24 00 24 00 24 00 24 00 24 00 23 00 22 00 22 00 21 00 21 00 21 00 21 00 20 00 1E 00 1D 00 1C 00 1C 00 1C 00 1C 00 1E 00 1F 00 20 00 21 00 22 00 21 00 20 00 1F 00 1D 00 1B 00 1A 00 18 00 16 00 13 39 05 
2025-10-15 20:33:21.788 | TX | 0E 03 A0 40 00 40 67 11 
2025-10-15 20:33:21.789 | RX | 0E 03 80 00 11 00 0E 00 0B 00 08 00 05 00 03 00 03 00 03 00 04 00 05 00 08 00 0B 00 0F 00 13 00 17 00 1B 00 1E 00 21 40 23 40 25 40 27 40 28 40 29 40 2A 40 2A 40 2A 40 29 40 29 40 27 40 25 40 23 40 21 40 20 40 1E 40 1E 40 1E 40 1F 40 21 00 22 00 24 00 26 00 27 00 28 00 28 00 27 00 26 00 25 00 25 00 24 00 24 00 23 00 22 00 20 00 1E 00 1B 00 19 00 17 00 15 00 14 00 14 00 14 00 15 00 16 00 17 
2025-10-15 20:33:21.789 | RX | B5 06 
2025-10-15 20:33:21.820 | TX | 0E 03 A0 80 00 40 67 2D 
2025-10-15 20:33:21.821 | RX | 0E 03 80 00 19 00 1A 00 1B 00 1C 00 1C 00 1C 00 1C 00 1C 00 1B 00 1B 00 19 00 17 00 15 00 13 00 11 00 0F 00 0E 00 0E 00 0D 00 0D 00 0C 00 0B 00 0A 00 09 00 08 00 09 00 0A 00 0C 40 0E 40 10 40 13 40 14 40 16 40 17 40 18 40 19 40 1A 40 1B 40 1C 40 1D 40 1D 40 1E 40 1E 40 1F 40 1F 40 20 40 22 40 24 40 25 40 27 00 28 00 28 00 28 00 27 00 27 00 26 00 26 00 27 00 28 00 29 00 2A 00 2A 00 29 00 27 99 10 
2025-10-15 20:33:21.851 | TX | 0E 03 A0 C0 00 40 66 F9 
2025-10-15 20:33:21.852 | RX | 0E 03 80 00 24 00 22 00 1F 00 1C 00 1A 00 18 00 17 00 16 00 15 00 14 00 13 00 11 00 10 00 0F 00 0E 00 0E 00 0F 00 11 00 13 00 16 00 18 00 19 00 1A 00 1C 00 1C 00 1D 00 1D 00 1C 00 1B 00 1A 00 1A 00 19 00 19 00 1A 00 1B 00 1C 00 1C 00 1C 00 1A 00 18 00 16 00 13 00 11 00 0E 00 0D 00 0C 00 0C 00 0D 00 0E 00 10 00 12 00 14 00 16 00 17 00 17 00 17 40 17 40 16 40 15 40 15 40 14 40 14 40 15 00 16 82 46 
2025-10-15 20:33:21.883 | TX | 0E 03 A1 00 00 40 67 39 
2025-10-15 20:33:21.883 | RX | 0E 03 80 00 18 00 1A 00 1D 00 1E 00 1F 00 20 00 21 00 22 00 23 00 24 00 24 00 25 00 26 00 27 00 27 00 27 00 26 00 26 00 25 00 24 00 23 00 21 00 20 00 1D 00 1A 00 18 00 15 00 14 00 14 00 15 00 17 00 19 00 1A 00 1C 00 1D 00 1D 00 1D 00 1D 00 1C 00 1B 00 1A 00 19 00 18 00 17 00 16 00 16 00 16 00 16 00 15 00 15 00 15 00 15 00 16 00 16 00 16 00 15 00 13 00 11 00 0D 00 0A 00 06 00 03 00 02 00 02 20 75 
2025-10-15 20:33:21.914 | TX | 0E 03 A1 40 00 40 66 ED 
2025-10-15 20:33:21.914 | RX | 0E 03 80 00 03 00 05 00 07 00 0A 00 0D 00 0F 00 12 80 15 80 18 80 1A 80 1D 80 1F 80 21 80 22 80 24 00 26 00 28 00 2A 00 2B 00 2C 00 2C 00 2A 00 28 00 26 00 23 00 21 00 1F 00 1D 00 1C 00 1C 00 1C 00 1D 00 1D 00 1E 00 1E 00 1E 00 1D 00 1B 00 19 00 17 00 15 00 13 00 10 00 0E 00 0C 00 0B 00 0A 00 0A 00 0A 00 0C 00 0D 00 0F 00 11 00 12 00 13 00 14 00 15 00 15 00 15 00 15 00 16 00 16 00 17 00 17 B5 32 
2025-10-15 20:33:21.945 | TX | 0E 03 A1 80 00 40 66 D1 
2025-10-15 20:33:21.945 | RX | 0E 03 80 00 17 00 18 00 18 00 18 00 17 00 17 00 16 00 15 00 15 00 14 00 13 00 12 00 11 00 10 00 0F 00 0E 00 0D 00 0C 00 0C 00 0B 00 0B 00 0B 00 0B 00 0C 00 0C 00 0D 00 0E 00 0F 00 11 00 13 00 15 00 18 00 1A 00 1D 00 1F 00 21 00 23 00 24 00 25 00 25 00 25 40 24 40 24 40 24 40 25 40 25 40 25 40 25 40 25 00 25 00 25 00 25 00 26 00 26 00 25 00 25 00 24 00 23 00 22 00 21 00 20 00 20 00 1F 00 1F 6F 47 
2025-10-15 20:33:21.976 | TX | 0E 03 A1 C0 00 40 67 05 
2025-10-15 20:33:21.976 | RX | 0E 03 80 00 1E 00 1E 00 1E 00 1D 00 1D 00 1C 00 1A 00 18 00 16 00 14 00 12 00 11 00 10 00 10 00 11 00 11 00 12 00 13 00 15 00 16 00 17 00 18 00 18 00 19 00 1A 00 1A 00 1A 00 19 00 17 00 14 00 11 00 0E 00 0B 00 09 00 08 00 08 00 09 00 0B 00 0E 00 11 00 15 20 1A 60 1E 60 21 60 24 E0 25 E0 26 E0 26 E0 25 E0 24 E0 23 E0 22 E0 21 E0 21 E0 20 C0 20 C0 1F C0 1E C0 1E 40 1D 40 1D 40 1C 40 1D 00 1E 3E 5F 
2025-10-15 20:33:22.007 | TX | 0E 03 A2 00 00 40 67 7D 
2025-10-15 20:33:22.008 | RX | 0E 03 80 40 02 40 02 40 02 40 02 40 02 40 02 40 02 40 02 40 02 40 02 40 01 40 01 40 01 40 01 40 01 40 01 40 01 40 01 40 01 40 01 40 01 40 01 40 01 40 01 40 01 40 01 40 01 40 01 40 01 40 01 40 01 40 02 40 02 40 02 40 02 40 02 40 02 40 02 40 02 40 02 40 02 40 02 40 02 40 02 40 02 40 02 40 02 40 02 40 03 40 03 40 03 40 03 40 03 40 02 40 03 40 03 40 03 40 03 40 03 40 03 40 03 40 03 40 02 40 02 52 53 
2025-10-15 20:33:22.038 | TX | 0E 03 A2 40 00 40 66 A9 
2025-10-15 20:33:22.038 | RX | 0E 03 80 40 02 40 02 40 02 40 02 40 02 40 02 40 02 40 02 40 01 40 01 40 02 40 02 40 02 40 03 40 03 40 03 40 03 40 03 40 03 40 02 40 02 40 02 40 02 40 02 40 02 40 02 40 02 40 02 40 02 40 02 40 02 40 03 40 03 40 03 40 03 40 03 40 03 40 03 40 03 40 03 40 03 40 02 40 02 40 02 40 02 40 02 40 02 40 02 40 03 40 03 40 03 40 03 40 03 40 02 40 02 40 02 40 02 40 02 40 02 40 02 40 02 40 02 40 02 40 02 49 11 
2025-10-15 20:33:22.069 | TX | 0E 03 A2 80 00 40 66 95 
2025-10-15 20:33:22.070 | RX | 0E 03 80 40 02 40 03 40 03 40 03 40 03 40 03 40 02 40 02 40 02 40 02 40 02 40 02 40 02 40 02 40 02 40 02 40 03 40 03 40 03 40 03 40 03 40 03 40 03 40 03 40 02 40 02 40 02 40 02 40 02 40 02 40 02 40 02 40 03 40 02 40 02 40 02 40 02 40 02 40 02 40 02 40 02 40 02 40 02 40 02 40 02 40 02 40 02 40 02 40 02 40 02 40 02 40 02 40 02 40 02 40 02 40 02 40 02 40 02 40 02 40 02 40 02 40 02 40 02 40 02 24 BB 
2025-10-15 20:33:22.099 | TX | 0E 03 A2 C0 00 40 67 41 
2025-10-15 20:33:22.100 | RX | 0E 03 80 40 02 40 02 40 02 40 02 40 02 40 03 40 03 40 03 40 02 40 02 40 02 40 02 40 02 40 02 40 02 40 02 40 02 40 02 40 02 40 03 40 03 40 03 40 02 40 02 40 02 40 02 40 02 40 02 40 02 40 02 40 03 40 03 40 03 40 03 40 03 40 03 40 03 40 03 40 03 40 03 40 03 40 03 40 03 40 03 40 03 40 02 40 02 40 02 40 02 40 02 40 02 40 02 40 02 40 02 40 02 40 02 40 02 40 02 40 02 40 02 40 02 40 02 40 02 40 02 14 FD 
2025-10-15 20:33:22.130 | TX | 0E 03 A3 00 00 40 66 81 
2025-10-15 20:33:22.131 | RX | 0E 03 80 40 02 40 02 40 02 40 02 40 02 40 02 40 02 40 02 40 02 40 02 40 02 40 02 40 02 40 02 40 02 40 03 40 02 40 02 40 02 40 02 40 02 40 02 40 02 40 02 40 02 40 02 40 02 40 02 40 02 40 02 40 02 40 02 40 02 40 02 40 02 40 02 40 02 40 02 40 02 40 02 40 02 40 02 40 02 40 02 40 02 40 02 40 02 40 02 40 02 40 02 40 02 40 02 40 02 40 02 40 02 40 02 40 02 40 02 40 02 40 02 40 02 40 02 40 02 40 02 C2 48 
2025-10-15 20:33:22.162 | TX | 0E 03 A3 40 00 40 67 55 
2025-10-15 20:33:22.162 | RX | 0E 03 80 40 02 40 01 40 01 40 02 40 02 40 02 40 03 40 03 40 03 40 03 40 03 40 02 40 02 40 02 40 02 40 01 40 01 40 01 40 02 40 02 40 02 40 02 40 02 40 02 40 02 40 02 40 02 40 02 40 02 40 02 40 02 40 02 40 02 40 02 40 02 40 02 40 03 40 03 40 03 40 03 40 03 40 02 40 02 40 01 40 01 40 01 40 01 40 01 40 01 40 02 40 02 40 02 40 02 40 02 40 02 40 02 40 02 40 02 40 02 40 02 40 02 40 02 40 02 40 02 70 C2 
2025-10-15 20:33:22.193 | TX | 0E 03 A3 80 00 40 67 69 
2025-10-15 20:33:22.193 | RX | 0E 03 80 40 02 40 02 40 02 40 02 40 02 40 02 40 02 40 02 40 02 40 02 40 02 40 02 40 02 40 02 40 02 40 02 40 02 40 02 40 02 40 02 40 02 40 02 40 01 40 01 40 01 40 01 40 02 40 02 40 02 40 02 40 02 40 02 40 02 40 02 40 02 40 02 40 02 40 02 40 03 40 03 40 03 40 03 40 03 40 03 40 02 40 02 40 02 40 02 40 02 40 02 40 02 40 02 40 02 40 02 40 02 40 02 40 02 40 02 40 02 40 02 40 02 40 02 40 02 40 02 5B FD 
2025-10-15 20:33:22.224 | TX | 0E 03 A3 C0 00 40 66 BD 
2025-10-15 20:33:22.224 | RX | 0E 03 80 40 02 40 02 40 02 40 03 40 03 40 03 40 03 40 03 40 03 40 03 40 03 40 02 40 02 40 02 40 02 40 02 40 02 40 02 40 02 40 03 40 03 40 03 40 03 40 03 40 03 40 02 40 02 40 02 40 02 40 02 40 03 40 03 40 03 40 03 40 03 40 03 40 03 40 03 40 03 40 03 40 02 40 02 40 02 40 02 40 02 40 02 40 02 40 02 40 02 40 02 40 02 40 02 40 02 40 02 40 02 40 02 40 02 40 02 40 02 40 02 40 02 40 02 40 02 40 02 0C C9 
2025-10-15 20:33:22.256 | TX | 0E 10 00 00 00 01 02 00 51 26 5C 
2025-10-15 20:33:22.256 | RX | 0E 10 00 00 00 01 01 36 
2025-10-15 20:33:22.272 | TX | 0E 10 00 00 00 01 02 01 51 27 CC 
2025-10-15 20:33:22.272 | RX | 0E 10 00 00 00 01 01 36 
2025-10-15 20:33:22.303 | TX | 0E 03 A0 00 00 40 66 C5 
2025-10-15 20:33:22.303 | RX | 0E 03 80 80 18 00 17 00 16 00 15 00 14 00 13 00 13 00 13 00 14 00 15 00 16 00 17 00 17 00 17 00 17 00 17 00 17 00 18 00 18 00 19 00 19 00 18 00 18 00 16 00 14 00 12 00 11 00 10 00 10 00 11 00 12 80 1E 80 1E 80 1D 80 1C 80 1B 80 18 C0 16 C0 14 C0 12 40 10 40 10 40 10 40 12 40 13 40 15 40 16 40 16 40 16 40 16 40 17 00 18 00 19 00 1B 00 1D 00 1F 00 20 00 20 00 1F 00 1F 00 1D 00 1D 00 1C 00 1D 78 9C 
2025-10-15 20:33:22.334 | TX | 0E 03 A0 40 00 40 67 11 
2025-10-15 20:33:22.334 | RX | 0E 03 80 00 1D 00 1D 00 1D 00 1C 00 1A 00 17 00 13 00 10 00 0D 00 0B 00 0B 00 0B 00 0C 00 0D 00 0E 00 0F 00 10 00 11 00 11 00 11 00 11 00 10 00 10 00 11 00 11 00 12 00 12 00 12 00 12 00 11 00 0F 00 0D 00 0C 00 0C 00 0C 00 0C 00 0D 00 0E 00 10 00 13 00 16 C0 19 C0 1C C0 1E C0 21 C0 23 C0 26 C0 28 C0 29 C0 29 C0 29 C0 28 C0 26 C0 24 C0 21 C0 1F 80 1D 80 1C 80 1C 80 1D 80 1D 80 1E 00 1E 00 1E D1 4B 
2025-10-15 20:33:22.365 | TX | 0E 03 A0 80 00 40 67 2D 
2025-10-15 20:33:22.365 | RX | 0E 03 80 00 1E 00 1E 00 1D 00 1D 00 1B 00 1A 00 19 00 17 00 16 00 15 00 14 00 13 00 12 00 12 00 11 00 11 00 10 00 0F 00 0F 00 0F 00 0F 00 10 00 11 00 13 00 15 00 17 00 18 00 19 00 1A 00 1A 00 1B 00 1B 00 1A 00 19 00 17 00 15 00 13 00 11 00 10 00 0F 00 0F 00 10 00 12 00 15 00 18 00 1C 00 1E 00 20 00 21 00 20 00 1E 00 1D 00 1B 00 1A 40 1B 60 1B 60 1C 60 1E E0 1F E0 20 E0 22 E0 23 C0 23 C0 24 DE 3B 
2025-10-15 20:33:22.395 | TX | 0E 03 A0 C0 00 40 66 F9 
2025-10-15 20:33:22.395 | RX | 0E 03 80 C0 23 C0 23 C0 21 C0 20 C0 1E C0 1B C0 19 C0 16 80 15 80 14 80 13 80 13 80 14 00 14 00 14 00 14 00 14 00 14 00 14 00 14 00 14 00 14 00 14 00 13 00 11 00 10 00 0F 00 0E 00 0E 00 0E 00 0E 00 0E 00 0E 00 0D 00 0C 00 0A 00 08 00 07 00 06 00 05 00 06 00 07 00 09 00 0B 00 0D 00 0F 00 12 00 14 00 17 00 1A 00 1D 00 1F 00 21 00 22 00 22 00 22 00 22 00 22 00 22 00 22 00 20 00 1F 00 1D 00 1C DA F4 
2025-10-15 20:33:22.426 | TX | 0E 03 A1 00 00 40 67 39 
2025-10-15 20:33:22.427 | RX | 0E 03 80 00 1A 00 1A 00 19 00 18 00 18 00 17 00 15 00 14 00 13 00 12 00 13 00 14 00 16 00 17 00 18 80 19 80 19 80 18 80 17 C0 17 C0 17 C0 17 C0 18 C0 18 C0 18 C0 16 C0 14 80 11 80 0F 80 0C 00 0A 00 09 00 09 00 0A 00 0C 00 0E 00 10 00 12 00 14 00 15 00 15 00 15 00 15 00 15 00 16 00 17 00 18 00 18 00 18 00 17 00 16 00 14 00 12 00 10 00 0F 00 0D 00 0B 00 0A 00 09 00 09 00 08 00 09 00 09 00 0A 97 FD 
2025-10-15 20:33:22.457 | TX | 0E 03 A1 40 00 40 66 ED 
2025-10-15 20:33:22.458 | RX | 0E 03 80 00 0A 00 0B 00 0C 00 0E 00 0F 00 11 00 14 00 16 00 19 00 1C 00 1E 00 20 00 21 00 22 00 22 00 21 00 21 00 21 00 22 00 22 00 23 00 22 00 22 00 21 00 1F 00 1D 00 1B 00 18 00 14 00 11 00 0E 00 0D 00 0C 00 0C 00 0D 00 0E 00 10 80 13 80 15 80 17 80 19 80 1A 80 1C 80 1D 80 1D 80 1D 80 1D 80 1D 00 1D 00 1E 00 1E 00 1E 00 1E 00 1E 00 1D 00 1C 00 1B 00 1B 00 1B 00 1B 00 1B 00 1B 00 1A 00 19 A3 ED 
2025-10-15 20:33:22.489 | TX | 0E 03 A1 80 00 40 66 D1 
2025-10-15 20:33:22.489 | RX | 0E 03 80 00 18 00 17 00 17 00 17 00 17 00 17 00 17 00 17 00 17 00 17 00 16 00 15 00 14 00 14 00 13 00 14 00 15 00 16 00 18 00 19 00 1B 00 1D 00 1E 00 1F 00 1F 00 1F 00 1E 00 1E 00 1D 00 1C 00 1B 00 1B 00 1B 00 1B 00 1B 00 1B 00 1B 00 1A 00 18 00 17 00 15 00 15 00 15 00 15 00 17 00 18 00 19 00 19 00 19 00 18 00 15 00 13 00 10 00 0E 00 0D 00 0C 00 0C 00 0C 00 0C 80 0B C0 0B C0 0D C0 0F C0 12 99 A7 
2025-10-15 20:33:22.520 | TX | 0E 03 A1 C0 00 40 67 05 
2025-10-15 20:33:22.521 | RX | 0E 03 80 C0 15 C0 17 C0 19 C0 1A C0 19 C0 18 C0 17 C0 15 C0 13 40 12 40 11 40 10 40 0E 40 0D 00 0C 00 0C 00 0D 00 0E 00 10 00 12 00 15 00 17 00 19 00 1B 00 1C 00 1D 00 1D 00 1D 00 1D 00 1D 00 1E 00 1E 00 1E 00 1D 00 1C 00 1B 00 1A 00 19 00 18 00 17 00 17 00 17 00 17 00 17 00 17 00 17 00 18 00 19 00 1A 00 1B 00 1C 00 1D 00 1E 00 1F 00 20 00 1F 00 1F 00 1E 00 1E 00 1E 00 1E 00 1F 00 21 00 22 F9 73 
2025-10-15 20:33:22.550 | TX | 0E 03 A2 00 00 40 67 7D 
2025-10-15 20:33:22.550 | RX | 0E 03 80 40 01 40 01 40 01 40 01 40 01 40 02 40 02 40 02 40 02 40 02 40 02 40 02 40 02 40 02 40 01 40 01 40 01 40 01 40 01 40 01 40 02 40 02 40 02 40 01 40 01 40 01 40 01 40 01 40 01 40 01 40 01 40 01 40 01 40 01 40 01 40 01 40 01 40 02 40 02 40 02 40 02 40 02 40 02 40 01 40 01 40 01 40 01 40 01 40 01 40 01 40 01 40 01 40 02 40 02 40 02 40 02 40 01 40 01 40 01 40 01 40 01 40 01 40 01 40 02 B8 48 
2025-10-15 20:33:22.582 | TX | 0E 03 A2 40 00 40 66 A9 
2025-10-15 20:33:22.582 | RX | 0E 03 80 40 02 40 02 40 01 40 01 40 01 40 01 40 01 40 01 40 01 40 01 40 01 40 01 40 01 40 01 40 00 40 00 40 00 40 00 40 00 40 00 40 00 40 00 40 00 40 00 40 00 40 00 40 01 40 01 40 01 40 01 40 01 40 02 40 02 40 02 40 02 40 02 40 02 40 02 40 01 40 01 40 01 40 01 40 01 40 01 40 02 40 02 40 02 40 02 40 01 40 01 40 01 40 01 40 01 40 01 40 01 40 01 40 01 40 01 40 01 40 01 40 01 40 01 40 01 40 01 26 4A 
2025-10-15 20:33:22.613 | TX | 0E 03 A2 80 00 40 66 95 
2025-10-15 20:33:22.613 | RX | 0E 03 80 40 01 40 01 40 01 40 00 40 00 40 00 40 00 40 00 40 00 40 01 40 01 40 01 40 01 40 01 40 01 40 01 40 01 40 01 40 01 40 01 40 01 40 02 40 02 40 02 40 02 40 02 40 01 40 01 40 01 40 01 40 01 40 01 40 02 40 02 40 02 40 01 40 01 40 01 40 01 40 01 40 01 40 01 40 01 40 01 40 01 40 01 40 01 40 01 40 01 40 02 40 02 40 02 40 02 40 02 40 01 40 01 40 01 40 01 40 01 40 01 40 01 40 01 40 01 40 01 1C 1A 
2025-10-15 20:33:22.644 | TX | 0E 03 A2 C0 00 40 67 41 
2025-10-15 20:33:22.644 | RX | 0E 03 80 40 01 40 01 40 01 40 01 40 01 40 01 40 01 40 01 40 01 40 01 40 01 40 01 40 01 40 01 40 01 40 01 40 01 40 01 40 01 40 01 40 01 40 01 40 02 40 02 40 02 40 02 40 02 40 02 40 02 40 02 40 01 40 01 40 01 40 01 40 01 40 01 40 02 40 02 40 02 40 02 40 02 40 02 40 02 40 01 40 01 40 01 40 01 40 01 40 01 40 01 40 02 40 02 40 01 40 01 40 01 40 01 40 01 40 01 40 01 40 00 40 00 40 00 40 00 40 00 9D 69 
2025-10-15 20:33:22.675 | TX | 0E 03 A3 00 00 40 66 81 
2025-10-15 20:33:22.675 | RX | 0E 03 80 40 00 40 00 40 01 40 01 40 02 40 02 40 02 40 02 40 02 40 01 40 01 40 01 40 01 40 01 40 01 40 01 40 01 40 01 40 01 40 01 40 01 40 01 40 01 40 01 40 01 40 01 40 01 40 01 40 01 40 01 40 01 40 01 40 01 40 01 40 01 40 01 40 01 40 01 40 01 40 01 40 01 40 01 40 01 40 01 40 01 40 02 40 02 40 02 40 02 40 01 40 01 40 01 40 01 40 01 40 01 40 01 40 01 40 01 40 01 40 02 40 02 40 02 40 01 40 01 E0 B0 
2025-10-15 20:33:22.705 | RX | 0E 03 80 40 01 40 01 40 01 40 01 40 01 40 01 40 01 40 01 40 01 40 01 40 01 40 01 40 01 40 02 40 02 40 02 40 02 40 02 40 01 40 01 40 01 40 01 40 01 40 01 40 02 40 02 40 02 40 02 40 01 40 01 40 01 40 01 40 01 40 01 40 01 40 01 40 01 40 01 40 00 40 00 40 00 40 01 40 01 40 01 40 01 40 02 40 02 40 02 40 02 40 02 40 02 40 01 40 01 40 01 40 01 40 01 40 02 40 02 40 02 40 01 40 01 40 01 40 01 40 01 E4 10 
2025-10-15 20:33:22.736 | TX | 0E 03 A3 80 00 40 67 69 
2025-10-15 20:33:22.737 | RX | 0E 03 80 40 01 40 01 40 02 40 02 40 02 40 01 40 01 40 01 40 01 40 01 40 01 40 01 40 01 40 01 40 02 40 02 40 02 40 02 40 02 40 02 40 01 40 01 40 01 40 01 40 01 40 01 40 01 40 01 40 01 40 01 40 01 40 01 40 01 40 01 40 01 40 01 40 00 40 00 40 00 40 00 40 00 40 01 40 01 40 01 40 01 40 01 40 02 40 02 40 02 40 02 40 02 40 02 40 02 40 02 40 02 40 02 40 01 40 01 40 01 40 01 40 01 40 01 40 01 40 01 A6 86 
2025-10-15 20:33:22.767 | TX | 0E 03 A3 C0 00 40 66 BD 
2025-10-15 20:33:22.768 | RX | 0E 03 80 40 01 40 01 40 01 40 01 40 00 40 00 40 00 40 00 40 00 40 00 40 00 40 00 40 00 40 00 40 00 40 00 40 00 40 01 40 01 40 01 40 01 40 01 40 01 40 01 40 01 40 01 40 01 40 01 40 01 40 00 40 00 40 00 40 00 40 01 40 01 40 01 40 01 40 01 40 01 40 01 40 01 40 01 40 01 40 01 40 01 40 01 40 01 40 01 40 01 40 01 40 01 40 01 40 01 40 01 40 01 40 01 40 02 40 02 40 02 40 02 40 02 40 02 40 02 40 02 4E D3 
2025-10-15 20:33:22.799 | TX | 0E 10 00 00 00 01 02 00 51 26 5C 
2025-10-15 20:33:22.800 | RX | 0E 10 00 00 00 01 01 36 
2025-10-15 20:33:22.815 | TX | 0E 10 00 00 00 01 02 01 51 27 CC 
2025-10-15 20:33:22.816 | RX | 0E 10 00 00 00 01 01 36 
2025-10-15 20:33:22.847 | TX | 0E 03 A0 00 00 40 66 C5 
2025-10-15 20:33:22.847 | RX | 0E 03 80 00 1D 00 1A 00 18 00 15 00 14 00 13 00 13 00 13 00 15 00 17 00 19 00 1A 00 1B 00 1C 00 1C 00 1B 00 1A 00 19 00 18 00 17 00 15 00 14 00 12 00 11 00 10 00 0F 00 0E 00 0D 00 0C 00 0B 00 0A 00 09 00 0B 40 0D 40 0F 40 11 40 12 C0 14 C0 16 C0 17 C0 19 C0 1A 80 1A 80 1A 80 1B 00 1B 00 1B 00 1C 00 1C 00 1D 00 1D 00 1D 00 1E 00 1D 00 1E 00 1E 00 1E 00 1F 00 1F 00 1F 00 1F 00 1F 00 1F 00 1E 23 09 
2025-10-15 20:33:22.877 | TX | 0E 03 A0 40 00 40 67 11 
2025-10-15 20:33:22.877 | RX | 0E 03 80 00 1D 00 1B 00 1A 00 18 00 16 00 14 00 11 00 0F 00 0D 00 0C 00 0C 00 0C 00 0E 00 10 00 12 00 14 00 15 00 16 00 17 00 18 00 18 00 19 00 1A 00 1B 00 1C 00 1E 00 20 00 22 00 24 00 26 00 27 00 29 00 2A 00 2B 00 2C 00 2D 00 2D 00 2C 00 2B 00 29 00 25 00 20 00 1B 00 15 00 0F 00 0A 00 06 00 03 00 02 00 01 00 02 00 04 00 06 00 08 00 0B 00 0E 00 11 00 13 00 15 00 16 00 17 00 17 00 17 00 17 06 7B 
2025-10-15 20:33:22.908 | TX | 0E 03 A0 80 00 40 67 2D 
2025-10-15 20:33:22.908 | RX | 0E 03 80 00 17 00 17 00 16 00 16 00 15 00 14 00 13 00 13 00 13 00 14 00 15 00 16 00 16 00 16 00 16 00 15 00 14 00 12 00 11 00 10 00 10 00 11 00 12 00 14 00 16 00 19 00 1B 00 1D 00 1E 00 1F 00 1F 00 1F 00 20 00 20 00 20 00 21 00 21 00 21 00 21 00 21 00 21 00 21 00 21 00 21 00 20 00 1F 00 1D 00 1B 00 19 00 18 00 16 00 15 00 14 00 15 00 15 00 17 00 19 00 1A 00 1B 00 1B 00 1A 00 19 00 17 00 14 B5 DE 
2025-10-15 20:33:22.939 | TX | 0E 03 A0 C0 00 40 66 F9 
2025-10-15 20:33:22.939 | RX | 0E 03 80 00 12 00 10 00 0F 00 0E 00 0D 00 0D 00 0D 00 0C 00 0C 00 0D 00 0D 00 0D 00 0D 00 0D 00 0D 00 0D 00 0F 00 10 00 12 00 14 00 16 00 17 00 19 00 1A 00 1B 00 1C 00 1E 00 1F 00 20 00 20 00 1F 00 1E 00 1C 00 1A 00 18 00 16 00 15 00 13 00 12 00 11 00 11 00 11 00 11 00 11 00 12 00 12 00 12 00 12 00 11 00 12 00 13 00 14 00 17 00 19 00 1C 00 1E 00 20 00 21 00 23 00 24 00 25 00 25 00 25 00 24 37 D5 
2025-10-15 20:33:22.970 | TX | 0E 03 A1 00 00 40 67 39 
2025-10-15 20:33:22.971 | RX | 0E 03 80 00 22 00 20 00 1D 00 1A 00 18 00 15 00 13 00 12 00 10 00 10 00 0F 00 0E 00 0D 00 0C 00 0A 00 07 00 05 00 02 00 01 00 00 00 00 00 02 00 05 00 08 00 0C 00 0F 00 12 00 15 00 16 00 16 00 16 00 16 00 15 00 13 00 12 00 10 00 0F 00 0E 00 0E 00 0E 00 10 00 12 00 14 00 17 00 19 00 1A 00 1B 00 1B 00 1C 00 1C 00 1D 00 1D 00 1C 00 1C 00 1B 00 1A 00 19 00 19 00 18 00 17 00 16 00 15 00 15 00 15 60 3A 
2025-10-15 20:33:23.001 | TX | 0E 03 A1 40 00 40 66 ED 
2025-10-15 20:33:23.002 | RX | 0E 03 80 00 15 00 15 00 15 00 15 00 14 00 14 00 13 00 12 00 11 00 10 00 10 00 0F 00 0F 00 0F 00 11 00 12 00 14 00 16 00 18 00 1A 00 1B 00 1C 00 1C 00 1C 00 1B 00 1A 00 19 00 18 00 17 00 16 00 14 00 12 00 0F 00 0C 00 0A 00 08 00 08 00 09 00 0B 00 0F 00 12 00 15 00 18 00 19 00 1A 00 1B 00 1B 40 1B 40 1B 40 1A 40 1A 40 19 40 18 40 18 40 18 40 17 40 17 40 16 40 16 40 15 40 15 40 15 40 16 00 16 BA 99 
2025-10-15 20:33:23.032 | TX | 0E 03 A1 80 00 40 66 D1 
2025-10-15 20:33:23.033 | RX | 0E 03 80 00 17 00 17 00 17 00 17 00 17 00 18 00 19 00 1B 00 1D 00 1F 00 20 00 1F 00 1F 00 1D 00 1C 00 1B 00 1A 00 19 00 19 00 18 00 17 00 16 00 16 00 15 00 14 00 13 00 13 00 12 00 11 00 11 00 10 00 0F 00 0F 00 0E 00 0E 00 0E 00 0E 00 0E 00 0E 00 0F 00 0F 00 0F 00 10 00 10 00 11 00 11 00 11 00 11 00 11 00 11 00 10 00 0E 00 0D 00 0C 00 0C 00 0D 00 0E 00 0F 00 11 00 13 00 16 00 18 00 1A 00 1C 96 DD 
2025-10-15 20:33:23.063 | TX | 0E 03 A1 C0 00 40 67 05 
2025-10-15 20:33:23.064 | RX | 0E 03 80 00 1E 00 1F 00 20 00 21 00 22 00 23 00 23 00 23 00 23 00 23 00 23 00 24 00 24 00 25 00 24 00 24 00 24 00 23 00 23 00 23 00 23 00 23 00 23 00 23 00 22 00 22 00 21 00 1F 00 1E 00 1C 00 19 00 17 00 14 00 12 00 10 00 0E 00 0D 00 0C 00 0C 00 0D 00 0E 00 10 00 11 00 13 00 14 00 15 00 16 00 18 00 19 00 1B 00 1C 00 1D 00 1D 00 1D 00 1D 00 1D 00 1D 00 1D 00 1E 00 1F 00 1F 00 20 00 20 00 1F 59 92 
2025-10-15 20:33:23.094 | TX | 0E 03 A2 00 00 40 67 7D 
2025-10-15 20:33:23.095 | RX | 0E 03 80 40 01 40 01 40 01 40 00 40 01 40 01 40 01 40 01 40 01 40 02 40 02 40 02 40 02 40 02 40 02 40 02 40 02 40 02 40 02 40 02 40 02 40 02 40 02 40 02 40 02 40 01 40 02 40 02 40 02 40 02 40 02 40 01 40 01 40 02 40 02 40 02 40 02 40 02 40 02 40 02 40 01 40 01 40 01 40 01 40 01 40 01 40 01 40 01 40 01 40 01 40 01 40 01 40 01 40 01 40 01 40 01 40 01 40 01 40 01 40 01 40 01 40 01 40 01 40 01 27 D6 
2025-10-15 20:33:23.125 | TX | 0E 03 A2 40 00 40 66 A9 
2025-10-15 20:33:23.126 | RX | 0E 03 80 40 01 40 01 40 01 40 01 40 01 40 01 40 01 40 01 40 01 40 01 40 00 40 00 40 00 40 00 40 01 40 01 40 01 40 01 40 01 40 01 40 01 40 01 40 01 40 01 40 01 40 01 40 01 40 01 40 01 40 01 40 01 40 01 40 01 40 01 40 01 40 01 40 01 40 01 40 01 40 01 40 01 40 01 40 01 40 01 40 00 40 00 40 00 5F FF 5F FF 40 00 40 00 40 01 40 02 40 02 40 02 40 02 40 02 40 03 40 03 40 02 40 02 40 02 40 02 40 02 EC C9 
2025-10-15 20:33:23.156 | TX | 0E 03 A2 80 00 40 66 95 
2025-10-15 20:33:23.156 | RX | 0E 03 80 40 02 40 02 40 02 40 02 40 02 40 02 40 02 40 02 40 01 40 01 40 01 40 01 40 01 40 01 40 01 40 01 40 01 40 01 40 01 40 01 40 01 40 01 40 01 40 02 40 02 40 02 40 02 40 02 40 02 40 02 40 02 40 01 40 01 40 01 40 01 40 01 40 01 40 01 40 01 40 01 40 01 40 01 40 01 40 01 40 01 40 01 40 02 40 02 40 02 40 02 40 02 40 02 40 02 40 02 40 02 40 03 40 03 40 03 40 02 40 02 40 02 40 02 40 02 40 02 A0 C8 
2025-10-15 20:33:23.187 | TX | 0E 03 A2 C0 00 40 67 41 
2025-10-15 20:33:23.188 | RX | 0E 03 80 40 02 40 02 40 02 40 02 40 02 40 01 40 01 40 01 40 01 40 01 40 01 40 01 40 01 40 01 40 01 40 01 40 01 40 01 40 01 40 01 40 01 40 02 40 02 40 02 40 02 40 02 40 02 40 02 40 02 40 02 40 02 40 02 40 01 40 01 40 01 40 01 40 01 40 01 40 02 40 02 40 02 40 02 40 02 40 02 40 02 40 02 40 01 40 01 40 01 40 01 40 01 40 01 40 02 40 02 40 01 40 01 40 01 40 01 40 01 40 01 40 01 40 01 40 01 40 01 AD CB 
2025-10-15 20:33:23.218 | TX | 0E 03 A3 00 00 40 66 81 
2025-10-15 20:33:23.219 | RX | 0E 03 80 40 01 40 01 40 01 40 01 40 01 40 00 40 00 40 00 40 00 40 01 40 01 40 01 40 01 40 01 40 01 40 01 40 01 40 01 40 01 40 01 40 01 40 01 40 01 40 01 40 01 40 00 40 00 40 00 40 00 40 00 40 00 40 00 40 00 40 00 40 01 40 01 40 01 40 01 40 01 40 01 40 01 40 01 40 01 40 01 40 01 40 01 40 01 40 01 40 01 40 01 40 01 40 00 40 00 40 00 40 00 40 00 40 01 40 01 40 01 40 01 40 01 40 01 40 01 40 01 82 95 
2025-10-15 20:33:23.265 | TX | 0E 03 A3 40 00 40 67 55 
2025-10-15 20:33:23.266 | RX | 0E 03 80 40 01 40 01 40 01 40 01 40 01 40 01 40 01 40 01 40 01 40 01 40 01 40 02 40 02 40 02 40 02 40 02 40 02 40 02 40 02 40 02 40 02 40 02 40 02 40 02 40 01 40 01 40 02 40 02 40 02 40 02 40 02 40 02 40 01 40 01 40 01 40 01 40 01 40 01 40 01 40 01 40 01 40 01 40 02 40 02 40 02 40 02 40 02 40 02 40 02 40 02 40 02 40 02 40 02 40 02 40 02 40 01 40 01 40 01 40 01 40 01 40 01 40 01 40 02 40 02 7B F5 
2025-10-15 20:33:23.297 | TX | 0E 03 A3 80 00 40 67 69 
2025-10-15 20:33:23.297 | RX | 0E 03 80 40 02 40 01 40 01 40 01 40 01 40 01 40 01 40 01 40 01 40 01 40 01 40 01 40 01 40 01 40 02 40 02 40 02 40 02 40 02 40 01 40 01 40 01 40 01 40 01 40 01 40 01 40 01 40 01 40 01 40 02 40 02 40 02 40 02 40 02 40 02 40 02 40 01 40 01 40 01 40 01 40 01 40 01 40 01 40 01 40 01 40 01 40 01 40 01 40 01 40 01 40 01 40 01 40 01 40 01 40 01 40 01 40 01 40 01 40 01 40 01 40 01 40 01 40 00 40 00 91 4C 
2025-10-15 20:33:23.327 | TX | 0E 03 A3 C0 00 40 66 BD 
2025-10-15 20:33:23.327 | RX | 0E 03 80 40 00 40 00 40 00 40 01 40 01 40 01 40 01 40 01 40 01 40 01 40 01 40 01 40 01 40 02 40 02 40 02 40 02 40 02 40 02 40 02 40 02 40 02 40 02 40 01 40 01 40 01 40 01 40 01 40 02 40 02 40 02 40 02 40 02 40 02 40 02 40 01 40 01 40 00 40 00 40 00 40 01 40 01 40 01 40 01 40 01 40 01 40 01 40 01 40 01 40 00 40 00 40 00 40 00 40 00 40 00 40 01 40 01 40 01 40 01 40 01 40 02 40 02 40 02 40 01 B5 67 
2025-10-15 20:33:23.359 | TX | 0E 10 00 00 00 01 02 00 51 26 5C 
2025-10-15 20:33:23.359 | RX | 0E 10 00 00 00 01 01 36 
2025-10-15 20:33:23.375 | TX | 0E 10 00 00 00 01 02 01 51 27 CC 
2025-10-15 20:33:23.375 | RX | 0E 10 00 00 00 01 01 36 
2025-10-15 20:33:23.406 | TX | 0E 03 A0 00 00 40 66 C5 
2025-10-15 20:33:23.407 | RX | 0E 03 80 00 20 00 20 00 21 00 22 00 23 00 24 00 25 00 26 00 26 00 25 00 25 00 24 00 23 00 21 00 1F 00 1E 00 1C 00 19 00 16 00 13 00 0F 00 0B 00 08 00 06 00 06 00 07 00 09 00 0C 00 0F 00 12 00 14 00 17 00 17 00 18 00 18 00 19 00 19 00 1A 00 1B 00 1B 00 1B 00 1A 00 1A 00 19 00 19 00 18 00 18 00 17 00 15 00 14 00 12 00 10 00 0E 00 0D 00 0B 00 0A 00 0A 00 0A 00 0C 00 0E 00 11 00 15 00 19 00 1D 4C 6D 
2025-10-15 20:33:23.437 | TX | 0E 03 A0 40 00 40 67 11 
2025-10-15 20:33:23.438 | RX | 0E 03 80 00 1F 00 22 00 23 00 24 00 26 00 27 00 27 00 28 00 28 00 27 00 27 00 27 00 27 00 26 00 26 00 25 00 23 00 21 00 1E 00 1B 00 17 00 15 00 13 00 12 00 11 00 11 00 12 00 13 00 14 00 15 00 16 00 16 00 17 00 18 00 18 00 19 00 1A 00 1B 00 1B 00 1B 00 1A 00 19 00 17 00 14 00 12 00 10 00 0F 00 0F 00 0E 00 0E 00 0E 00 0D 00 0D 00 0D 00 0C 00 0D 00 0D 00 0F 00 10 00 11 00 12 00 13 00 13 00 13 13 68 
2025-10-15 20:33:23.468 | TX | 0E 03 A0 80 00 40 67 2D 
2025-10-15 20:33:23.469 | RX | 0E 03 80 00 13 00 12 00 10 00 0E 00 0C 00 0A 00 09 00 0A 00 0B 00 0E 00 11 00 14 00 17 00 19 00 1C 00 1E 00 20 00 21 00 22 00 22 00 21 00 21 00 20 00 1F 00 1E 00 1D 00 1C 00 1A 00 19 00 19 00 1A 00 1B 00 1C 00 1D 00 1E 00 1F 00 1F 00 1E 00 1E 00 1D 00 1C 00 1C 00 1B 00 1B 00 1A 00 1A 00 19 00 19 00 19 00 19 00 19 00 19 00 19 00 18 00 18 00 18 00 18 00 18 00 19 00 1A 00 1B 00 1B 00 1C 00 1C D7 A2 
2025-10-15 20:33:23.500 | TX | 0E 03 A0 C0 00 40 66 F9 
2025-10-15 20:33:23.500 | RX | 0E 03 80 00 1C 00 1C 00 1C 00 1C 00 1B 00 1B 00 1A 00 1A 00 19 00 18 00 17 00 16 00 16 00 15 00 14 00 13 00 12 00 12 00 10 00 0E 00 0C 00 09 00 07 00 06 00 06 00 07 00 0A 00 0D 00 10 00 13 00 16 00 18 00 1A 00 1B 00 1C 00 1D 00 1E 00 1E 00 1E 00 1D 00 1B 00 1A 00 19 00 19 00 1A 00 1B 00 1C 00 1E 00 1F 00 20 00 21 00 21 00 22 00 22 00 23 00 23 00 22 00 21 00 20 00 1F 00 1E 00 1E 00 1E 00 1F E1 BA 
2025-10-15 20:33:23.530 | TX | 0E 03 A1 00 00 40 67 39 
2025-10-15 20:33:23.530 | RX | 0E 03 80 00 20 00 22 00 22 00 22 00 22 00 20 00 1E 00 1C 00 1A 00 17 00 15 00 14 00 13 00 13 00 14 00 15 00 15 00 16 00 16 00 17 00 17 00 17 00 17 00 17 00 17 00 17 00 17 00 16 00 15 00 15 00 14 00 13 00 12 00 10 00 0F 00 0D 00 0B 00 09 00 08 00 08 00 09 00 0B 00 0E 00 12 00 15 00 18 00 1A 00 1C C0 1D C0 1E C0 1E C0 1E C0 1E C0 1F C0 1F C0 1F C0 20 C0 20 C0 21 C0 21 C0 22 80 22 80 23 80 23 8B 10 
2025-10-15 20:33:23.561 | TX | 0E 03 A1 40 00 40 66 ED 
2025-10-15 20:33:23.561 | RX | 0E 03 80 80 23 80 23 80 24 80 24 00 24 00 23 00 23 00 22 00 22 00 22 00 21 00 21 00 20 00 1F 00 1F 00 1E 00 1D 00 1D 00 1D 00 1D 00 1D 00 1C 00 1A 00 18 00 16 00 13 00 11 00 0E 00 0B 00 09 00 07 00 06 00 06 00 07 00 08 00 0A 00 0B 00 0C 00 0D 00 0E 00 0F 00 0F 00 10 00 11 00 12 00 13 00 15 00 16 00 16 00 16 00 15 00 14 00 12 00 10 00 0E 00 0C 00 0C 00 0C 00 0E 00 0F 00 12 00 14 40 17 40 1A 3A B2 
2025-10-15 20:33:23.592 | TX | 0E 03 A1 80 00 40 66 D1 
2025-10-15 20:33:23.592 | RX | 0E 03 80 40 1C 40 1E 40 20 C0 21 C0 22 C0 22 C0 22 C0 21 C0 21 C0 20 C0 1F C0 1F C0 1F C0 1E C0 1D C0 1D 40 1C 00 1C 00 1C 00 1C 00 1C 00 1C 00 1C 00 1B 00 1A 00 1A 00 1A 00 1B 00 1D 00 1F 00 21 00 23 00 24 00 25 00 25 00 24 00 23 00 22 00 20 00 1F 00 1D 00 1C 00 1B 00 1A 00 19 00 18 00 17 00 16 00 16 00 16 00 16 00 16 00 17 00 17 00 17 00 18 00 18 00 19 00 18 00 18 00 17 00 17 00 17 00 17 57 4F 
2025-10-15 20:33:23.623 | TX | 0E 03 A1 C0 00 40 67 05 
2025-10-15 20:33:23.623 | RX | 0E 03 80 00 18 00 19 00 19 00 1A 00 1A 00 18 00 16 00 14 00 11 00 0E 00 0C 00 0A 00 0A 00 0A 00 0B 00 0C 00 0D 00 0E 40 0F 40 0F 40 10 40 10 40 12 40 14 40 17 40 19 40 1A 40 1C 40 1C 40 1D 00 1D 00 1E 00 1E 00 1E 00 1E 00 1E 00 1F 00 1F 00 1F 00 1F 00 1D 00 1B 00 19 00 17 00 14 00 12 00 10 00 0E 00 0D 00 0C 00 0C 00 0D 00 0F 00 10 00 12 00 13 00 14 00 15 00 15 00 15 00 15 00 14 00 14 00 13 F8 6A 
2025-10-15 20:33:23.654 | TX | 0E 03 A2 00 00 40 67 7D 
2025-10-15 20:33:23.654 | RX | 0E 03 80 40 01 40 01 40 01 40 01 40 01 40 01 40 01 40 01 40 01 40 01 40 01 40 01 40 01 40 01 40 01 40 01 40 01 40 01 40 01 40 01 40 01 40 01 40 01 40 01 40 01 40 01 40 01 40 01 40 01 40 01 40 01 40 01 40 01 40 01 40 02 40 02 40 02 40 02 40 02 40 02 40 02 40 02 40 02 40 02 40 02 40 02 40 02 40 02 40 02 40 01 40 01 40 01 40 01 40 02 40 01 40 01 40 01 40 01 40 01 40 01 40 01 40 01 40 01 40 01 F1 7A 
2025-10-15 20:33:23.685 | TX | 0E 03 A2 40 00 40 66 A9 
2025-10-15 20:33:23.685 | RX | 0E 03 80 40 01 40 01 40 01 40 01 40 01 40 01 40 01 40 01 40 01 40 01 40 01 40 01 40 01 40 01 40 01 40 01 40 01 40 01 40 01 40 01 40 01 40 01 40 01 40 01 40 01 40 01 40 01 40 01 40 00 40 00 40 00 40 00 40 00 40 00 40 00 40 00 40 00 40 01 40 01 40 01 40 01 40 01 40 01 40 01 40 01 40 01 40 01 40 01 40 01 40 01 40 01 40 01 40 01 40 01 40 01 40 02 40 02 40 02 40 02 40 02 40 01 40 01 40 01 40 01 08 B7 
2025-10-15 20:33:23.716 | TX | 0E 03 A2 80 00 40 66 95 
2025-10-15 20:33:23.716 | RX | 0E 03 80 40 01 40 01 40 01 40 01 40 01 40 02 40 02 40 02 40 01 40 01 40 01 40 01 40 01 40 01 40 01 40 01 40 01 40 01 40 01 40 01 40 01 40 01 40 01 40 01 40 01 40 01 40 01 40 01 40 01 40 01 40 01 40 01 40 01 40 01 40 01 40 01 40 01 40 01 40 01 40 01 40 00 40 00 40 00 40 00 40 01 40 01 40 01 40 02 40 02 40 02 40 02 40 02 40 02 40 01 40 01 40 01 40 01 40 01 40 01 40 00 40 00 40 00 40 00 40 00 F4 93 
2025-10-15 20:33:23.747 | TX | 0E 03 A2 C0 00 40 67 41 
2025-10-15 20:33:23.747 | RX | 0E 03 80 40 01 40 01 40 01 40 01 40 01 40 01 40 01 40 02 40 02 40 02 40 01 40 01 40 01 40 01 40 01 40 01 40 01 40 01 40 01 40 01 40 01 40 01 40 02 40 01 40 01 40 01 40 01 40 01 40 01 40 00 40 00 40 01 40 01 40 01 40 02 40 02 40 02 40 02 40 02 40 02 40 02 40 02 40 02 40 02 40 02 40 02 40 02 40 02 40 01 40 01 40 01 40 01 40 01 40 02 40 02 40 02 40 02 40 02 40 02 40 02 40 02 40 02 40 01 40 01 3E 5E 
2025-10-15 20:33:23.778 | TX | 0E 03 A3 00 00 40 66 81 
2025-10-15 20:33:23.778 | RX | 0E 03 80 40 01 40 01 40 01 40 01 40 01 40 01 40 01 40 02 40 02 40 02 40 02 40 02 40 02 40 02 40 02 40 02 40 02 40 02 40 01 40 01 40 01 40 01 40 00 40 00 40 00 40 01 40 01 40 01 40 01 40 01 40 01 40 01 40 01 40 01 40 01 40 02 40 02 40 02 40 02 40 02 40 02 40 02 40 02 40 02 40 03 40 03 40 03 40 03 40 03 40 02 40 02 40 02 40 02 40 02 40 02 40 02 40 02 40 02 40 02 40 02 40 02 40 02 40 02 40 02 FB F2 
2025-10-15 20:33:23.809 | TX | 0E 03 A3 40 00 40 67 55 
2025-10-15 20:33:23.809 | RX | 0E 03 80 40 02 40 01 40 01 40 01 40 01 40 01 40 01 40 01 40 02 40 02 40 02 40 02 40 02 40 02 40 01 40 01 40 01 40 01 40 01 40 01 40 01 40 01 40 01 40 01 40 01 40 02 40 02 40 02 40 02 40 02 40 02 40 02 40 02 40 02 40 02 40 02 40 02 40 02 40 01 40 01 40 01 40 01 40 01 40 01 40 01 40 00 40 00 40 00 40 00 40 01 40 01 40 01 40 01 40 02 40 02 40 02 40 03 40 03 40 03 40 03 40 03 40 02 40 02 40 02 73 30 
2025-10-15 20:33:23.840 | TX | 0E 03 A3 80 00 40 67 69 
2025-10-15 20:33:23.840 | RX | 0E 03 80 40 02 40 01 40 01 40 01 40 01 40 01 40 01 40 01 40 01 40 01 40 00 40 00 40 00 40 01 40 01 40 01 40 01 40 01 40 01 40 01 40 01 40 01 40 01 40 01 40 01 40 01 40 01 40 01 40 01 40 01 40 01 40 01 40 01 40 02 40 02 40 02 40 02 40 02 40 02 40 02 40 02 40 02 40 02 40 02 40 02 40 02 40 02 40 02 40 02 40 01 40 01 40 01 40 01 40 01 40 01 40 01 40 01 40 01 40 01 40 02 40 02 40 02 40 02 40 02 C7 09 
2025-10-15 20:33:23.872 | TX | 0E 03 A3 C0 00 40 66 BD 
2025-10-15 20:33:23.872 | RX | 0E 03 80 40 02 40 02 40 02 40 02 40 02 40 02 40 02 40 02 40 02 40 02 40 02 40 02 40 02 40 02 40 02 40 01 40 01 40 01 40 01 40 01 40 01 40 01 40 01 40 01 40 01 40 01 40 01 40 01 40 01 40 01 40 01 40 01 40 01 40 01 40 01 40 01 40 02 40 02 40 02 40 02 40 01 40 01 40 01 40 01 40 01 40 01 40 01 40 02 40 02 40 02 40 02 40 02 40 02 40 02 40 02 40 02 40 02 40 02 40 02 40 02 40 02 40 01 40 01 40 01 3C 14 
2025-10-15 20:33:23.903 | TX | 0E 10 00 00 00 01 02 00 51 26 5C 
2025-10-15 20:33:23.904 | RX | 0E 10 00 00 00 01 01 36 
2025-10-15 20:33:23.918 | TX | 0E 10 00 00 00 01 02 01 51 27 CC 
2025-10-15 20:33:23.919 | RX | 0E 10 00 00 00 01 01 36 
2025-10-15 20:33:23.950 | TX | 0E 03 A0 00 00 40 66 C5 
2025-10-15 20:33:23.950 | RX | 0E 03 80 00 1E 00 1C 00 1B 00 1A 00 1A 00 19 00 19 00 1A 00 1B 00 1C 00 1D 00 1D 00 1D 00 1D 00 1D 00 1C 00 1B 00 19 00 17 00 15 00 14 00 13 00 13 00 14 00 15 00 15 00 16 00 17 00 17 00 17 00 17 00 16 00 18 00 19 00 1A 00 1A 00 19 00 18 00 17 00 15 00 14 00 13 00 13 00 12 00 11 00 10 00 0F 00 0D 00 0D 00 0D 00 0D 00 0D 00 0E 00 0E 00 0E 00 0E 00 0E 00 0E 00 0E 00 0F 00 10 00 11 00 12 00 14 98 B4 
2025-10-15 20:33:23.983 | TX | 0E 03 A0 40 00 40 67 11 
2025-10-15 20:33:23.987 | RX | 0E 03 80 00 16 00 18 00 1A 00 1C 00 1E 00 1F 00 21 00 23 00 24 00 25 00 25 00 24 00 21 00 1E 00 19 00 14 00 10 00 0C 00 09 00 09 00 09 40 0C 40 0F 40 13 40 17 40 1B 40 1E C0 21 C0 22 C0 23 C0 22 C0 22 C0 21 C0 20 40 1F 00 1E 00 1D 00 1D 00 1D 00 1D 00 1D 00 1D 00 1D 00 1D 00 1D 00 1C 00 1C 00 1C 00 1C 00 1B 00 1A 00 19 00 17 00 14 00 12 00 10 00 0D 00 0C 00 0A 00 09 00 08 00 07 00 07 00 07 A2 13 
2025-10-15 20:33:24.024 | TX | 0E 03 A0 80 00 40 67 2D 
2025-10-15 20:33:24.024 | RX | 0E 03 80 00 08 00 09 00 
2025-10-15 20:33:24.024 | RX | 0B 00 0C 00 0E 00 0F 00 11 00 12 00 13 00 13 00 14 00 14 00 14 00 15 00 16 00 16 00 17 00 18 00 19 00 1A 00 1B 00 1C 00 1D 00 1F 00 20 00 22 00 24 00 25 00 26 00 26 00 25 00 24 00 22 00 1F 00 1C 00 1A 00 18 00 18 00 18 00 19 00 1A 00 1C 00 1D 00 1F 00 20 00 21 00 21 00 21 00 20 00 20 00 1F 00 1E 00 1C 00 1B 00 1A 00 19 00 19 00 18 00 17 00 16 00 15 00 13 00 12 00 10 5C 1B 
2025-10-15 20:33:24.055 | TX | 0E 03 A0 C0 00 40 66 F9 
2025-10-15 20:33:24.056 | RX | 0E 03 80 00 0F 00 0E 00 0E 00 0E 00 0F 00 10 00 11 00 12 00 12 00 12 00 11 00 11 00 10 00 0E 00 0D 00 0C 00 0B 00 0B 00 0C 00 0D 00 0F 00 12 00 15 00 17 00 19 00 1A 00 1B 00 1B 00 1C 00 1C 00 1D 00 1E 00 1F 00 1F 00 20 00 20 00 21 00 21 00 21 00 20 00 20 00 1F 00 1D 00 1B 00 19 00 16 00 12 00 0F 00 0C 00 0A 00 0A 00 0B 00 0E 00 11 00 14 00 17 40 19 40 1B C0 1C C0 1D C0 1F C0 21 C0 22 80 23 3D A3 
2025-10-15 20:33:24.086 | TX | 0E 03 A1 00 00 40 67 39 
2025-10-15 20:33:24.086 | RX | 0E 03 80 00 23 00 23 00 22 00 21 00 20 00 1E 00 1C 00 1A 00 18 00 17 00 16 00 15 00 14 00 14 00 14 00 15 00 15 00 16 00 17 00 18 00 18 00 18 00 18 00 17 00 16 00 15 00 14 00 13 00 12 00 11 00 10 00 0F 00 0F 00 0F 00 0F 00 0F 00 0F 00 0F 00 0F 00 0F 00 0F 00 10 00 10 00 11 00 12 00 14 00 15 00 17 00 19 00 1B 00 1D 00 1E 00 1F 00 1F 00 1E 00 1E 00 1D 00 1C 00 1C 00 1C 00 1D 00 1C 00 1B 00 19 3F 57 
2025-10-15 20:33:24.117 | TX | 0E 03 A1 40 00 40 66 ED 
2025-10-15 20:33:24.117 | RX | 0E 03 80 00 17 00 15 00 13 00 12 00 12 00 13 00 15 00 18 00 1B 00 1E 00 20 00 21 00 22 00 22 00 22 00 21 00 21 00 21 00 21 00 20 00 1F 00 1D 00 1B 00 17 00 14 00 11 00 0F 00 0E 00 0E 00 0D 00 0D 00 0D 00 0D 00 0D 00 0D 00 0D 00 0D 00 0E 00 0E 00 0E 00 0F 00 10 00 10 00 11 00 12 00 12 00 13 00 13 00 14 00 14 00 15 00 15 00 16 00 16 00 16 00 16 00 17 00 18 00 19 00 1A 00 1B 00 1C 00 1E 00 1F 85 C4 
2025-10-15 20:33:24.148 | TX | 0E 03 A1 80 00 40 66 D1 
2025-10-15 20:33:24.148 | RX | 0E 03 80 00 20 00 21 00 21 00 21 00 22 00 21 00 21 00 21 00 1F 00 1E 00 1B 00 18 00 15 00 11 00 0E 00 0B 00 08 00 06 00 05 00 04 00 05 00 06 00 07 00 08 00 0A 00 0B 00 0C 00 0C 00 0D 00 0D 00 0D 00 0E 00 0D 00 0D 00 0C 00 0B 00 0B 00 0B 00 0B 00 0C 00 0E 00 10 00 13 00 16 00 1A 00 1C 00 1E 00 1F 00 1F 00 1E 00 1C 00 1A 00 18 00 16 00 15 00 14 00 14 00 14 00 14 00 14 00 14 00 13 00 13 00 12 EB 6C 
2025-10-15 20:33:24.179 | TX | 0E 03 A1 C0 00 40 67 05 
2025-10-15 20:33:24.179 | RX | 0E 03 80 00 12 00 11 00 11 00 12 00 13 00 15 00 18 00 1A 00 1C 00 1E 00 1F 00 20 00 21 00 21 00 20 00 1F 00 1D 00 1B 00 1A 00 19 00 18 00 18 00 18 00 19 00 1B 00 1D 00 1F 00 20 00 21 00 21 00 20 00 1E 00 1B 00 17 00 13 00 10 00 0D 00 0B 00 0A 00 0A 00 0B 00 0C 00 0D 00 0E 00 0F 00 0F 00 0E 00 0D 00 0D 00 0C 00 0B 00 0B 00 0C 00 0D 00 0E 00 10 00 11 00 13 00 15 00 16 00 17 00 17 00 17 00 16 25 39 
2025-10-15 20:33:24.210 | TX | 0E 03 A2 00 00 40 67 7D 
2025-10-15 20:33:24.210 | RX | 0E 03 80 40 00 40 00 40 00 40 00 40 01 40 01 40 02 40 02 40 02 40 02 40 02 40 02 40 02 40 02 40 02 40 02 40 02 40 02 40 02 40 02 40 02 40 02 40 02 40 02 40 02 40 02 40 01 40 01 40 01 40 02 40 02 40 02 40 02 40 02 40 02 40 02 40 03 40 03 40 03 40 03 40 03 40 03 40 03 40 02 40 02 40 02 40 02 40 02 40 01 40 01 40 01 40 01 40 02 40 02 40 02 40 01 40 01 40 01 40 01 40 02 40 02 40 02 40 03 40 03 27 F1 
2025-10-15 20:33:24.241 | TX | 0E 03 A2 40 00 40 66 A9 
2025-10-15 20:33:24.242 | RX | 0E 03 80 40 03 40 03 40 03 40 02 40 02 40 02 40 01 40 01 40 01 40 01 40 01 40 01 40 02 40 02 40 02 40 03 40 03 40 03 40 03 40 03 40 02 40 02 40 02 40 02 40 02 40 02 40 03 40 03 40 03 40 02 40 02 40 02 40 02 40 02 40 02 40 01 40 01 40 01 40 01 40 01 40 01 40 01 40 01 40 01 40 01 40 01 40 01 40 02 40 02 40 02 40 02 40 02 40 02 40 02 40 02 40 02 40 02 40 03 40 03 40 03 40 03 40 03 40 03 40 03 52 75 
2025-10-15 20:33:24.271 | TX | 0E 03 A2 80 00 40 66 95 
2025-10-15 20:33:24.272 | RX | 0E 03 80 40 03 40 03 40 02 40 02 40 02 40 02 40 02 40 02 40 02 40 02 40 02 40 02 40 02 40 02 40 02 40 02 40 02 40 02 40 02 40 02 40 02 40 02 40 02 40 02 40 02 40 01 40 01 40 02 40 02 40 02 40 03 40 03 40 03 40 03 40 03 40 02 40 02 40 02 40 02 40 02 40 02 40 02 40 02 40 02 40 02 40 02 40 02 40 02 40 02 40 02 40 02 40 02 40 02 40 02 40 02 40 02 40 02 40 02 40 02 40 02 40 02 40 02 40 02 40 02 3B CF 
2025-10-15 20:33:24.302 | TX | 0E 03 A2 C0 00 40 67 41 
2025-10-15 20:33:24.303 | RX | 0E 03 80 40 02 40 02 40 02 40 02 40 01 40 01 40 01 40 02 40 02 40 02 40 02 40 02 40 02 40 02 40 01 40 01 40 01 40 01 40 01 40 01 40 01 40 01 40 01 40 02 40 02 40 02 40 02 40 02 40 02 40 02 40 02 40 02 40 02 40 02 40 02 40 02 40 02 40 02 40 02 40 02 40 02 40 02 40 02 40 02 40 01 40 01 40 01 40 02 40 02 40 02 40 02 40 02 40 02 40 02 40 02 40 02 40 02 40 03 40 03 40 03 40 03 40 03 40 02 40 02 2A AF 
2025-10-15 20:33:24.335 | TX | 0E 03 A3 00 00 40 66 81 
2025-10-15 20:33:24.335 | RX | 0E 03 80 40 02 40 02 40 02 40 02 40 02 40 02 40 02 40 02 40 02 40 02 40 02 40 02 40 03 40 03 40 03 40 03 40 03 40 03 40 02 40 02 40 02 40 03 40 03 40 03 40 03 40 03 40 02 40 02 40 02 40 02 40 03 40 03 40 03 40 03 40 03 40 02 40 02 40 02 40 01 40 01 40 01 40 01 40 01 40 01 40 01 40 01 40 01 40 02 40 02 40 02 40 02 40 02 40 02 40 02 40 02 40 02 40 02 40 02 40 03 40 03 40 03 40 03 40 02 40 02 CB 92 
2025-10-15 20:33:24.366 | TX | 0E 03 A3 40 00 40 67 55 
2025-10-15 20:33:24.366 | RX | 0E 03 80 40 02 40 02 40 02 40 02 40 02 40 02 40 03 40 03 40 02 40 02 40 02 40 02 40 02 40 02 40 02 40 02 40 02 40 02 40 02 40 02 40 02 40 02 40 02 40 02 40 03 40 03 40 03 40 02 40 02 40 02 40 02 40 02 40 02 40 02 40 02 40 02 40 02 40 02 40 02 40 02 40 02 40 02 40 02 40 02 40 02 40 02 40 01 40 01 40 02 40 02 40 02 40 02 40 02 40 02 40 02 40 02 40 02 40 02 40 02 40 03 40 03 40 03 40 03 40 03 BB 74 
2025-10-15 20:33:24.397 | TX | 0E 03 A3 80 00 40 67 69 
2025-10-15 20:33:24.397 | RX | 0E 03 80 40 03 40 03 40 03 40 03 40 03 40 03 40 03 40 03 40 03 40 03 40 03 40 03 40 03 40 02 40 03 40 02 40 02 40 02 40 02 40 02 40 02 40 02 40 02 40 02 40 02 40 02 40 02 40 02 40 02 40 02 40 02 40 02 40 02 40 02 40 02 40 02 40 02 40 02 40 02 40 02 40 02 40 03 40 02 40 02 40 02 40 02 40 02 40 02 40 02 40 03 40 03 40 03 40 03 40 03 40 02 40 02 40 02 40 02 40 02 40 02 40 02 40 02 40 02 40 02 AD D3 
2025-10-15 20:33:24.428 | TX | 0E 03 A3 C0 00 40 66 BD 
2025-10-15 20:33:24.428 | RX | 0E 03 80 40 02 40 02 40 02 40 02 40 02 40 02 40 02 40 02 40 02 40 02 40 02 40 02 40 02 40 02 40 02 40 02 40 02 40 02 40 02 40 02 40 02 40 02 40 02 40 02 40 02 40 02 40 02 40 02 40 02 40 02 40 02 40 01 40 01 40 01 40 01 40 01 40 01 40 01 40 01 40 02 40 02 40 02 40 02 40 02 40 02 40 02 40 02 40 02 40 02 40 02 40 02 40 02 40 02 40 01 40 01 40 01 40 01 40 02 40 02 40 02 40 02 40 03 40 03 40 03 A5 20 
2025-10-15 20:33:24.460 | TX | 0E 10 00 00 00 01 02 00 51 26 5C 
2025-10-15 20:33:24.460 | RX | 0E 10 00 00 00 01 01 36 
2025-10-15 20:33:24.476 | TX | 0E 10 00 00 00 01 02 01 51 27 CC 
2025-10-15 20:33:24.476 | RX | 0E 10 00 00 00 01 01 36 
2025-10-15 20:33:24.507 | TX | 0E 03 A0 00 00 40 66 C5 
2025-10-15 20:33:24.507 | RX | 0E 03 80 00 18 00 17 00 15 00 14 00 13 00 12 00 12 00 12 00 13 00 14 00 15 00 16 00 17 00 17 00 18 00 19 00 1B 00 1D 00 1F 00 21 80 23 80 24 80 25 80 25 00 25 00 25 00 25 00 25 00 25 00 25 00 25 00 16 00 19 00 1C 40 1E C0 20 C0 21 80 21 80 20 80 1F 00 1D 00 1B 00 19 00 18 00 17 00 15 00 14 00 13 00 12 00 12 00 12 00 13 00 15 00 16 00 18 00 1A 00 1B 00 1D 00 1E 00 1F 00 20 00 20 00 20 00 1F 11 E9 
2025-10-15 20:33:24.538 | TX | 0E 03 A0 40 00 40 67 11 
2025-10-15 20:33:24.538 | RX | 0E 03 80 00 1E 00 1C 00 19 00 16 00 13 00 11 00 0F 00 0F 00 0F 00 10 00 12 00 14 00 16 00 19 00 1B 00 1C 00 1D 00 1E 00 1E 00 1E 00 1E 00 1E 00 1E 00 1E 00 1D 00 1B 00 1A 00 19 00 1A 00 1A 00 1C 00 1E 00 20 00 22 00 23 00 23 00 22 00 1F 00 1B 00 17 00 13 00 10 00 0D 00 0C 00 0C 00 0C 00 0D 00 0E 00 0F 00 11 00 12 00 15 00 17 00 19 00 1C 00 1E 00 1F 00 20 00 20 00 1F 00 1E 00 1C 00 1A 00 18 0A D6 
2025-10-15 20:33:24.568 | TX | 0E 03 A0 80 00 40 67 2D 
2025-10-15 20:33:24.569 | RX | 0E 03 80 00 15 00 13 00 11 00 10 00 10 00 11 00 12 00 14 00 15 00 16 00 17 00 17 00 17 00 17 00 17 00 17 00 18 00 19 00 1A 00 1C 00 1C 00 1D 00 1D 00 1C 00 1B 00 1A 00 19 00 18 00 16 00 15 00 14 00 12 00 11 00 11 00 12 00 13 00 15 00 17 00 18 00 19 00 19 00 19 00 18 00 18 00 18 00 19 00 1A 00 1B 00 1C 00 1D 00 1C 00 1B 00 19 00 16 00 14 00 12 00 11 00 11 00 12 00 13 00 14 00 14 00 15 00 14 1B E2 
2025-10-15 20:33:24.599 | TX | 0E 03 A0 C0 00 40 66 F9 
2025-10-15 20:33:24.600 | RX | 0E 03 80 00 14 00 14 00 14 00 16 00 17 00 19 00 1B 00 1D 00 1E 00 1E 00 1D 00 1C 00 1B 00 19 00 17 00 15 00 13 00 13 00 13 00 14 00 15 00 17 00 19 00 1B 00 1D 00 1E 00 1E 00 1F 00 1F 00 1E 00 1E 00 1E 00 1E 00 1D 00 1C 00 1A 00 17 00 16 00 14 00 14 00 16 00 17 00 19 00 1B 00 1C 00 1D 00 1D 00 1C 00 1C 00 1B 00 1A 00 19 00 17 00 16 00 15 00 15 00 15 00 15 00 16 00 18 00 19 00 1A 00 1B 00 1C 15 E7 
2025-10-15 20:33:24.630 | TX | 0E 03 A1 00 00 40 67 39 
2025-10-15 20:33:24.631 | RX | 0E 03 80 00 1B 00 1A 00 18 00 16 00 13 00 0F 00 0C 00 0A 00 08 00 08 00 09 00 0A 00 0B 00 0C 00 0C 00 0D 00 0E 00 0E 00 10 00 12 00 14 00 16 00 19 00 1C 00 1E 00 20 00 21 00 21 00 21 00 21 00 20 00 1F 00 1E 00 1C 00 1B 00 1A 00 19 00 18 00 17 00 17 00 16 00 16 00 16 00 16 00 17 00 18 00 1A 00 1B 00 1B 00 1B 00 1B 00 1A 00 1A 00 1A 00 1B 00 1C 00 1E 00 1F 00 20 00 20 00 21 00 21 00 22 00 21 95 DF 
2025-10-15 20:33:24.661 | TX | 0E 03 A1 40 00 40 66 ED 
2025-10-15 20:33:24.662 | RX | 0E 03 80 00 21 00 21 00 1F 00 1E 00 1C 00 1B 00 19 00 17 00 16 00 16 00 15 00 15 00 16 00 16 00 16 00 16 00 16 00 15 00 14 00 12 00 0F 00 0C 00 0A 00 09 00 09 00 0A 00 0C 00 0E 00 10 00 12 00 13 00 14 00 15 00 15 00 16 00 17 00 18 00 19 00 1B 00 1C 00 1D 00 1C 00 1B 00 19 00 16 00 13 00 10 00 0E 00 0D 00 0E 00 0F 00 10 00 12 00 14 00 16 00 18 00 1A 00 1B 00 1D 00 1E 00 1F 00 1F 00 1F 00 1F FA 2D 
2025-10-15 20:33:24.693 | TX | 0E 03 A1 80 00 40 66 D1 
2025-10-15 20:33:24.693 | RX | 0E 03 80 00 1E 00 1C 00 1B 00 1A 00 1A 00 1A 00 1B 00 1C 00 1D 00 1E 00 1F 00 20 00 21 00 21 00 21 00 20 00 1F 00 1D 00 1C 00 1B 00 1A 00 19 00 18 00 16 00 14 00 11 00 0F 00 0D 00 0D 00 0E 00 0F 00 12 00 14 00 17 00 19 00 19 00 19 00 17 00 14 00 11 00 0E 00 0C 00 0B 00 0B 00 0C 00 0D 00 0F 00 11 00 12 00 14 00 15 00 17 00 19 00 1B 00 1E 00 20 00 22 00 24 00 25 00 26 00 26 00 25 00 24 00 22 75 20 
2025-10-15 20:33:24.724 | TX | 0E 03 A1 C0 00 40 67 05 
2025-10-15 20:33:24.724 | RX | 0E 03 80 00 20 00 1E 00 1B 00 19 00 17 00 16 00 16 00 17 00 18 00 19 00 1A 00 1B 00 1B 00 1C 00 1D 00 1E 00 1F 00 20 00 21 00 22 00 22 00 21 00 20 00 1F 00 1F 00 1F 00 1F 00 20 00 22 00 24 00 27 00 28 00 29 00 29 00 28 00 26 00 25 00 23 00 21 00 1F 00 1D 00 1B 00 19 00 18 00 17 00 16 00 17 00 17 00 18 00 18 00 18 00 17 00 15 00 13 00 10 00 0E 00 0B 00 09 00 08 00 08 00 09 00 0A 00 0C 00 0E D2 AE 
2025-10-15 20:33:24.755 | TX | 0E 03 A2 00 00 40 67 7D 
2025-10-15 20:33:24.755 | RX | 0E 03 80 40 01 40 01 40 01 40 01 40 01 40 01 40 01 40 01 40 01 40 01 40 01 40 01 40 01 40 01 40 01 40 01 40 01 40 01 40 01 40 01 40 01 40 01 40 01 40 01 40 01 40 01 40 02 40 02 40 02 40 02 40 02 40 01 40 01 40 01 40 01 40 01 40 01 40 01 40 02 40 01 40 01 40 01 40 01 40 01 40 01 40 01 40 01 40 01 40 02 40 02 40 02 40 02 40 02 40 02 40 02 40 02 40 02 40 02 40 02 40 02 40 03 40 03 40 03 40 03 3C 41 
2025-10-15 20:33:24.786 | TX | 0E 03 A2 40 00 40 66 A9 
2025-10-15 20:33:24.786 | RX | 0E 03 80 40 03 40 02 40 02 40 02 40 02 40 02 40 02 40 02 40 02 40 02 40 02 40 02 40 02 40 02 40 02 40 02 40 01 40 01 40 01 40 01 40 01 40 02 40 02 40 02 40 02 40 02 40 02 40 03 40 03 40 03 40 02 40 02 40 02 40 02 40 01 40 01 40 01 40 01 40 01 40 01 40 01 40 02 40 01 40 01 40 01 40 01 40 02 40 02 40 02 40 02 40 02 40 02 40 02 40 02 40 02 40 02 40 02 40 02 40 02 40 02 40 01 40 01 40 01 40 01 1A E9 
2025-10-15 20:33:24.802 | TX | 0E 10 00 00 00 01 02 00 51 26 5C 
2025-10-15 20:33:24.802 | RX | 0E 10 00 00 00 01 01 36 
2025-10-15 20:33:24.803 | TX | 0E 10 00 14 00 12 24 00 00 00 00 00 00 00 00 00 00 00 00 00 00 00 00 00 00 00 00 00 00 00 00 00 00 00 00 00 00 00 00 00 00 00 00 94 08 
2025-10-15 20:33:24.803 | RX | 0E 10 00 14 00 12 00 FF 
2025-10-15 20:33:24.803 | TX | 0E 10 00 00 00 01 02 01 51 27 CC 
2025-10-15 20:33:24.803 | RX | 0E 10 00 00 00 01 01 36 
2025-10-15 20:33:24.803 | TX | 0E 10 00 00 00 01 02 00 0B A6 67 
2025-10-15 20:33:24.804 | RX | 0E 10 00 00 00 01 01 36 
2025-10-15 20:33:24.804 | TX | 0E 03 A0 00 00 40 66 C5 
2025-10-15 20:33:24.804 | RX | 0E 03 80 00 13 00 1A 00 17 40 12 00 15 00 1E 00 21 C0 1E 00 10 00 18 00 22 00 1E 00 19 00 0F 00 08 00 0D 00 07 00 26 00 17 00 1B 00 17 00 03 00 19 00 1B 00 13 00 1F 00 22 00 23 00 1D 00 16 00 1C 00 0C 00 19 00 19 00 1D 00 17 00 16 00 13 00 22 00 13 00 12 00 1A 00 18 00 14 00 0C 00 17 00 12 00 19 40 10 40 08 00 15 00 14 00 1E 60 1D 00 0E 00 21 00 27 00 1E 00 14 00 0A 00 12 00 15 00 15 00 0D E2 1B 
2025-10-15 20:33:24.805 | TX | 0E 03 00 14 00 0C 05 34 
2025-10-15 20:33:24.805 | RX | 0E 03 18 00 00 00 00 00 00 00 00 00 00 00 00 00 00 00 00 00 00 00 00 00 00 00 00 6C EF 
2025-10-15 20:33:24.805 | TX | 0E 03 A0 40 00 40 67 11 
2025-10-15 20:33:24.805 | RX | 0E 03 80 00 0A 00 20 00 1B 00 17 00 18 00 17 00 13 00 19 00 0F 00 0F 00 14 00 1B 00 0D E0 13 00 12 00 1E 00 21 00 21 00 0D 00 1D 00 1F 00 18 00 1F 00 17 00 1B 00 12 00 21 00 10 00 17 00 0C 00 16 00 0F 40 1E 00 1A 00 1B 00 17 00 19 00 19 00 17 00 11 00 1E 00 26 00 23 00 11 00 17 00 14 00 09 00 1B 00 0C 00 1A 00 15 00 17 00 14 00 14 00 17 00 1B 00 21 00 14 40 1A 00 16 00 16 00 19 00 14 80 0E 47 B4 
2025-10-15 20:33:24.806 | TX | 0E 03 00 20 00 06 C4 FD 
2025-10-15 20:33:24.806 | RX | 0E 03 0C 00 00 00 00 00 00 00 00 00 00 00 00 DC 74 
2025-10-15 20:33:24.806 | TX | 0E 03 A0 80 00 40 67 2D 
2025-10-15 20:33:24.806 | RX | 0E 03 80 C0 02 00 15 00 11 00 1A 40 20 00 12 00 16 00 25 00 1C 00 1F 00 1F 00 0E 00 1F 00 24 00 1D 00 11 00 0D 00 1E 00 17 00 07 00 10 00 19 00 08 00 1E 00 1A 00 22 00 18 00 17 00 15 00 11 00 1B 00 0B 00 13 00 1A 00 12 00 1B 00 16 00 17 00 24 00 0F 00 18 00 12 00 23 00 17 00 15 00 1D 00 1C 00 15 00 15 00 0E 00 16 00 05 80 0B 00 19 00 19 00 1E 40 1E 00 14 00 21 00 13 00 11 00 22 00 13 00 14 DF 22 
2025-10-15 20:33:24.807 | TX | 0E 03 00 26 00 05 64 FD 
2025-10-15 20:33:24.807 | RX | 0E 03 0A 00 00 00 00 00 00 00 00 00 00 30 B9 
2025-10-15 20:33:24.807 | TX | 0E 03 A0 C0 00 40 66 F9 
2025-10-15 20:33:24.807 | RX | 0E 03 80 00 1D 00 1E 00 1E 00 13 00 0F 00 19 00 1C 00 22 00 0C 00 1A 00 16 00 12 00 15 00 0D C0 08 00 20 00 22 00 24 00 
2025-10-15 20:33:24.808 | RX | 15 00 1C 00 21 00 18 00 14 00 1C 00 14 00 0F 00 13 00 07 00 18 00 0A 00 12 00 17 00 16 00 1A 00 20 00 20 00 1F 00 20 00 10 00 19 00 12 00 18 40 19 00 16 00 21 00 19 00 1F 00 24 00 19 00 24 00 25 00 1F 00 17 00 0D 00 11 00 17 00 12 00 0D 00 16 00 0D 00 0E 00 0F 00 16 00 1D A6 35 
2025-10-15 20:33:24.808 | TX | 0E 03 A1 00 00 40 67 39 
2025-10-15 20:33:24.808 | RX | 0E 03 80 00 20 00 22 00 24 00 24 00 25 00 24 00 23 00 23 00 22 00 22 00 21 00 21 00 20 00 20 00 1F 00 1E 00 1E 00 1D 00 1C 00 1B 00 1A 00 18 00 16 00 13 00 10 00 0E 00 0E 00 0E 40 10 40 12 C0 14 C0 17 C0 18 C0 19 C0 1A C0 1A C0 1B C0 1B C0 1B C0 1B C0 1A C0 18 80 16 80 14 80 13 80 12 80 
2025-10-15 20:33:24.808 | RX | 12 80 12 00 13 00 14 00 14 00 15 00 16 00 17 00 18 00 18 00 19 00 19 00 1A 00 1B 00 1C 00 1D 00 1D 00 1E 9C 20 
2025-10-15 20:33:24.809 | TX | 0E 03 A1 40 00 40 66 ED 
2025-10-15 20:33:24.809 | RX | 0E 03 80 00 1E 00 1D 00 1C 00 1B 00 19 00 18 00 17 00 15 00 14 00 13 00 12 00 10 00 0F 00 0D 00 0D 00 0C 00 0C 00 0D 00 0E 00 10 00 12 00 14 00 16 00 18 00 1A 00 1C 00 1E 00 1F 00 1F 00 1F 00 20 00 20 00 20 00 20 00 21 00 21 00 21 00 21 00 21 00 21 00 20 00 1F 00 1D 00 1B 00 18 00 14 00 10 00 0C 00 08 00 05 00 04 00 04 00 06 00 09 80 0D 80 10 80 13 80 16 80 18 80 19 80 1A 80 1A 80 19 80 18 02 E9 
2025-10-15 20:33:24.809 | TX | 0E 03 A1 80 00 40 66 D1 
2025-10-15 20:33:24.809 | RX | 0E 03 80 C0 17 C0 16 C0 14 C0 12 C0 0F C0 0D C0 0A C0 08 00 06 00 06 00 06 00 07 00 09 00 0B 00 0D 00 0F 00 11 00 13 00 16 00 18 00 1A 00 1B 00 1C 00 1C 00 1C 00 1C 00 1B 00 1B 00 1B 00 1A 00 1A 00 18 00 17 00 15 00 14 00 12 00 12 00 12 00 14 00 17 00 1B 00 1F 00 23 00 25 00 27 00 28 00 27 00 25 00 23 00 21 00 1E 00 1D 00 1D 00 1E 00 1E 00 1F 00 1F 00 1F 00 1F 00 1E 00 1D 00 1C 00 1B 00 1A 58 81 
2025-10-15 20:33:24.809 | TX | 0E 03 A1 C0 00 40 67 05 
2025-10-15 20:33:24.810 | RX | 0E 03 80 00 19 00 18 00 15 00 11 00 0D 00 08 00 04 00 01 1F FF 1F FF 1F FF 40 00 C0 02 C0 04 C0 06 C0 07 C0 08 C0 0A C0 0B C0 0E C0 10 C0 13 C0 15 80 16 80 17 80 17 80 17 00 16 00 15 00 14 00 14 00 14 00 13 00 13 00 13 00 14 00 15 00 17 00 19 00 1B 00 1D 00 1E 00 1F 00 1F 00 1F 00 1E 00 1D 00 1D 00 1C 00 1C 00 1B 00 1A 00 18 00 17 00 16 00 16 00 17 00 18 00 19 00 1B 00 1C 00 1D 00 1F 00 1F AC 51 
2025-10-15 20:33:24.810 | TX | 0E 03 A2 00 00 40 67 7D 
2025-10-15 20:33:24.810 | RX | 0E 03 80 40 02 40 01 40 01 40 01 40 01 40 01 40 02 40 02 40 02 40 03 40 03 40 03 40 02 40 02 40 02 40 02 40 02 40 03 40 03 40 03 40 03 40 03 40 02 40 02 40 02 40 01 40 01 40 01 40 01 40 02 40 02 40 02 40 02 40 02 40 02 40 02 40 02 40 02 40 02 40 02 40 02 40 03 40 03 40 03 40 03 40 03 40 02 40 02 40 02 40 03 40 03 40 03 40 03 40 03 40 02 40 02 40 02 40 02 40 02 40 02 40 02 40 02 40 02 40 02 EC BC 
2025-10-15 20:33:24.810 | TX | 0E 03 A2 40 00 40 66 A9 
2025-10-15 20:33:24.810 | RX | 0E 03 80 40 02 40 02 40 02 40 02 40 02 40 02 40 02 40 01 40 01 40 01 40 01 40 01 40 01 40 02 40 02 40 02 40 02 40 02 40 02 40 02 40 03 40 03 40 03 40 03 40 03 40 03 40 03 40 03 40 03 40 03 40 03 40 03 40 03 40 03 40 03 40 03 40 03 40 03 40 03 40 03 40 03 40 03 40 02 40 02 40 02 40 02 40 02 40 01 40 01 40 01 40 01 40 01 40 01 40 01 40 01 40 02 40 02 40 02 40 01 40 01 40 01 40 01 40 01 40 01 46 76 
2025-10-15 20:33:24.811 | TX | 0E 03 A2 80 00 40 66 95 
2025-10-15 20:33:24.811 | RX | 0E 03 80 40 01 40 02 40 02 40 02 40 02 40 02 40 02 40 02 40 02 40 02 40 02 40 03 40 03 40 02 40 02 40 02 40 02 40 02 40 02 40 02 40 02 40 02 40 02 40 02 40 02 40 02 40 02 40 02 40 02 40 02 40 03 40 03 40 03 40 03 40 03 40 03 40 03 40 03 40 03 40 03 40 03 40 03 40 03 40 03 40 03 40 03 40 02 40 02 40 02 40 02 40 02 40 02 40 02 40 02 40 02 40 02 40 02 40 02 40 02 40 02 40 02 40 02 40 02 40 02 A2 98 
2025-10-15 20:33:24.811 | TX | 0E 03 A2 C0 00 40 67 41 
2025-10-15 20:33:24.811 | RX | 0E 03 80 40 02 40 02 40 02 40 02 40 02 40 02 40 02 40 02 40 02 40 02 40 02 40 02 40 01 40 01 40 01 40 01 40 02 40 01 40 01 40 01 40 01 40 01 40 02 40 02 40 02 40 02 40 03 40 03 40 03 40 02 40 02 40 01 40 01 40 01 40 01 40 01 40 01 40 01 40 02 40 02 40 02 40 02 40 02 40 02 40 02 40 02 40 02 40 02 40 03 40 03 40 03 40 03 40 03 40 02 40 02 40 02 40 02 40 02 40 02 40 02 40 02 40 02 40 02 40 02 63 3A 
2025-10-15 20:33:24.811 | TX | 0E 03 A3 00 00 40 66 81 
2025-10-15 20:33:24.811 | RX | 0E 03 80 40 02 40 02 40 02 40 02 40 02 40 02 40 02 40 02 40 02 40 02 40 02 40 02 40 02 40 02 40 02 40 02 40 02 40 02 40 02 40 02 40 02 40 02 40 02 40 01 40 01 40 01 40 01 40 01 40 01 40 01 40 01 40 01 40 01 40 01 40 02 40 02 40 02 40 02 40 03 40 03 40 03 40 03 40 02 40 02 40 02 40 02 40 02 40 02 40 02 40 02 40 03 40 03 40 03 40 03 40 03 40 03 40 03 40 03 40 03 40 03 40 03 40 03 40 03 40 02 62 E1 
2025-10-15 20:33:24.812 | TX | 0E 03 A3 40 00 40 67 55 
2025-10-15 20:33:24.812 | RX | 0E 03 80 40 02 40 02 40 02 40 03 40 03 40 03 40 03 40 03 40 03 40 03 40 03 40 02 40 02 40 02 40 02 40 02 40 02 40 02 40 02 40 02 40 02 40 02 40 02 40 02 40 02 40 02 40 02 40 02 40 01 40 02 40 02 40 02 40 02 40 02 40 02 40 02 40 02 40 02 40 02 40 03 40 03 40 03 40 03 40 03 40 03 40 03 40 03 40 03 40 03 40 03 40 03 40 03 40 03 40 03 40 03 40 03 40 03 40 03 40 03 40 02 40 02 40 02 40 02 40 01 29 C7 
2025-10-15 20:33:24.812 | TX | 0E 03 A3 80 00 40 67 69 
2025-10-15 20:33:24.812 | RX | 0E 03 80 40 01 40 01 40 02 40 02 40 02 40 02 40 02 40 03 40 03 40 03 40 03 40 03 40 03 40 03 40 03 40 03 40 03 40 03 40 03 40 03 40 03 40 03 40 03 40 03 40 03 40 03 40 03 40 03 40 03 40 03 40 03 40 04 40 04 40 04 40 03 40 03 40 03 40 03 40 03 40 03 40 03 40 03 40 03 40 03 40 03 40 03 40 02 40 02 40 02 40 02 40 02 40 02 40 02 40 02 40 02 40 03 40 03 40 03 40 03 40 03 40 03 40 03 40 03 40 03 EA 11 
2025-10-15 20:33:24.813 | TX | 0E 03 A3 C0 00 40 66 BD 
2025-10-15 20:33:24.813 | RX | 0E 03 80 40 03 40 03 40 03 40 03 40 03 40 03 40 03 40 03 40 02 40 02 40 02 40 02 40 02 40 02 40 02 40 02 40 02 40 02 40 02 40 02 40 03 40 02 40 02 40 02 40 02 40 01 40 01 40 01 40 01 40 01 40 01 40 01 40 02 40 02 40 02 40 02 40 02 40 02 40 02 40 02 40 02 40 02 40 02 40 02 40 02 40 02 40 02 40 02 40 02 40 02 40 02 40 02 40 02 40 02 40 02 40 02 40 03 40 03 40 03 40 03 40 03 40 03 40 02 40 02 A8 4E 
2025-10-15 20:33:24.813 | TX | 0E 10 00 00 00 01 02 00 51 26 5C 
2025-10-15 20:33:24.813 | RX | 0E 10 00 00 00 01 01 36 
2025-10-15 20:33:24.814 | TX | 0E 10 00 00 00 01 02 01 51 27 CC 
2025-10-15 20:33:24.814 | RX | 0E 10 00 00 00 01 01 36 
2025-10-15 20:33:24.814 | TX | 0E 03 A0 00 00 40 66 C5 
2025-10-15 20:33:24.814 | RX | 0E 03 80 00 18 00 18 00 18 00 18 00 18 00 18 00 18 00 19 00 1A 00 1A 00 1A 00 1A 00 1A 00 19 00 17 00 16 00 15 00 14 00 14 00 13 00 13 00 13 00 13 00 13 00 13 00 13 00 14 00 15 00 16 00 18 00 1A 00 24 00 24 00 24 00 24 00 24 00 23 00 22 00 22 00 21 00 21 00 21 00 21 00 20 00 1E 00 1D 00 1C 00 1C 00 1C 00 1C 00 1E 00 1F 00 20 00 21 00 22 00 21 00 20 00 1F 00 1D 00 1B 00 1A 00 18 00 16 00 13 39 05 
2025-10-15 20:33:24.814 | TX | 0E 03 A0 40 00 40 67 11 
2025-10-15 20:33:24.814 | RX | 0E 03 80 00 11 00 0E 00 0B 00 08 00 05 00 03 00 03 00 03 00 04 00 05 00 08 00 0B 00 0F 00 13 00 17 00 1B 00 1E 00 21 40 23 40 25 40 27 40 28 40 29 40 2A 40 2A 40 2A 40 29 40 29 40 27 40 25 40 23 40 21 40 20 40 1E 40 1E 40 1E 40 1F 40 21 00 22 00 24 00 26 00 27 00 28 00 28 00 27 00 26 00 25 00 25 00 24 00 24 00 23 00 22 00 20 00 1E 00 1B 00 19 00 17 00 15 00 14 00 14 00 14 00 15 00 16 00 17 
2025-10-15 20:33:24.814 | RX | B5 06 
2025-10-15 20:33:24.815 | TX | 0E 03 A0 80 00 40 67 2D 
2025-10-15 20:33:24.815 | RX | 0E 03 80 00 19 00 1A 00 1B 00 1C 00 1C 00 1C 00 1C 00 1C 00 1B 00 1B 00 19 00 17 00 15 00 13 00 11 00 0F 00 0E 00 0E 00 0D 00 0D 00 0C 00 0B 00 0A 00 09 00 08 00 09 00 0A 00 0C 40 0E 40 10 40 13 40 14 40 16 40 17 40 18 40 19 40 1A 40 1B 40 1C 40 1D 40 1D 40 1E 40 1E 40 1F 40 1F 40 20 40 22 40 24 40 25 40 27 00 28 00 28 00 28 00 27 00 27 00 26 00 26 00 27 00 28 00 29 00 2A 00 2A 00 29 00 27 99 10 
2025-10-15 20:33:24.815 | TX | 0E 03 A0 C0 00 40 66 F9 
2025-10-15 20:33:24.815 | RX | 0E 03 80 00 24 00 22 00 1F 00 1C 00 1A 00 18 00 17 00 16 00 15 00 14 00 13 00 11 00 10 00 0F 00 0E 00 0E 00 0F 00 11 00 13 00 16 00 18 00 19 00 1A 00 1C 00 1C 00 1D 00 1D 00 1C 00 1B 00 1A 00 1A 00 19 00 19 00 1A 00 1B 00 1C 00 1C 00 1C 00 1A 00 18 00 16 00 13 00 11 00 0E 00 0D 00 0C 00 0C 00 0D 00 0E 00 10 00 12 00 14 00 16 00 17 00 17 00 17 40 17 40 16 40 15 40 15 40 14 40 14 40 15 00 16 82 46 
2025-10-15 20:33:24.815 | TX | 0E 03 A1 00 00 40 67 39 
2025-10-15 20:33:24.815 | RX | 0E 03 80 00 18 00 1A 00 1D 00 1E 00 1F 00 20 00 21 00 22 00 23 00 24 00 24 00 25 00 26 00 27 00 27 00 27 00 26 00 26 00 25 00 24 00 23 00 21 00 20 00 1D 00 1A 00 18 00 15 00 14 00 14 00 15 00 17 00 19 00 1A 00 1C 00 1D 00 1D 00 1D 00 1D 00 1C 00 1B 00 1A 00 19 00 18 00 17 00 16 00 16 00 16 00 16 00 15 00 15 00 15 00 15 00 16 00 16 00 16 00 15 00 13 00 11 00 0D 00 0A 00 06 00 03 00 02 00 02 20 75 
2025-10-15 20:33:24.816 | TX | 0E 03 A1 40 00 40 66 ED 
2025-10-15 20:33:24.816 | RX | 0E 03 80 00 03 00 05 00 07 00 0A 00 0D 00 0F 00 12 80 15 80 18 80 1A 80 1D 80 1F 80 21 80 22 80 24 00 26 00 28 00 2A 00 2B 00 2C 00 2C 00 2A 00 28 00 26 00 23 00 21 00 1F 00 1D 00 1C 00 1C 00 1C 00 1D 00 1D 00 1E 00 1E 00 1E 00 1D 00 1B 00 19 00 17 00 15 00 13 00 10 00 0E 00 0C 00 0B 00 0A 00 0A 00 0A 00 0C 00 0D 00 0F 00 11 00 12 00 13 00 14 00 15 00 15 00 15 00 15 00 16 00 16 00 17 00 17 B5 32 
2025-10-15 20:33:24.816 | TX | 0E 03 A1 80 00 40 66 D1 
2025-10-15 20:33:24.816 | RX | 0E 03 80 00 17 00 18 00 18 00 18 00 17 00 17 00 16 00 15 00 15 00 14 00 13 00 12 00 11 00 10 00 0F 00 0E 00 0D 00 0C 00 0C 00 0B 00 0B 00 0B 00 0B 00 0C 00 0C 00 0D 00 0E 00 0F 00 11 00 13 00 15 00 18 00 1A 00 1D 00 1F 00 21 00 23 00 24 00 25 00 25 00 25 40 24 40 24 40 24 40 25 40 25 40 25 40 25 40 25 00 25 00 25 00 25 00 26 00 26 00 25 00 25 00 24 00 23 00 22 00 21 00 20 00 20 00 1F 00 1F 6F 47 
2025-10-15 20:33:24.816 | TX | 0E 03 A1 C0 00 40 67 05 
2025-10-15 20:33:24.817 | RX | 0E 03 80 00 1E 00 1E 00 1E 00 1D 00 1D 00 1C 00 1A 00 18 00 16 00 14 00 12 00 11 00 10 00 10 00 11 00 11 00 12 00 13 00 15 00 16 00 17 00 18 00 18 00 19 00 1A 00 1A 00 1A 00 19 00 17 00 14 00 11 00 0E 00 0B 00 09 00 08 00 08 00 09 00 0B 00 0E 00 11 00 15 20 1A 60 1E 60 21 60 24 E0 25 E0 26 E0 26 E0 25 E0 24 E0 23 E0 22 E0 21 E0 21 E0 20 C0 20 C0 1F C0 1E C0 1E 40 1D 40 1D 40 1C 40 1D 00 1E 3E 5F 
2025-10-15 20:33:24.817 | TX | 0E 03 A2 00 00 40 67 7D 
2025-10-15 20:33:24.817 | RX | 0E 03 80 40 02 40 02 40 02 40 02 40 02 40 02 40 02 40 02 40 02 40 02 40 01 40 01 40 01 40 01 40 01 40 01 40 01 40 01 40 01 40 01 40 01 40 01 40 01 40 01 40 01 40 01 40 01 40 01 40 01 40 01 40 01 40 02 40 02 40 02 40 02 40 02 40 02 40 02 40 02 40 02 40 02 40 02 40 02 40 02 40 02 40 02 40 02 40 02 40 03 40 03 40 03 40 03 40 03 40 02 40 03 40 03 40 03 40 03 40 03 40 03 40 03 40 03 40 02 40 02 52 53 
2025-10-15 20:33:24.817 | TX | 0E 03 A2 40 00 40 66 A9 
2025-10-15 20:33:24.817 | RX | 0E 03 80 40 02 40 02 40 02 40 02 40 02 40 02 40 02 40 02 40 01 40 01 40 02 40 02 40 02 40 03 40 03 40 03 40 03 40 03 40 03 40 02 40 02 40 02 40 02 40 02 40 02 40 02 40 02 40 02 40 02 40 02 40 02 40 03 40 03 40 03 40 03 40 03 40 03 40 03 40 03 40 03 40 03 40 02 40 02 40 02 40 02 40 02 40 02 40 02 40 03 40 03 40 03 40 03 40 03 40 02 40 02 40 02 40 02 40 02 40 02 40 02 40 02 40 02 40 02 40 02 49 11 
2025-10-15 20:33:24.818 | TX | 0E 03 A2 80 00 40 66 95 
2025-10-15 20:33:24.818 | RX | 0E 03 80 40 02 40 03 40 03 40 03 40 03 40 03 40 02 40 02 40 02 40 02 40 02 40 02 40 02 40 02 40 02 40 02 40 03 40 03 40 03 40 03 40 03 40 03 40 03 40 03 40 02 40 02 40 02 40 02 40 02 40 02 40 02 40 02 40 03 40 02 40 02 40 02 40 02 40 02 40 02 40 02 40 02 40 02 40 02 40 02 40 02 40 02 40 02 40 02 40 02 40 02 40 02 40 02 40 02 40 02 40 02 40 02 40 02 40 02 40 02 40 02 40 02 40 02 40 02 40 02 24 BB 
2025-10-15 20:33:24.818 | TX | 0E 03 A2 C0 00 40 67 41 
2025-10-15 20:33:24.818 | RX | 0E 03 80 40 02 40 02 40 02 40 02 40 02 40 03 40 03 40 03 40 02 40 02 40 02 40 02 40 02 40 02 40 02 40 02 40 02 40 02 40 02 40 03 40 03 40 03 40 02 40 02 40 02 40 02 40 02 40 02 40 02 40 02 40 03 40 03 40 03 40 03 40 03 40 03 40 03 40 03 40 03 40 03 40 03 40 03 40 03 40 03 40 03 40 02 40 02 40 02 40 02 40 02 40 02 40 02 40 02 40 02 40 02 40 02 40 02 40 02 40 02 40 02 40 02 40 02 40 02 40 02 14 FD 
2025-10-15 20:33:24.819 | TX | 0E 03 A3 00 00 40 66 81 
2025-10-15 20:33:24.819 | RX | 0E 03 80 40 02 40 02 40 02 40 02 40 02 40 02 40 02 40 02 40 02 40 02 40 02 40 02 40 02 40 02 40 02 40 03 40 02 40 02 40 02 40 02 40 02 40 02 40 02 40 02 40 02 40 02 40 02 40 02 40 02 40 02 40 02 40 02 40 02 40 02 40 02 40 02 40 02 40 02 40 02 40 02 40 02 40 02 40 02 40 02 40 02 40 02 40 02 40 02 40 02 40 02 40 02 40 02 40 02 40 02 40 02 40 02 40 02 40 02 40 02 40 02 40 02 40 02 40 02 40 02 C2 48 
2025-10-15 20:33:24.819 | TX | 0E 03 A3 40 00 40 67 55 
2025-10-15 20:33:24.819 | RX | 0E 03 80 40 02 40 01 40 01 40 02 40 02 40 02 40 03 40 03 40 03 40 03 40 03 40 02 40 02 40 02 40 02 40 01 40 01 40 01 40 02 40 02 40 02 40 02 40 02 40 02 40 02 40 02 40 02 40 02 40 02 40 02 40 02 40 02 40 02 40 02 40 02 40 02 40 03 40 03 40 03 40 03 40 03 40 02 40 02 40 01 40 01 40 01 40 01 40 01 40 01 40 02 40 02 40 02 40 02 40 02 40 02 40 02 40 02 40 02 40 02 40 02 40 02 40 02 40 02 40 02 70 C2 
2025-10-15 20:33:24.820 | TX | 0E 03 A3 80 00 40 67 69 
2025-10-15 20:33:24.820 | RX | 0E 03 80 40 02 40 02 40 02 40 02 40 02 40 02 40 02 40 02 40 02 40 02 40 02 40 02 40 02 40 02 40 02 40 02 40 02 40 02 40 02 40 02 40 02 40 02 40 01 40 01 40 01 40 01 40 02 40 02 40 02 40 02 40 02 40 02 40 02 40 02 40 02 40 02 40 02 40 02 40 03 40 03 40 03 40 03 40 03 40 03 40 02 40 02 40 02 40 02 40 02 40 02 40 02 40 02 40 02 40 02 40 02 40 02 40 02 40 02 40 02 40 02 40 02 40 02 40 02 40 02 5B FD 
2025-10-15 20:33:24.820 | TX | 0E 03 A3 C0 00 40 66 BD 
2025-10-15 20:33:24.821 | RX | 0E 03 80 40 02 40 02 40 02 40 03 40 03 40 03 40 03 40 03 40 03 40 03 40 03 40 02 40 02 40 02 40 02 40 02 40 02 40 02 40 02 40 03 40 03 40 03 40 03 40 03 40 03 40 02 40 02 40 02 40 02 40 02 40 03 40 03 40 03 40 03 40 03 40 03 40 03 40 03 40 03 40 03 40 02 40 02 40 02 40 02 40 02 40 02 40 02 40 02 40 02 40 02 40 02 40 02 40 02 40 02 40 02 40 02 40 02 40 02 40 02 40 02 40 02 40 02 40 02 40 02 0C C9 
2025-10-15 20:33:24.821 | TX | 0E 10 00 00 00 01 02 00 51 26 5C 
2025-10-15 20:33:24.821 | RX | 0E 10 00 00 00 01 01 36 
2025-10-15 20:33:24.821 | TX | 0E 10 00 00 00 01 02 01 51 27 CC 
2025-10-15 20:33:24.822 | RX | 0E 10 00 00 00 01 01 36 
2025-10-15 20:33:24.822 | TX | 0E 03 A0 00 00 40 66 C5 
2025-10-15 20:33:24.822 | RX | 0E 03 80 80 18 00 17 00 16 00 15 00 14 00 13 00 13 00 13 00 14 00 15 00 16 00 17 00 17 00 17 00 17 00 17 00 17 00 18 00 18 00 19 00 19 00 18 00 18 00 16 00 14 00 12 00 11 00 10 00 10 00 11 00 12 80 1E 80 1E 80 1D 80 1C 80 1B 80 18 C0 16 C0 14 C0 12 40 10 40 10 40 10 40 12 40 13 40 15 40 16 40 16 40 16 40 16 40 17 00 18 00 19 00 1B 00 1D 00 1F 00 20 00 20 00 1F 00 1F 00 1D 00 1D 00 1C 00 1D 78 9C 
2025-10-15 20:33:24.822 | TX | 0E 03 A0 40 00 40 67 11 
2025-10-15 20:33:24.822 | RX | 0E 03 80 00 1D 00 1D 00 1D 00 1C 00 1A 00 17 00 13 00 10 00 0D 00 0B 00 0B 00 0B 00 0C 00 0D 00 0E 00 0F 00 10 00 11 00 11 00 11 00 11 00 10 00 10 00 11 00 11 00 12 00 12 00 12 00 12 00 11 00 0F 00 0D 00 0C 00 0C 00 0C 00 0C 00 0D 00 0E 00 10 00 13 00 16 C0 19 C0 1C C0 1E C0 21 C0 23 C0 26 C0 28 C0 29 C0 29 C0 29 C0 28 C0 26 C0 24 C0 21 C0 1F 80 1D 80 1C 80 1C 80 1D 80 1D 80 1E 00 1E 00 1E D1 4B 
2025-10-15 20:33:24.823 | TX | 0E 03 A0 80 00 40 67 2D 
2025-10-15 20:33:24.823 | RX | 0E 03 80 00 1E 00 1E 00 1D 00 1D 00 1B 00 1A 00 19 00 17 00 16 00 15 00 14 00 13 00 12 00 12 00 11 00 11 00 10 00 0F 00 0F 00 0F 00 0F 00 10 00 11 00 13 00 15 00 17 00 18 00 19 00 1A 00 1A 00 1B 00 1B 00 1A 00 19 00 17 00 15 00 13 00 11 00 10 00 0F 00 0F 00 10 00 12 00 15 00 18 00 1C 00 1E 00 20 00 21 00 20 00 1E 00 1D 00 1B 00 1A 40 1B 60 1B 60 1C 60 1E E0 1F E0 20 E0 22 E0 23 C0 23 C0 24 DE 3B 
2025-10-15 20:33:24.823 | TX | 0E 03 A0 C0 00 40 66 F9 
2025-10-15 20:33:24.823 | RX | 0E 03 80 C0 23 C0 23 C0 21 C0 20 C0 1E C0 1B C0 19 C0 16 80 15 80 14 80 13 80 13 80 14 00 14 00 14 00 14 00 14 00 14 00 14 00 14 00 14 00 14 00 14 00 13 00 11 00 10 00 0F 00 0E 00 0E 00 0E 00 0E 00 0E 00 0E 00 0D 00 0C 00 0A 00 08 00 07 00 06 00 05 00 06 00 07 00 09 00 0B 00 0D 00 0F 00 12 00 14 00 17 00 1A 00 1D 00 1F 00 21 00 22 00 22 00 22 00 22 00 22 00 22 00 22 00 20 00 1F 00 1D 00 1C DA F4 
2025-10-15 20:33:24.824 | TX | 0E 03 A1 00 00 40 67 39 
2025-10-15 20:33:24.824 | RX | 0E 03 80 00 1A 00 1A 00 19 00 18 00 18 00 17 00 15 00 14 00 13 00 12 00 13 00 14 00 16 00 17 00 18 80 19 80 19 80 18 80 17 C0 17 C0 17 C0 17 C0 18 C0 18 C0 18 C0 16 C0 14 80 11 80 0F 80 0C 00 0A 00 09 00 09 00 0A 00 0C 00 0E 00 10 00 12 00 14 00 15 00 15 00 15 00 15 00 15 00 16 00 17 00 18 00 18 00 18 00 17 00 16 00 14 00 12 00 10 00 0F 00 0D 00 0B 00 0A 00 09 00 09 00 08 00 09 00 09 00 0A 97 FD 
2025-10-15 20:33:24.824 | TX | 0E 03 A1 40 00 40 66 ED 
2025-10-15 20:33:24.825 | RX | 0E 03 80 00 0A 00 0B 00 0C 00 0E 00 0F 00 11 00 14 00 16 00 19 00 1C 00 1E 00 20 00 21 00 22 00 22 00 21 00 21 00 21 00 22 00 22 00 23 00 22 00 22 00 21 00 1F 00 1D 00 1B 00 18 00 14 00 11 00 0E 00 0D 00 0C 00 0C 00 0D 00 0E 00 10 80 13 80 15 80 17 80 19 80 1A 80 1C 80 1D 80 1D 80 1D 80 1D 80 1D 00 1D 00 1E 00 1E 00 1E 00 1E 00 1E 00 1D 00 1C 00 1B 00 1B 00 1B 00 1B 00 1B 00 1B 00 1A 00 19 A3 ED 
2025-10-15 20:33:24.825 | TX | 0E 03 A1 80 00 40 66 D1 
